date Tue Sep 20 03:42:23.840 pm 2016
base hex  timestamps absolute
internal events logged
// version 9.0.0
Begin Triggerblock Tue Sep 20 03:42:23.840 pm 2016
   0.000000 Start of measurement
   0.002220 Li SleepModeEvent 0 starting up in wake mode
   0.005989 CAN 1 Status:chip status error active
   0.005989 CAN 2 Status:chip status error active
   0.005989 CAN 3 Status:chip status error active
   0.007110 1  10306099x       Rx   d 3 44 59 01  Length = 2754642 BitCount = 96 ID = 271605913x
   0.011464 1  10264040x       Rx   d 8 04 06 00 00 00 00 00 25  Length = 4228208 BitCount = 145 ID = 270942272x
   0.019296 1  10210040x       Rx   d 8 00 00 00 00 00 00 00 00  Length = 4284562 BitCount = 147 ID = 270598208x
   0.022211 1  10308060x       Rx   d 3 44 59 01  Length = 2788236 BitCount = 97 ID = 271614048x
   0.026474 1  1022A040x       Rx   d 8 00 B0 00 12 42 00 00 22  Length = 4138208 BitCount = 142 ID = 270704704x
   0.034277 1  10220040x       Rx   d 8 10 00 00 00 00 05 00 00  Length = 4288208 BitCount = 147 ID = 270663744x
   0.038659 1  1022C040x       Rx   d 6 00 10 00 20 00 00  Length = 3684586 BitCount = 127 ID = 270712896x
   0.044304 1  1022E040x       Rx   d 8 00 00 00 00 00 00 00 00  Length = 4318208 BitCount = 148 ID = 270721088x
   0.049227 1  10230040x       Rx   d 8 10 00 00 00 10 00 00 00  Length = 4258208 BitCount = 146 ID = 270729280x
   0.052556 1  10250040x       Rx   d 2 00 03  Length = 2604669 BitCount = 91 ID = 270860352x
   0.059102 1  102CC040x       Rx   d 8 00 09 CF 69 00 87 06 A8  Length = 4078212 BitCount = 140 ID = 271368256x
   0.064145 1  102CE040x       Rx   d 8 90 00 64 7F 00 00 26 A8  Length = 4108212 BitCount = 141 ID = 271376448x
   0.069214 1  10240040x       Rx   d 8 83 FE 88 01 00 F4 0F FC  Length = 4194562 BitCount = 144 ID = 270794816x
   0.074079 1  102D0040x       Rx   d 8 01 69 01 ED 7C 8A 00 FF  Length = 4078212 BitCount = 140 ID = 271384640x
   0.079209 1  102E0040x       Rx   d 8 00 33 CA 6F 8A 00 62 81  Length = 4134566 BitCount = 142 ID = 271450176x
   0.082274 1  106B0040x       Rx   d 1 00  Length = 2308248 BitCount = 81 ID = 275447872x
   0.089173 1  102CA040x       Rx   d 8 00 40 0C B7 29 00 F1 00  Length = 4104566 BitCount = 141 ID = 271360064x
   0.094424 1  106B8040x       Rx   d 8 00 00 00 00 00 00 00 00  Length = 4314558 BitCount = 148 ID = 275480640x
   0.098625 1  C800040x        Rx   d 6 08 CB 00 00 35 28  Length = 3594590 BitCount = 124 ID = 209715264x
   0.103520 1  106C0040x       Rx   d 5 00 06 0F 07 00  Length = 3448220 BitCount = 119 ID = 275513408x
   0.109254 1  10264040x       Rx   d 8 04 06 00 00 00 00 00 38  Length = 4258208 BitCount = 146 ID = 270942272x
   0.113127 1  1077C040x       Rx   d 4 30 30 01 F4  Length = 3148224 BitCount = 109 ID = 276283456x
   0.119306 1  10210040x       Rx   d 8 00 00 00 00 00 00 00 00  Length = 4284562 BitCount = 147 ID = 270598208x
   0.124351 1  10780040x       Rx   d 8 00 00 01 04 08 00 00 22  Length = 4288208 BitCount = 147 ID = 276299840x
   0.129303 1  10220040x       Rx   d 8 10 00 00 00 00 05 00 00  Length = 4288208 BitCount = 147 ID = 270663744x
   0.133776 1  10788040x       Rx   d 6 08 00 00 00 00 00  Length = 3778231 BitCount = 130 ID = 276332608x
   0.139271 1  1022E040x       Rx   d 8 20 00 00 00 20 00 00 00  Length = 4288208 BitCount = 147 ID = 270721088x
   0.143444 1  10806040x       Rx   d 5 00 00 00 00 19  Length = 3418220 BitCount = 118 ID = 276848704x
   0.147972 1  10734099x       Rx   d 6 24 40 00 7D 00 00  Length = 3594590 BitCount = 124 ID = 275988633x
   0.152352 1  10230040x       Rx   d 8 30 00 00 00 30 00 00 00  Length = 4254562 BitCount = 146 ID = 270729280x
   0.159284 1  1043A040x       Rx   d 8 00 00 34 00 00 00 00 00  Length = 4284562 BitCount = 147 ID = 272867392x
   0.169220 1  10240040x       Rx   d 8 83 FE 88 01 00 F4 0F FC  Length = 4198208 BitCount = 144 ID = 270794816x
   0.189143 1  102CA040x       Rx   d 8 00 40 0C B5 29 00 F1 00  Length = 4074566 BitCount = 140 ID = 271360064x
   0.197309 1  106B0040x       Rx   d 1 00  Length = 2308263 BitCount = 81 ID = 275447872x
   0.201148 1  13FFE0BBx       Rx   d 0  Length = 2034718 BitCount = 72 ID = 335536315x
   0.209282 1  10264040x       Rx   d 8 04 06 00 00 00 00 00 38  Length = 4258208 BitCount = 146 ID = 270942272x
   0.219308 1  10210040x       Rx   d 8 00 00 00 00 00 00 00 00  Length = 4288208 BitCount = 147 ID = 270598208x
   0.229333 1  10220040x       Rx   d 8 10 00 00 00 00 04 00 00  Length = 4318208 BitCount = 148 ID = 270663744x
   0.239297 1  1022E040x       Rx   d 8 00 00 00 00 00 00 00 00  Length = 4318208 BitCount = 148 ID = 270721088x
   0.249351 1  10230040x       Rx   d 8 10 00 00 00 10 00 00 00  Length = 4258208 BitCount = 146 ID = 270729280x
   0.258596 1  621             Rx   d 8 00 52 00 00 00 00 00 00  Length = 3598216 BitCount = 124 ID = 1569
   0.269184 1  1022A040x       Rx   d 8 00 B0 00 12 42 00 00 22  Length = 4134566 BitCount = 142 ID = 270704704x
   0.273720 1  1022C040x       Rx   d 6 00 10 00 20 00 00  Length = 3688216 BitCount = 127 ID = 270712896x
   0.279275 1  10240040x       Rx   d 8 83 FE 88 01 00 F4 0F FC  Length = 4198208 BitCount = 144 ID = 270794816x
   0.283298 1  102C0040x       Rx   d 5 AE EF 44 59 03  Length = 3298239 BitCount = 114 ID = 271319104x
   0.288881 1  10248040x       Rx   d 7 00 00 6D D2 CC 07 00  Length = 3838227 BitCount = 132 ID = 270827584x
   0.294284 1  102CA040x       Rx   d 8 00 40 0C C3 29 00 F1 00  Length = 4138208 BitCount = 142 ID = 271360064x
   0.299150 1  102CC040x       Rx   d 8 00 09 CF 69 00 87 06 A7  Length = 4078227 BitCount = 140 ID = 271368256x
   0.302059 1  10308060x       Rx   d 3 44 59 01  Length = 2784638 BitCount = 97 ID = 271614048x
   0.306497 1  106B8040x       Rx   d 8 00 00 00 00 00 00 00 00  Length = 4314558 BitCount = 148 ID = 275480640x
   0.309377 1  10306099x       Rx   d 3 44 59 01  Length = 2754642 BitCount = 96 ID = 271605913x
   0.312227 1  10304058x       Rx   d 3 44 59 01  Length = 2724642 BitCount = 95 ID = 271597656x
   0.316576 1  10264040x       Rx   d 8 04 06 00 00 00 00 00 25  Length = 4224562 BitCount = 145 ID = 270942272x
   0.324348 1  10210040x       Rx   d 8 00 00 00 00 00 00 00 00  Length = 4284562 BitCount = 147 ID = 270598208x
   0.329333 1  10220040x       Rx   d 8 10 00 00 00 00 05 00 00  Length = 4288208 BitCount = 147 ID = 270663744x
   0.334196 1  102CE040x       Rx   d 8 90 00 64 7F 00 00 26 A7  Length = 4108212 BitCount = 141 ID = 271376448x
   0.339417 1  1022E040x       Rx   d 8 20 00 00 00 20 00 00 00  Length = 4288223 BitCount = 147 ID = 270721088x
   0.342388 1  106B0040x       Rx   d 1 00  Length = 2308263 BitCount = 81 ID = 275447872x
   0.348694 1  C800040x        Rx   d 6 08 CB 00 00 35 2B  Length = 3628231 BitCount = 125 ID = 209715264x
   0.354307 1  10230040x       Rx   d 8 30 00 00 00 30 00 00 00  Length = 4258208 BitCount = 146 ID = 270729280x
   0.359408 1  10780040x       Rx   d 8 00 00 01 04 08 00 00 22  Length = 4284562 BitCount = 147 ID = 276299840x
   0.369284 1  10240040x       Rx   d 8 83 FE 88 01 00 F4 0F FC  Length = 4198208 BitCount = 144 ID = 270794816x
   0.373968 1  10EC4040x       Rx   d 8 4C 41 5A 41 36 39 53 44  Length = 3958212 BitCount = 136 ID = 283918400x
   0.378923 1  10EC8040x       Rx   d 8 48 42 37 30 31 34 39 36  Length = 3898212 BitCount = 134 ID = 283934784x
   0.389275 1  102CA040x       Rx   d 8 00 40 0C C0 29 00 F1 00  Length = 4138208 BitCount = 142 ID = 271360064x
   0.393083 1  10324058x       Rx   d 6 00 00 03 FF 00 00  Length = 3684586 BitCount = 127 ID = 271728728x
   0.409318 1  10264040x       Rx   d 8 04 06 00 00 00 00 00 38  Length = 4258208 BitCount = 146 ID = 270942272x
   0.414361 1  1043A040x       Rx   d 8 00 00 36 00 00 00 00 00  Length = 4288208 BitCount = 147 ID = 272867392x
   0.419403 1  10210040x       Rx   d 8 00 00 00 00 00 00 00 00  Length = 4288208 BitCount = 147 ID = 270598208x
   0.429367 1  10220040x       Rx   d 8 10 00 00 00 00 06 00 00  Length = 4288208 BitCount = 147 ID = 270663744x
   0.439451 1  1022E040x       Rx   d 8 00 00 00 00 00 00 00 00  Length = 4318223 BitCount = 148 ID = 270721088x
   0.449326 1  10230040x       Rx   d 8 10 00 00 00 10 00 00 00  Length = 4258208 BitCount = 146 ID = 270729280x
   0.457340 1  106B0040x       Rx   d 1 00  Length = 2308248 BitCount = 81 ID = 275447872x
   0.469317 1  10240040x       Rx   d 8 83 FE 88 01 00 F6 0F FC  Length = 4228208 BitCount = 145 ID = 270794816x
   0.473069 1  108E0080x       Rx   d 6 0E 01 17 02 05 77  Length = 3628216 BitCount = 125 ID = 277741696x
   0.477513 1  106B8040x       Rx   d 8 00 00 00 00 00 00 00 00  Length = 4318208 BitCount = 148 ID = 275480640x
   0.489250 1  102CA040x       Rx   d 8 00 40 0C B7 29 00 F1 00  Length = 4108223 BitCount = 141 ID = 271360064x
   0.509356 1  10264040x       Rx   d 8 04 06 00 00 00 00 00 38  Length = 4258208 BitCount = 146 ID = 270942272x
   0.519383 1  10210040x       Rx   d 8 00 00 00 00 00 00 00 00  Length = 4288208 BitCount = 147 ID = 270598208x
   0.524276 1  1022A040x       Rx   d 8 00 B0 00 12 42 00 00 22  Length = 4138208 BitCount = 142 ID = 270704704x
   0.529407 1  10220040x       Rx   d 8 10 00 00 00 00 06 00 00  Length = 4288208 BitCount = 147 ID = 270663744x
   0.533760 1  1022C040x       Rx   d 6 00 10 00 20 00 00  Length = 3688216 BitCount = 127 ID = 270712896x
   0.539466 1  1022E040x       Rx   d 8 20 00 00 00 20 00 00 00  Length = 4288208 BitCount = 147 ID = 270721088x
   0.549340 1  10230040x       Rx   d 8 30 00 00 00 30 00 00 00  Length = 4258208 BitCount = 146 ID = 270729280x
   0.554233 1  102CC040x       Rx   d 8 00 09 CF 69 00 87 06 A8  Length = 4078212 BitCount = 140 ID = 271368256x
   0.559246 1  102CE040x       Rx   d 8 90 00 64 7F 00 00 26 A8  Length = 4108212 BitCount = 141 ID = 271376448x
   0.564200 1  102D0040x       Rx   d 8 01 69 01 ED 7C 8A 00 FF  Length = 4078212 BitCount = 140 ID = 271384640x
   0.569331 1  10240040x       Rx   d 8 83 FF 88 01 00 F6 0F FC  Length = 4198208 BitCount = 144 ID = 270794816x
   0.572394 1  106B0040x       Rx   d 1 00  Length = 2308248 BitCount = 81 ID = 275447872x
   0.578457 1  102C0040x       Rx   d 5 AE EF 44 59 03  Length = 3298224 BitCount = 114 ID = 271319104x
   0.583532 1  10806040x       Rx   d 5 00 00 00 00 19  Length = 3418220 BitCount = 118 ID = 276848704x
   0.589294 1  102CA040x       Rx   d 8 00 40 0C AF 29 00 F1 00  Length = 4108212 BitCount = 141 ID = 271360064x
   0.594457 1  10780040x       Rx   d 8 00 00 01 04 08 00 00 22  Length = 4288223 BitCount = 147 ID = 276299840x
   0.598804 1  C800040x        Rx   d 6 08 CB 00 00 35 2D  Length = 3624586 BitCount = 125 ID = 209715264x
   0.602049 1  10304058x       Rx   d 3 44 59 01  Length = 2728236 BitCount = 95 ID = 271597656x
   0.605952 1  10788040x       Rx   d 6 08 00 00 00 00 00  Length = 3778216 BitCount = 130 ID = 276332608x
   0.608830 1  10306099x       Rx   d 3 44 59 01  Length = 2754657 BitCount = 96 ID = 271605913x
   0.614384 1  10264040x       Rx   d 8 04 06 00 00 00 00 00 38  Length = 4258223 BitCount = 146 ID = 270942272x
   0.619515 1  10210040x       Rx   d 8 00 00 00 00 00 00 00 00  Length = 4284562 BitCount = 147 ID = 270598208x
   0.622425 1  10308060x       Rx   d 3 44 59 01  Length = 2784653 BitCount = 97 ID = 271614048x
   0.629419 1  10220040x       Rx   d 8 10 00 00 00 00 08 00 00  Length = 4318208 BitCount = 148 ID = 270663744x
   0.639476 1  1022E040x       Rx   d 8 00 00 00 00 00 00 00 00  Length = 4318223 BitCount = 148 ID = 270721088x
   0.647963 1  10734099x       Rx   d 6 24 40 00 7D 00 00  Length = 3594601 BitCount = 124 ID = 275988633x
   0.652343 1  10230040x       Rx   d 8 10 00 00 00 10 00 00 00  Length = 4254562 BitCount = 146 ID = 270729280x
   0.659428 1  1043A040x       Rx   d 8 00 00 35 00 00 00 00 00  Length = 4288208 BitCount = 147 ID = 272867392x
   0.669335 1  10240040x       Rx   d 8 83 FF 88 01 00 F6 0F FC  Length = 4198208 BitCount = 144 ID = 270794816x
   0.674464 1  106B8040x       Rx   d 8 00 00 00 00 00 00 00 00  Length = 4314573 BitCount = 148 ID = 275480640x
   0.677196 1  13FFE040x       Rx   d 0  Length = 2064714 BitCount = 73 ID = 335536192x
   0.689161 CAN 1 Status:chip status error active  - TxErr: 0 RxErr: 1
   0.689168 1  ErrorFrame	Flags = 0xfffe	CodeExt = 0x2072	Code = 0x81	ID = 0x902ca040	DLC = 8	Position = 120	Length = 3954375	Data = 0  0x40  0xc  0xc1  0x29  0  0xf1  0
   0.693600 CAN 1 Status:chip status error active
   0.693817 1  102CA040x       Rx   d 8 00 40 0C C1 29 00 F1 00  Length = 4134566 BitCount = 142 ID = 271360064x
   0.697422 1  106B0040x       Rx   d 1 00  Length = 2308248 BitCount = 81 ID = 275447872x
   0.709369 1  10264040x       Rx   d 8 04 06 00 00 00 00 00 25  Length = 4228223 BitCount = 145 ID = 270942272x
   0.719541 1  10210040x       Rx   d 8 00 00 00 00 00 00 00 00  Length = 4288208 BitCount = 147 ID = 270598208x
   0.721974 1  10244060x       Rx   d 1 02  Length = 2308248 BitCount = 81 ID = 270811232x
   0.724195 1  13FFE060x       Rx   d 0  Length = 2098256 BitCount = 74 ID = 335536224x
   0.726389 1  13FFE080x       Rx   d 0  Length = 2068260 BitCount = 73 ID = 335536256x
   0.730802 1  10220040x       Rx   d 8 10 00 00 00 00 09 00 00  Length = 4288208 BitCount = 147 ID = 270663744x
   0.737431 1  10814099x       Rx   d 4 20 44 2E 00  Length = 3054618 BitCount = 106 ID = 276906137x
   0.741840 1  1022E040x       Rx   d 8 20 00 00 00 20 00 00 00  Length = 4284573 BitCount = 147 ID = 270721088x
   0.744034 1  13FFE099x       Rx   d 0  Length = 2068275 BitCount = 73 ID = 335536281x
   0.749405 1  10230040x       Rx   d 8 30 00 00 00 30 00 00 00  Length = 4254562 BitCount = 146 ID = 270729280x
   0.769333 1  1022A040x       Rx   d 8 00 B0 00 12 42 00 00 22  Length = 4138208 BitCount = 142 ID = 270704704x
   0.773838 1  1022C040x       Rx   d 6 00 10 00 20 00 00  Length = 3688231 BitCount = 127 ID = 270712896x
   0.779514 1  10240040x       Rx   d 8 83 FE 88 01 00 F6 0F FC  Length = 4228208 BitCount = 145 ID = 270794816x
   0.787438 1  10242040x       Rx   d 1 02  Length = 2308248 BitCount = 81 ID = 270803008x
   0.791367 1  13FFE058x       Rx   d 0  Length = 2094710 BitCount = 74 ID = 335536216x
   0.795329 1  10248040x       Rx   d 7 00 00 6D D2 CC 06 00  Length = 3838227 BitCount = 132 ID = 270827584x
   0.804366 1  102CA040x       Rx   d 8 00 40 0C C3 29 00 F1 00  Length = 4138223 BitCount = 142 ID = 271360064x
   0.809465 1  10264040x       Rx   d 8 04 06 00 00 00 00 00 38  Length = 4254562 BitCount = 146 ID = 270942272x
   0.811660 1  13FFE0AFx       Rx   d 0  Length = 2068260 BitCount = 73 ID = 335536303x
   0.815862 1  102CC040x       Rx   d 8 00 09 CF 69 00 87 06 A7  Length = 4078212 BitCount = 140 ID = 271368256x
   0.824473 1  10210040x       Rx   d 8 00 00 00 00 00 00 00 00  Length = 4284562 BitCount = 147 ID = 270598208x
   0.829488 1  10220040x       Rx   d 8 10 00 00 00 00 06 00 00  Length = 4288208 BitCount = 147 ID = 270663744x
   0.833240 1  624             Rx   d 8 00 20 00 00 00 00 00 00  Length = 3628216 BitCount = 125 ID = 1572
   0.837470 1  102CE040x       Rx   d 8 90 00 64 7F 00 00 26 A7  Length = 4104566 BitCount = 141 ID = 271376448x
   0.844462 1  1022E040x       Rx   d 8 00 00 00 00 00 00 00 00  Length = 4314558 BitCount = 148 ID = 270721088x
   0.848813 1  C800040x        Rx   d 6 08 CB 00 00 35 31  Length = 3624586 BitCount = 125 ID = 209715264x
   0.854398 1  10230040x       Rx   d 8 10 00 00 00 10 00 00 00  Length = 4258208 BitCount = 146 ID = 270729280x
   0.857491 1  106B0040x       Rx   d 1 00  Length = 2308263 BitCount = 81 ID = 275447872x
   0.864511 1  10780040x       Rx   d 8 00 00 01 04 08 00 00 22  Length = 4284573 BitCount = 147 ID = 276299840x
   0.869435 1  10240040x       Rx   d 8 83 FE 88 01 00 F6 0F FC  Length = 4228223 BitCount = 145 ID = 270794816x
   0.874507 1  106B8040x       Rx   d 8 00 00 00 00 00 00 00 00  Length = 4318208 BitCount = 148 ID = 275480640x
   0.878500 1  102C0040x       Rx   d 5 AE EF 44 59 03  Length = 3298224 BitCount = 114 ID = 271319104x
   0.889334 1  102CA040x       Rx   d 8 00 40 0C C4 29 00 F1 00  Length = 4078212 BitCount = 140 ID = 271360064x
   0.900102 1  10308060x       Rx   d 3 44 59 01  Length = 2784638 BitCount = 97 ID = 271614048x
   0.902952 1  10304058x       Rx   d 3 44 59 01  Length = 2724642 BitCount = 95 ID = 271597656x
   0.906166 1  10448060x       Rx   d 4 00 00 45 40  Length = 3088228 BitCount = 107 ID = 272924768x
   0.910519 1  10264040x       Rx   d 8 04 06 00 00 00 00 00 39  Length = 4228208 BitCount = 145 ID = 270942272x
   0.913399 1  10306099x       Rx   d 3 44 59 01  Length = 2754642 BitCount = 96 ID = 271605913x
   0.919490 1  10210040x       Rx   d 8 00 00 00 00 00 00 00 00  Length = 4284562 BitCount = 147 ID = 270598208x
   0.924475 1  1043A040x       Rx   d 8 00 00 33 00 00 00 00 00  Length = 4288223 BitCount = 147 ID = 272867392x
   0.929514 1  10220040x       Rx   d 8 10 00 00 00 00 04 00 00  Length = 4314558 BitCount = 148 ID = 270663744x
   0.934199 1  1080A040x       Rx   d 7 00 00 00 00 00 00 00  Length = 4018212 BitCount = 138 ID = 276865088x
   0.939569 1  1022E040x       Rx   d 8 20 00 00 00 20 00 00 00  Length = 4284562 BitCount = 147 ID = 270721088x
   0.943324 1  62C             Rx   d 8 00 40 00 00 00 00 00 00  Length = 3628216 BitCount = 125 ID = 1580
   0.947972 1  631             Rx   d 8 00 40 00 00 00 00 00 00  Length = 3564590 BitCount = 123 ID = 1585
   0.952355 1  10230040x       Rx   d 8 30 00 00 00 30 00 00 00  Length = 4258208 BitCount = 146 ID = 270729280x
   0.969400 1  10240040x       Rx   d 8 83 FF 88 01 00 F6 0F FC  Length = 4198208 BitCount = 144 ID = 270794816x
   0.972493 1  106B0040x       Rx   d 1 00  Length = 2308263 BitCount = 81 ID = 275447872x
   0.989328 1  102CA040x       Rx   d 8 00 40 0C C9 29 00 F1 00  Length = 4078227 BitCount = 140 ID = 271360064x
   1.005990 1  Statistic: D 4 R 0 XD 155 XR 0 E 1 O 0 B 62.24%
   1.005990 2  Statistic: D 0 R 0 XD 0 XR 0 E 0 O 0 B 0.00%
   1.005990 3  Statistic: D 0 R 0 XD 0 XR 0 E 0 O 0 B 0.00%
   1.009465 1  10264040x       Rx   d 8 04 06 00 00 00 00 00 27  Length = 4228208 BitCount = 145 ID = 270942272x
   1.019642 1  10210040x       Rx   d 8 00 00 00 00 00 00 00 00  Length = 4288223 BitCount = 147 ID = 270598208x
   1.024383 1  1022A040x       Rx   d 8 00 B0 00 12 42 00 00 22  Length = 4138208 BitCount = 142 ID = 270704704x
   1.029544 1  10220040x       Rx   d 8 10 00 00 00 00 04 00 00  Length = 4314573 BitCount = 148 ID = 270663744x
   1.033896 1  1022C040x       Rx   d 6 00 10 00 20 00 00  Length = 3684586 BitCount = 127 ID = 270712896x
   1.039600 1  1022E040x       Rx   d 8 00 00 00 00 00 00 00 00  Length = 4318208 BitCount = 148 ID = 270721088x
   1.042814 1  10250040x       Rx   d 2 00 03  Length = 2608255 BitCount = 91 ID = 270860352x
   1.049475 1  10230040x       Rx   d 8 10 00 00 00 10 00 00 00  Length = 4258208 BitCount = 146 ID = 270729280x
   1.054338 1  102CC040x       Rx   d 8 00 09 CF 69 00 87 06 A6  Length = 4078212 BitCount = 140 ID = 271368256x
   1.059411 1  102CE040x       Rx   d 8 90 00 64 7F 00 00 26 A7  Length = 4108212 BitCount = 141 ID = 271376448x
   1.064332 1  102D0040x       Rx   d 8 01 69 01 ED 7C 8A 00 FF  Length = 4078212 BitCount = 140 ID = 271384640x
   1.069492 1  10240040x       Rx   d 8 83 FE 88 01 00 F6 0F FC  Length = 4224562 BitCount = 145 ID = 270794816x
   1.074477 1  102E0040x       Rx   d 8 00 33 CA 6F 8A 00 62 80  Length = 4168208 BitCount = 143 ID = 271450176x
   1.078707 1  10466040x       Rx   d 5 00 00 00 00 00  Length = 3444598 BitCount = 119 ID = 273047616x
   1.084561 1  106B8040x       Rx   d 8 00 00 00 00 00 00 00 00  Length = 4318223 BitCount = 148 ID = 275480640x
   1.089393 1  102CA040x       Rx   d 8 00 40 0C C2 29 00 F1 00  Length = 4108212 BitCount = 141 ID = 271360064x
   1.092516 1  106B0040x       Rx   d 1 00  Length = 2308248 BitCount = 81 ID = 275447872x
   1.097075 1  13FFE068x       Rx   d 0  Length = 2064714 BitCount = 73 ID = 335536232x
   1.100828 1  C800040x        Rx   d 6 08 CB 00 00 35 33  Length = 3628216 BitCount = 125 ID = 209715264x
   1.103529 1  106D0080x       Rx   d 2 00 00  Length = 2574658 BitCount = 90 ID = 275579008x
   1.109444 1  10264040x       Rx   d 8 04 06 00 00 00 00 00 3A  Length = 4198208 BitCount = 144 ID = 270942272x
   1.113645 1  106C0040x       Rx   d 5 00 06 0F 07 00  Length = 3448220 BitCount = 119 ID = 275513408x
   1.119554 1  10210040x       Rx   d 8 00 00 00 00 00 00 00 00  Length = 4284562 BitCount = 147 ID = 270598208x
   1.123369 1  1077C040x       Rx   d 4 30 30 01 F4  Length = 3148224 BitCount = 109 ID = 276283456x
   1.129524 1  10220040x       Rx   d 8 10 00 00 00 00 06 00 00  Length = 4288208 BitCount = 147 ID = 270663744x
   1.134596 1  10780040x       Rx   d 8 00 00 01 04 08 00 00 22  Length = 4284562 BitCount = 147 ID = 276299840x
   1.139611 1  1022E040x       Rx   d 8 20 00 00 00 20 00 00 00  Length = 4288223 BitCount = 147 ID = 270721088x
   1.144022 1  10788040x       Rx   d 6 08 00 00 00 00 00  Length = 3778216 BitCount = 130 ID = 276332608x
   1.147954 1  10734099x       Rx   d 6 24 40 00 7D 00 00  Length = 3598231 BitCount = 124 ID = 275988633x
   1.152332 1  10230040x       Rx   d 8 30 00 00 00 30 00 00 00  Length = 4254562 BitCount = 146 ID = 270729280x
   1.159567 1  1043A040x       Rx   d 8 00 00 36 00 00 00 00 00  Length = 4288208 BitCount = 147 ID = 272867392x
   1.163683 1  10806040x       Rx   d 5 00 00 00 00 19  Length = 3418220 BitCount = 118 ID = 276848704x
   1.169504 1  10240040x       Rx   d 8 83 FE 88 01 00 F6 0F FC  Length = 4228208 BitCount = 145 ID = 270794816x
   1.178568 1  102C0040x       Rx   d 5 AE EF 44 59 03  Length = 3298224 BitCount = 114 ID = 271319104x
   1.189373 1  102CA040x       Rx   d 8 00 40 0C CE 29 00 F1 00  Length = 4078212 BitCount = 140 ID = 271360064x
   1.201884 1  10304058x       Rx   d 3 44 59 01  Length = 2728251 BitCount = 95 ID = 271597656x
   1.207106 1  10306099x       Rx   d 3 44 59 01  Length = 2758251 BitCount = 96 ID = 271605913x
   1.211424 1  10264040x       Rx   d 8 04 06 00 00 00 00 00 3A  Length = 4194562 BitCount = 144 ID = 270942272x
   1.219590 1  10210040x       Rx   d 8 00 00 00 00 00 00 00 00  Length = 4288208 BitCount = 147 ID = 270598208x
   1.222504 1  10308060x       Rx   d 3 44 59 01  Length = 2788236 BitCount = 97 ID = 271614048x
   1.224938 1  106B0040x       Rx   d 1 00  Length = 2308248 BitCount = 81 ID = 275447872x
   1.229588 1  10220040x       Rx   d 8 10 00 00 00 00 07 00 00  Length = 4318208 BitCount = 148 ID = 270663744x
   1.239555 1  1022E040x       Rx   d 8 00 00 00 00 00 00 00 00  Length = 4318208 BitCount = 148 ID = 270721088x
   1.249489 1  10230040x       Rx   d 8 10 00 00 00 10 00 00 00  Length = 4258208 BitCount = 146 ID = 270729280x
   1.258824 1  621             Rx   d 8 00 52 00 00 00 00 00 00  Length = 3598231 BitCount = 124 ID = 1569
   1.267162 1  106D4099x       Rx   d 3 00 00 80  Length = 2814638 BitCount = 98 ID = 275595417x
   1.271425 1  1022A040x       Rx   d 8 00 B0 00 12 42 00 00 22  Length = 4138223 BitCount = 142 ID = 270704704x
   1.279046 1  1022C040x       Rx   d 6 00 10 00 20 00 00  Length = 3688216 BitCount = 127 ID = 270712896x
   1.284510 1  10240040x       Rx   d 8 83 FE 88 01 00 F6 0F FC  Length = 4228208 BitCount = 145 ID = 270794816x
   1.289163 1  10248040x       Rx   d 7 00 00 6D D2 CC 08 00  Length = 3868212 BitCount = 133 ID = 270827584x
   1.294414 1  102CA040x       Rx   d 8 00 40 0C D7 29 00 F1 00  Length = 4074566 BitCount = 140 ID = 271360064x
   1.299399 1  102CC040x       Rx   d 8 00 09 CF 69 00 87 06 A6  Length = 4078212 BitCount = 140 ID = 271368256x
   1.304620 1  106B8040x       Rx   d 8 00 00 00 00 00 00 00 00  Length = 4318208 BitCount = 148 ID = 275480640x
   1.309482 1  10264040x       Rx   d 8 04 06 00 00 00 00 00 3A  Length = 4198208 BitCount = 144 ID = 270942272x
   1.314405 1  102CE040x       Rx   d 8 90 00 64 7F 00 00 26 A5  Length = 4078212 BitCount = 140 ID = 271376448x
   1.319684 1  10210040x       Rx   d 8 00 00 00 00 00 00 00 00  Length = 4284562 BitCount = 147 ID = 270598208x
   1.329555 1  10220040x       Rx   d 8 10 00 00 00 00 06 00 00  Length = 4284573 BitCount = 147 ID = 270663744x
   1.339669 1  1022E040x       Rx   d 8 20 00 00 00 20 00 00 00  Length = 4288208 BitCount = 147 ID = 270721088x
   1.342582 1  106B0040x       Rx   d 1 00  Length = 2308248 BitCount = 81 ID = 275447872x
   1.348947 1  C800040x        Rx   d 6 08 CB 00 00 35 37  Length = 3628216 BitCount = 125 ID = 209715264x
   1.354531 1  10230040x       Rx   d 8 30 00 00 00 30 00 00 00  Length = 4258208 BitCount = 146 ID = 270729280x
   1.359632 1  10780040x       Rx   d 8 00 00 01 04 08 00 00 22  Length = 4284562 BitCount = 147 ID = 276299840x
   1.369538 1  10240040x       Rx   d 8 83 FE 88 01 00 F6 0F FC  Length = 4228223 BitCount = 145 ID = 270794816x
   1.389521 1  102CA040x       Rx   d 8 00 40 0C C1 29 00 F1 00  Length = 4134581 BitCount = 142 ID = 271360064x
   1.404122 1  13FFE0BBx       Rx   d 0  Length = 2034718 BitCount = 72 ID = 335536315x
   1.409520 1  10264040x       Rx   d 8 04 06 00 00 00 00 00 26  Length = 4224562 BitCount = 145 ID = 270942272x
   1.414595 1  1043A040x       Rx   d 8 00 00 36 00 00 00 00 00  Length = 4288208 BitCount = 147 ID = 272867392x
   1.419636 1  10210040x       Rx   d 8 00 00 00 00 00 00 00 00  Length = 4288208 BitCount = 147 ID = 270598208x
   1.429601 1  10220040x       Rx   d 8 10 00 00 00 00 05 00 00  Length = 4288208 BitCount = 147 ID = 270663744x
   1.439595 1  1022E040x       Rx   d 8 00 00 00 00 00 00 00 00  Length = 4318208 BitCount = 148 ID = 270721088x
   1.449530 1  10230040x       Rx   d 8 10 00 00 00 10 00 00 00  Length = 4258208 BitCount = 146 ID = 270729280x
   1.457604 1  106B0040x       Rx   d 1 00  Length = 2308263 BitCount = 81 ID = 275447872x
   1.469577 1  10240040x       Rx   d 8 83 FE 88 01 00 F6 0F FC  Length = 4224562 BitCount = 145 ID = 270794816x
   1.473327 1  108E0080x       Rx   d 6 0E 01 17 02 05 78  Length = 3624586 BitCount = 125 ID = 277741696x
   1.477767 1  106B8040x       Rx   d 8 00 00 00 00 00 00 00 00  Length = 4314558 BitCount = 148 ID = 275480640x
   1.483592 1  102C0040x       Rx   d 5 AE EF 44 59 03  Length = 3298224 BitCount = 114 ID = 271319104x
   1.489503 1  102CA040x       Rx   d 8 00 40 0C B7 29 00 F1 00  Length = 4108212 BitCount = 141 ID = 271360064x
   1.500095 1  10308060x       Rx   d 3 44 59 01  Length = 2788236 BitCount = 97 ID = 271614048x
   1.507116 1  10306099x       Rx   d 3 44 59 01  Length = 2758236 BitCount = 96 ID = 271605913x
   1.511435 1  10264040x       Rx   d 8 04 06 00 00 00 00 00 3A  Length = 4194562 BitCount = 144 ID = 270942272x
   1.514284 1  10304058x       Rx   d 3 44 59 01  Length = 2724642 BitCount = 95 ID = 271597656x
   1.519719 1  10210040x       Rx   d 8 00 00 00 00 00 00 00 00  Length = 4288208 BitCount = 147 ID = 270598208x
   1.524494 1  1022A040x       Rx   d 8 00 B0 00 12 42 00 00 22  Length = 4138223 BitCount = 142 ID = 270704704x
   1.529653 1  10220040x       Rx   d 8 10 00 00 00 00 06 00 00  Length = 4284562 BitCount = 147 ID = 270663744x
   1.534004 1  1022C040x       Rx   d 6 00 10 00 20 00 00  Length = 3684586 BitCount = 127 ID = 270712896x
   1.539679 1  1022E040x       Rx   d 8 20 00 00 00 20 00 00 00  Length = 4288223 BitCount = 147 ID = 270721088x
   1.549584 1  10230040x       Rx   d 8 30 00 00 00 30 00 00 00  Length = 4258208 BitCount = 146 ID = 270729280x
   1.554447 1  102CC040x       Rx   d 8 00 09 CF 69 00 87 06 A8  Length = 4078227 BitCount = 140 ID = 271368256x
   1.559666 1  102CE040x       Rx   d 8 90 00 64 7F 00 00 26 A7  Length = 4104581 BitCount = 141 ID = 271376448x
   1.564441 1  102D0040x       Rx   d 8 01 69 01 ED 7C 89 00 FF  Length = 4078212 BitCount = 140 ID = 271384640x
   1.569605 1  10240040x       Rx   d 8 83 FE 88 01 00 F6 0F FC  Length = 4228208 BitCount = 145 ID = 270794816x
   1.572636 1  106B0040x       Rx   d 1 00  Length = 2308248 BitCount = 81 ID = 275447872x
   1.578875 1  10806040x       Rx   d 5 00 00 00 00 19  Length = 3414598 BitCount = 118 ID = 276848704x
   1.589472 1  102CA040x       Rx   d 8 00 40 0C BC 29 00 F1 00  Length = 4078227 BitCount = 140 ID = 271360064x
   1.594693 1  10780040x       Rx   d 8 00 00 01 04 08 00 00 22  Length = 4284562 BitCount = 147 ID = 276299840x
   1.598984 1  C800040x        Rx   d 6 08 CB 00 00 35 39  Length = 3624586 BitCount = 125 ID = 209715264x
   1.604145 1  10788040x       Rx   d 6 08 00 00 00 00 00  Length = 3774582 BitCount = 130 ID = 276332608x
   1.609640 1  10264040x       Rx   d 8 04 06 00 00 00 00 00 38  Length = 4258223 BitCount = 146 ID = 270942272x
   1.619665 1  10210040x       Rx   d 8 00 00 00 00 00 00 00 00  Length = 4288208 BitCount = 147 ID = 270598208x
   1.629629 1  10220040x       Rx   d 8 10 00 00 00 00 06 00 00  Length = 4288208 BitCount = 147 ID = 270663744x
   1.639743 1  1022E040x       Rx   d 8 00 00 00 00 00 00 00 00  Length = 4318223 BitCount = 148 ID = 270721088x
   1.647963 1  10734099x       Rx   d 6 24 40 00 7D 00 00  Length = 3594590 BitCount = 124 ID = 275988633x
   1.652343 1  10230040x       Rx   d 8 10 00 00 00 10 00 00 00  Length = 4254577 BitCount = 146 ID = 270729280x
   1.659668 1  1043A040x       Rx   d 8 00 00 33 00 00 00 00 00  Length = 4288208 BitCount = 147 ID = 272867392x
   1.669603 1  10240040x       Rx   d 8 83 FE 88 01 00 F8 0F FC  Length = 4228223 BitCount = 145 ID = 270794816x
   1.674706 1  106B8040x       Rx   d 8 00 00 00 00 00 00 00 00  Length = 4318208 BitCount = 148 ID = 275480640x
   1.689526 1  102CA040x       Rx   d 8 00 40 0C BC 29 00 F1 00  Length = 4074581 BitCount = 140 ID = 271360064x
   1.692651 1  106B0040x       Rx   d 1 00  Length = 2308248 BitCount = 81 ID = 275447872x
   1.709666 1  10264040x       Rx   d 8 04 06 00 00 00 00 00 38  Length = 4258208 BitCount = 146 ID = 270942272x
   1.719691 1  10210040x       Rx   d 8 00 00 00 00 00 00 00 00  Length = 4288208 BitCount = 147 ID = 270598208x
   1.729655 1  10220040x       Rx   d 8 10 00 00 00 00 06 00 00  Length = 4288208 BitCount = 147 ID = 270663744x
   1.739650 1  1022E040x       Rx   d 8 20 00 00 00 20 00 00 00  Length = 4288208 BitCount = 147 ID = 270721088x
   1.749614 1  10230040x       Rx   d 8 30 00 00 00 30 00 00 00  Length = 4258208 BitCount = 146 ID = 270729280x
   1.769567 1  1022A040x       Rx   d 8 00 B0 00 12 42 00 00 22  Length = 4134566 BitCount = 142 ID = 270704704x
   1.774072 1  1022C040x       Rx   d 6 00 10 00 20 00 00  Length = 3688216 BitCount = 127 ID = 270712896x
   1.779657 1  10240040x       Rx   d 8 83 FF 88 01 00 F9 0F FC  Length = 4228208 BitCount = 145 ID = 270794816x
   1.783680 1  102C0040x       Rx   d 5 AE EF 44 59 03  Length = 3298224 BitCount = 114 ID = 271319104x
   1.789264 1  10248040x       Rx   d 7 00 00 6D D2 CC 08 00  Length = 3868212 BitCount = 133 ID = 270827584x
   1.794543 1  102CA040x       Rx   d 8 00 40 0C A7 29 00 F1 00  Length = 4074566 BitCount = 140 ID = 271360064x
   1.799528 1  102CC040x       Rx   d 8 00 09 CF 69 00 87 06 A8  Length = 4078227 BitCount = 140 ID = 271368256x
   1.807089 1  10306099x       Rx   d 3 44 59 01  Length = 2758236 BitCount = 96 ID = 271605913x
   1.811439 1  10264040x       Rx   d 8 04 06 00 00 00 00 00 25  Length = 4224562 BitCount = 145 ID = 270942272x
   1.814290 1  10304058x       Rx   d 3 44 59 01  Length = 2724642 BitCount = 95 ID = 271597656x
   1.819753 1  10210040x       Rx   d 8 00 00 00 00 00 00 00 00  Length = 4288208 BitCount = 147 ID = 270598208x
   1.822663 1  10308060x       Rx   d 3 44 59 01  Length = 2784638 BitCount = 97 ID = 271614048x
   1.826893 1  102CE040x       Rx   d 8 90 00 64 7F 00 00 26 A7  Length = 4104566 BitCount = 141 ID = 271376448x
   1.834695 1  10220040x       Rx   d 8 10 00 00 00 00 09 00 00  Length = 4284562 BitCount = 147 ID = 270663744x
   1.839710 1  1022E040x       Rx   d 8 00 00 00 00 00 00 00 00  Length = 4318208 BitCount = 148 ID = 270721088x
   1.842803 1  106B0040x       Rx   d 1 00  Length = 2308248 BitCount = 81 ID = 275447872x
   1.849076 1  C800040x        Rx   d 6 08 CB 00 00 35 3D  Length = 3628216 BitCount = 125 ID = 209715264x
   1.854690 1  10230040x       Rx   d 8 10 00 00 00 10 00 00 00  Length = 4258208 BitCount = 146 ID = 270729280x
   1.859791 1  10780040x       Rx   d 8 00 00 01 04 08 00 00 22  Length = 4284573 BitCount = 147 ID = 276299840x
   1.869637 1  10240040x       Rx   d 8 83 FE 88 01 00 F9 0F FC  Length = 4228208 BitCount = 145 ID = 270794816x
   1.874740 1  106B8040x       Rx   d 8 00 00 00 00 00 00 00 00  Length = 4318208 BitCount = 148 ID = 275480640x
   1.877474 1  13FFE040x       Rx   d 0  Length = 2068260 BitCount = 73 ID = 335536192x
   1.889566 1  102CA040x       Rx   d 8 00 40 0C B4 29 00 F1 00  Length = 4104566 BitCount = 141 ID = 271360064x
   1.900397 1  10448060x       Rx   d 4 00 00 45 40  Length = 3084618 BitCount = 107 ID = 272924768x
   1.909671 1  10264040x       Rx   d 8 04 06 00 00 00 00 00 38  Length = 4258208 BitCount = 146 ID = 270942272x
   1.914714 1  1043A040x       Rx   d 8 00 00 34 00 00 00 00 00  Length = 4288208 BitCount = 147 ID = 272867392x
   1.919755 1  10210040x       Rx   d 8 00 00 00 00 00 00 00 00  Length = 4288208 BitCount = 147 ID = 270598208x
   1.921977 1  13FFE060x       Rx   d 0  Length = 2098256 BitCount = 74 ID = 335536224x
   1.926121 1  1080A040x       Rx   d 7 00 00 00 00 00 00 00  Length = 4018212 BitCount = 138 ID = 276865088x
   1.928313 1  13FFE080x       Rx   d 0  Length = 2068260 BitCount = 73 ID = 335536256x
   1.934735 1  10220040x       Rx   d 8 10 00 00 00 00 06 00 00  Length = 4288208 BitCount = 147 ID = 270663744x
   1.936928 1  13FFE099x       Rx   d 0  Length = 2068260 BitCount = 73 ID = 335536281x
   1.941340 1  1022E040x       Rx   d 8 20 00 00 00 20 00 00 00  Length = 4288208 BitCount = 147 ID = 270721088x
   1.949685 1  10230040x       Rx   d 8 30 00 00 00 30 00 00 00  Length = 4258208 BitCount = 146 ID = 270729280x
   1.957729 1  106B0040x       Rx   d 1 00  Length = 2308263 BitCount = 81 ID = 275447872x
   1.969673 1  10240040x       Rx   d 8 83 FE 88 01 00 F9 0F FC  Length = 4228208 BitCount = 145 ID = 270794816x
   1.989630 1  102CA040x       Rx   d 8 00 40 0C B8 29 00 F1 00  Length = 4138208 BitCount = 142 ID = 271360064x
   1.991850 1  13FFE058x       Rx   d 0  Length = 2094710 BitCount = 74 ID = 335536216x
   2.005990 1  Statistic: D 1 R 0 XD 150 XR 0 E 0 O 0 B 59.08%
   2.005990 2  Statistic: D 0 R 0 XD 0 XR 0 E 0 O 0 B 0.00%
   2.005990 3  Statistic: D 0 R 0 XD 0 XR 0 E 0 O 0 B 0.00%
   2.009705 1  10264040x       Rx   d 8 04 06 00 00 00 00 00 38  Length = 4258208 BitCount = 146 ID = 270942272x
   2.011898 1  13FFE0AFx       Rx   d 0  Length = 2068260 BitCount = 73 ID = 335536303x
   2.019848 1  10210040x       Rx   d 8 00 00 00 00 00 00 00 00  Length = 4284573 BitCount = 147 ID = 270598208x
   2.024623 1  1022A040x       Rx   d 8 00 B0 00 12 42 00 00 22  Length = 4138208 BitCount = 142 ID = 270704704x
   2.029812 1  10220040x       Rx   d 8 10 00 00 00 00 04 00 00  Length = 4314558 BitCount = 148 ID = 270663744x
   2.034133 1  1022C040x       Rx   d 6 00 10 00 20 00 00  Length = 3684597 BitCount = 127 ID = 270712896x
   2.039748 1  1022E040x       Rx   d 8 00 00 00 00 00 00 00 00  Length = 4318208 BitCount = 148 ID = 270721088x
   2.043142 1  10250040x       Rx   d 2 00 03  Length = 2608240 BitCount = 91 ID = 270860352x
   2.049683 1  10230040x       Rx   d 8 10 00 00 00 10 00 00 00  Length = 4258208 BitCount = 146 ID = 270729280x
   2.054606 1  102CC040x       Rx   d 8 00 09 CF 69 00 87 06 A8  Length = 4078212 BitCount = 140 ID = 271368256x
   2.059619 1  102CE040x       Rx   d 8 90 00 64 7F 00 00 26 A8  Length = 4108212 BitCount = 141 ID = 271376448x
   2.064572 1  102D0040x       Rx   d 8 01 69 01 ED 7C 8A 00 FF  Length = 4078212 BitCount = 140 ID = 271384640x
   2.069734 1  10240040x       Rx   d 8 83 FE 88 01 00 FB 0F FC  Length = 4228208 BitCount = 145 ID = 270794816x
   2.074715 1  102E0040x       Rx   d 8 00 33 CA 6F 8A 00 62 80  Length = 4168208 BitCount = 143 ID = 271450176x
   2.078828 1  102C0040x       Rx   d 5 AE EF 44 59 03  Length = 3298224 BitCount = 114 ID = 271319104x
   2.082761 1  106B0040x       Rx   d 1 00  Length = 2308248 BitCount = 81 ID = 275447872x
   2.089631 1  102CA040x       Rx   d 8 00 40 0C B7 29 00 F1 00  Length = 4104566 BitCount = 141 ID = 271360064x
   2.094792 1  106B8040x       Rx   d 8 00 00 00 00 00 00 00 00  Length = 4314558 BitCount = 148 ID = 275480640x
   2.099113 1  C800040x        Rx   d 6 08 CB 00 00 35 3F  Length = 3624586 BitCount = 125 ID = 209715264x
   2.101963 1  10304058x       Rx   d 3 44 59 01  Length = 2724642 BitCount = 95 ID = 271597656x
   2.104872 1  10308060x       Rx   d 3 44 59 01  Length = 2784638 BitCount = 97 ID = 271614048x
   2.107750 1  10306099x       Rx   d 3 44 59 01  Length = 2754642 BitCount = 96 ID = 271605913x
   2.111320 1  106C0040x       Rx   d 5 00 06 0F 07 00  Length = 3444598 BitCount = 119 ID = 275513408x
   2.119876 1  10210040x       Rx   d 8 00 00 00 00 00 00 00 00  Length = 4288208 BitCount = 147 ID = 270598208x
   2.124707 1  10264040x       Rx   d 8 04 06 00 00 00 00 00 25  Length = 4228208 BitCount = 145 ID = 270942272x
   2.129810 1  10220040x       Rx   d 8 10 00 00 00 00 04 00 00  Length = 4318208 BitCount = 148 ID = 270663744x
   2.133591 1  1077C040x       Rx   d 4 30 30 01 F4  Length = 3148239 BitCount = 109 ID = 276283456x
   2.139773 1  1022E040x       Rx   d 8 20 00 00 00 20 00 00 00  Length = 4284562 BitCount = 147 ID = 270721088x
   2.144814 1  10780040x       Rx   d 8 00 00 01 04 08 00 00 22  Length = 4284562 BitCount = 147 ID = 276299840x
   2.148534 1  10734099x       Rx   d 6 24 40 00 7D 00 00  Length = 3594601 BitCount = 124 ID = 275988633x
   2.152914 1  10230040x       Rx   d 8 30 00 00 00 30 00 00 00  Length = 4254562 BitCount = 146 ID = 270729280x
   2.159786 1  1043A040x       Rx   d 8 00 00 36 00 00 00 00 00  Length = 4284562 BitCount = 147 ID = 272867392x
   2.164257 1  10788040x       Rx   d 6 08 00 00 00 00 00  Length = 3774582 BitCount = 130 ID = 276332608x
   2.169782 1  10240040x       Rx   d 8 83 FF 88 01 00 FC 0F FC  Length = 4258208 BitCount = 146 ID = 270794816x
   2.173925 1  10806040x       Rx   d 5 00 00 00 00 19  Length = 3418220 BitCount = 118 ID = 276848704x
   2.189681 1  102CA040x       Rx   d 8 00 40 0C C0 29 00 F1 00  Length = 4138208 BitCount = 142 ID = 271360064x
   2.197757 1  106B0040x       Rx   d 1 00  Length = 2308248 BitCount = 81 ID = 275447872x
   2.209761 1  10264040x       Rx   d 8 04 06 00 00 00 00 00 38  Length = 4258208 BitCount = 146 ID = 270942272x
   2.219904 1  10210040x       Rx   d 8 00 00 00 00 00 00 00 00  Length = 4288208 BitCount = 147 ID = 270598208x
   2.229808 1  10220040x       Rx   d 8 10 00 00 00 00 05 00 00  Length = 4288208 BitCount = 147 ID = 270663744x
   2.239802 1  1022E040x       Rx   d 8 00 00 00 00 00 00 00 00  Length = 4318208 BitCount = 148 ID = 270721088x
   2.249737 1  10230040x       Rx   d 8 10 00 00 00 10 00 00 00  Length = 4258208 BitCount = 146 ID = 270729280x
   2.259190 1  621             Rx   d 8 00 52 00 00 00 00 00 00  Length = 3594590 BitCount = 124 ID = 1569
   2.269696 1  1022A040x       Rx   d 8 00 B0 00 12 42 00 00 22  Length = 4138208 BitCount = 142 ID = 270704704x
   2.274201 1  1022C040x       Rx   d 6 00 10 00 20 00 00  Length = 3688231 BitCount = 127 ID = 270712896x
   2.279846 1  10240040x       Rx   d 8 83 FF 88 01 01 00 0F FC  Length = 4258208 BitCount = 146 ID = 270794816x
   2.284860 1  106B8040x       Rx   d 8 00 00 00 00 00 00 00 00  Length = 4318223 BitCount = 148 ID = 275480640x
   2.289357 1  10248040x       Rx   d 7 00 00 6D D2 CC 07 00  Length = 3834578 BitCount = 132 ID = 270827584x
   2.294672 1  102CA040x       Rx   d 8 00 40 0C B5 29 00 F1 00  Length = 4078227 BitCount = 140 ID = 271360064x
   2.297077 1  13FFE068x       Rx   d 0  Length = 2068275 BitCount = 73 ID = 335536232x
   2.301278 1  102CC040x       Rx   d 8 00 09 CF 69 00 87 06 A8  Length = 4078212 BitCount = 140 ID = 271368256x
   2.303976 1  106D0080x       Rx   d 2 00 00  Length = 2574658 BitCount = 90 ID = 275579008x
   2.309802 1  10264040x       Rx   d 8 04 06 00 00 00 00 00 38  Length = 4258208 BitCount = 146 ID = 270942272x
   2.314693 1  102CE040x       Rx   d 8 90 00 64 7F 00 00 26 A8  Length = 4108212 BitCount = 141 ID = 271376448x
   2.319882 1  10210040x       Rx   d 8 00 00 00 00 00 00 00 00  Length = 4284562 BitCount = 147 ID = 270598208x
   2.322767 1  10428040x       Rx   d 1 0A  Length = 2278252 BitCount = 80 ID = 272793664x
   2.329822 1  10220040x       Rx   d 8 10 00 00 00 00 06 00 00  Length = 4288208 BitCount = 147 ID = 270663744x
   2.332798 1  106B0040x       Rx   d 1 00  Length = 2308248 BitCount = 81 ID = 275447872x
   2.339941 1  1022E040x       Rx   d 8 20 00 00 00 20 00 00 00  Length = 4288208 BitCount = 147 ID = 270721088x
   2.344896 1  10780040x       Rx   d 8 00 00 01 04 08 00 00 22  Length = 4288223 BitCount = 147 ID = 276299840x
   2.349155 1  C800040x        Rx   d 6 08 CB 00 00 35 43  Length = 3594590 BitCount = 124 ID = 209715264x
   2.354860 1  10230040x       Rx   d 8 30 00 00 00 30 00 00 00  Length = 4258208 BitCount = 146 ID = 270729280x
   2.369806 1  10240040x       Rx   d 8 83 FF 88 01 01 0E 0F FC  Length = 4228208 BitCount = 145 ID = 270794816x
   2.378900 1  102C0040x       Rx   d 5 AE EF 44 59 03  Length = 3298224 BitCount = 114 ID = 271319104x
   2.389707 1  102CA040x       Rx   d 8 00 40 0C AF 29 00 F1 00  Length = 4108212 BitCount = 141 ID = 271360064x
   2.393515 1  10324058x       Rx   d 6 00 00 03 FF 00 00  Length = 3684586 BitCount = 127 ID = 271728728x
   2.401587 1  10304058x       Rx   d 3 44 59 01  Length = 2728236 BitCount = 95 ID = 271597656x
   2.407103 1  10306099x       Rx   d 3 44 59 01  Length = 2754642 BitCount = 96 ID = 271605913x
   2.411454 1  10264040x       Rx   d 8 04 06 00 00 00 00 00 25  Length = 4224562 BitCount = 145 ID = 270942272x
   2.419950 1  10210040x       Rx   d 8 00 00 00 00 00 00 00 00  Length = 4288208 BitCount = 147 ID = 270598208x
   2.422862 1  10308060x       Rx   d 3 44 59 01  Length = 2788236 BitCount = 97 ID = 271614048x
   2.427276 1  1043A040x       Rx   d 8 00 00 35 00 00 00 00 00  Length = 4288208 BitCount = 147 ID = 272867392x
   2.434842 1  10220040x       Rx   d 8 10 00 00 00 00 06 00 00  Length = 4288208 BitCount = 147 ID = 270663744x
   2.439851 1  1022E040x       Rx   d 8 00 00 00 00 00 00 00 00  Length = 4314558 BitCount = 148 ID = 270721088x
   2.449787 1  10230040x       Rx   d 8 10 00 00 00 10 00 00 00  Length = 4258208 BitCount = 146 ID = 270729280x
   2.452850 1  106B0040x       Rx   d 1 00  Length = 2308248 BitCount = 81 ID = 275447872x
   2.469806 1  10240040x       Rx   d 8 83 FE 88 01 01 0E 0F FC  Length = 4228223 BitCount = 145 ID = 270794816x
   2.473526 1  108E0080x       Rx   d 6 0E 01 17 02 05 79  Length = 3594590 BitCount = 124 ID = 277741696x
   2.477970 1  106B8040x       Rx   d 8 00 00 00 00 00 00 00 00  Length = 4318208 BitCount = 148 ID = 275480640x
   2.489737 1  102CA040x       Rx   d 8 00 40 0C BB 29 00 F1 00  Length = 4108212 BitCount = 141 ID = 271360064x
   2.509844 1  10264040x       Rx   d 8 04 06 00 00 00 00 00 38  Length = 4258208 BitCount = 146 ID = 270942272x
   2.519868 1  10210040x       Rx   d 8 00 00 00 00 00 00 00 00  Length = 4288208 BitCount = 147 ID = 270598208x
   2.524732 1  1022A040x       Rx   d 8 00 B0 00 12 42 00 00 22  Length = 4138223 BitCount = 142 ID = 270704704x
   2.529951 1  10220040x       Rx   d 8 10 00 00 00 00 07 00 00  Length = 4314558 BitCount = 148 ID = 270663744x
   2.534246 1  1022C040x       Rx   d 6 00 10 00 20 00 00  Length = 3688216 BitCount = 127 ID = 270712896x
   2.539917 1  1022E040x       Rx   d 8 20 00 00 00 20 00 00 00  Length = 4288208 BitCount = 147 ID = 270721088x
   2.549822 1  10230040x       Rx   d 8 30 00 00 00 30 00 00 00  Length = 4258208 BitCount = 146 ID = 270729280x
   2.554687 1  102CC040x       Rx   d 8 00 09 CF 69 00 87 06 A8  Length = 4078212 BitCount = 140 ID = 271368256x
   2.559758 1  102CE040x       Rx   d 8 90 00 64 7F 00 00 26 A8  Length = 4108212 BitCount = 141 ID = 271376448x
   2.564681 1  102D0040x       Rx   d 8 01 69 01 ED 7C 89 00 FF  Length = 4078212 BitCount = 140 ID = 271384640x
   2.569841 1  10240040x       Rx   d 8 83 FE 88 01 01 0E 0F FC  Length = 4224562 BitCount = 145 ID = 270794816x
   2.572876 1  106B0040x       Rx   d 1 00  Length = 2308248 BitCount = 81 ID = 275447872x
   2.578868 CAN 1 Status:chip status error active  - TxErr: 0 RxErr: 1
   2.578875 1  ErrorFrame	Flags = 0xfffe	CodeExt = 0x2072	Code = 0x81	ID = 0x90806040	DLC = 5	Position = 96	Length = 3234375	Data = 0  0  0  0  0x19
   2.582586 CAN 1 Status:chip status error active
   2.582804 1  10806040x       Rx   d 5 00 00 00 00 19  Length = 3414598 BitCount = 118 ID = 276848704x
   2.589799 1  102CA040x       Rx   d 8 00 40 0C AD 29 00 F1 00  Length = 4108212 BitCount = 141 ID = 271360064x
   2.594931 1  10780040x       Rx   d 8 00 00 01 04 08 00 00 22  Length = 4284562 BitCount = 147 ID = 276299840x
   2.599222 1  C800040x        Rx   d 6 08 CB 00 00 35 45  Length = 3594590 BitCount = 124 ID = 209715264x
   2.604383 1  10788040x       Rx   d 6 08 00 00 00 00 00  Length = 3774582 BitCount = 130 ID = 276332608x
   2.607054 1  13FFE0BBx       Rx   d 0  Length = 2034718 BitCount = 72 ID = 335536315x
   2.611435 1  10264040x       Rx   d 8 04 06 00 00 00 00 00 38  Length = 4254562 BitCount = 146 ID = 270942272x
   2.619927 1  10210040x       Rx   d 8 00 00 00 00 00 00 00 00  Length = 4284562 BitCount = 147 ID = 270598208x
   2.629893 1  10220040x       Rx   d 8 10 00 00 00 00 06 00 00  Length = 4288223 BitCount = 147 ID = 270663744x
   2.639977 1  1022E040x       Rx   d 8 00 00 00 00 00 00 00 00  Length = 4318208 BitCount = 148 ID = 270721088x
   2.647957 1  10734099x       Rx   d 6 24 40 00 7D 00 00  Length = 3594590 BitCount = 124 ID = 275988633x
   2.652340 1  10230040x       Rx   d 8 10 00 00 00 10 00 00 00  Length = 4258208 BitCount = 146 ID = 270729280x
   2.659932 1  1043A040x       Rx   d 8 00 00 33 00 00 00 00 00  Length = 4288208 BitCount = 147 ID = 272867392x
   2.669837 1  10240040x       Rx   d 8 83 FF 88 01 01 0E 0F FC  Length = 4228208 BitCount = 145 ID = 270794816x
   2.674940 1  106B8040x       Rx   d 8 00 00 00 00 00 00 00 00  Length = 4318208 BitCount = 148 ID = 275480640x
   2.678961 1  102C0040x       Rx   d 5 AE EF 44 59 03  Length = 3298224 BitCount = 114 ID = 271319104x
   2.689735 1  102CA040x       Rx   d 8 00 40 0C 97 29 00 F1 00  Length = 4078212 BitCount = 140 ID = 271360064x
   2.692889 1  106B0040x       Rx   d 1 00  Length = 2308248 BitCount = 81 ID = 275447872x
   2.700059 1  10308060x       Rx   d 3 44 59 01  Length = 2784638 BitCount = 97 ID = 271614048x
   2.702912 1  10304058x       Rx   d 3 44 59 01  Length = 2728236 BitCount = 95 ID = 271597656x
   2.707084 1  10306099x       Rx   d 3 44 59 01  Length = 2758236 BitCount = 96 ID = 271605913x
   2.711467 1  10264040x       Rx   d 8 04 06 00 00 00 00 00 38  Length = 4258223 BitCount = 146 ID = 270942272x
   2.720079 1  10210040x       Rx   d 8 00 00 00 00 00 00 00 00  Length = 4288223 BitCount = 147 ID = 270598208x
   2.729730 CAN 1 Status:chip status error active  - TxErr: 0 RxErr: 1
   2.729737 1  ErrorFrame	Flags = 0xfffe	CodeExt = 0x2072	Code = 0x81	ID = 0x90220040	DLC = 8	Position = 120	Length = 4104375	Data = 0x10  0  0  0  0  0x6  0  0
   2.734319 CAN 1 Status:chip status error active
   2.734536 1  10220040x       Rx   d 8 10 00 00 00 00 06 00 00  Length = 4284562 BitCount = 147 ID = 270663744x
   2.739881 1  1022E040x       Rx   d 8 20 00 00 00 20 00 00 00  Length = 4288208 BitCount = 147 ID = 270721088x
   2.749848 1  10230040x       Rx   d 8 30 00 00 00 30 00 00 00  Length = 4258208 BitCount = 146 ID = 270729280x
   2.769805 1  1022A040x       Rx   d 8 00 B0 00 12 42 00 00 22  Length = 4138208 BitCount = 142 ID = 270704704x
   2.774310 1  1022C040x       Rx   d 6 00 10 00 20 00 00  Length = 3688216 BitCount = 127 ID = 270712896x
   2.779985 1  10240040x       Rx   d 8 83 FE 88 01 01 0E 0F FC  Length = 4228208 BitCount = 145 ID = 270794816x
   2.789466 1  10248040x       Rx   d 7 00 00 6D D2 CC 06 00  Length = 3834578 BitCount = 132 ID = 270827584x
   2.794811 1  102CA040x       Rx   d 8 00 40 0C A6 2A 00 F1 00  Length = 4108212 BitCount = 141 ID = 271360064x
   2.799736 1  102CC040x       Rx   d 8 00 09 CF 69 00 87 06 A9  Length = 4048212 BitCount = 139 ID = 271368256x
   2.809880 1  10264040x       Rx   d 8 04 06 00 00 00 00 00 25  Length = 4228208 BitCount = 145 ID = 270942272x
   2.814802 1  102CE040x       Rx   d 8 90 00 64 7F 00 00 26 A8  Length = 4108212 BitCount = 141 ID = 271376448x
   2.819995 1  10210040x       Rx   d 8 00 00 00 00 00 00 00 00  Length = 4288208 BitCount = 147 ID = 270598208x
   2.822936 1  106B0040x       Rx   d 1 00  Length = 2308248 BitCount = 81 ID = 275447872x
   2.829991 1  10220040x       Rx   d 8 10 00 00 00 00 08 00 00  Length = 4318208 BitCount = 148 ID = 270663744x
   2.840048 1  1022E040x       Rx   d 8 00 00 00 00 00 00 00 00  Length = 4318208 BitCount = 148 ID = 270721088x
   2.845001 1  10780040x       Rx   d 8 00 00 01 04 08 00 00 22  Length = 4288208 BitCount = 147 ID = 276299840x
   2.849348 1  C800040x        Rx   d 6 08 CB 00 00 35 49  Length = 3654586 BitCount = 126 ID = 209715264x
   2.854903 1  10230040x       Rx   d 8 10 00 00 00 10 00 00 00  Length = 4258208 BitCount = 146 ID = 270729280x
   2.869881 1  10240040x       Rx   d 8 83 FE 88 01 01 0E 0F FC  Length = 4228208 BitCount = 145 ID = 270794816x
   2.874984 1  106B8040x       Rx   d 8 00 00 00 00 00 00 00 00  Length = 4318208 BitCount = 148 ID = 275480640x
   2.889834 1  102CA040x       Rx   d 8 00 40 0C A3 2A 00 F1 00  Length = 4104566 BitCount = 141 ID = 271360064x
   2.900368 1  10448060x       Rx   d 4 00 00 45 40  Length = 3088228 BitCount = 107 ID = 272924768x
   2.909941 1  10264040x       Rx   d 8 04 06 00 00 00 00 00 38  Length = 4258208 BitCount = 146 ID = 270942272x
   2.914952 1  1043A040x       Rx   d 8 00 00 34 00 00 00 00 00  Length = 4288208 BitCount = 147 ID = 272867392x
   2.919991 1  10210040x       Rx   d 8 00 00 00 00 00 00 00 00  Length = 4284562 BitCount = 147 ID = 270598208x
   2.924706 1  1080A040x       Rx   d 7 00 00 00 00 00 00 00  Length = 4018212 BitCount = 138 ID = 276865088x
   2.930046 1  10220040x       Rx   d 8 10 00 00 00 00 08 00 00  Length = 4314573 BitCount = 148 ID = 270663744x
   2.940072 1  1022E040x       Rx   d 8 20 00 00 00 20 00 00 00  Length = 4288208 BitCount = 147 ID = 270721088x
   2.942985 1  106B0040x       Rx   d 1 00  Length = 2308248 BitCount = 81 ID = 275447872x
   2.949918 1  10230040x       Rx   d 8 30 00 00 00 30 00 00 00  Length = 4258223 BitCount = 146 ID = 270729280x
   2.969929 1  10240040x       Rx   d 8 83 FE 88 01 01 0E 0F FC  Length = 4224562 BitCount = 145 ID = 270794816x
   2.979085 1  102C0040x       Rx   d 5 AE EF 44 59 03  Length = 3298224 BitCount = 114 ID = 271319104x
   2.989860 1  102CA040x       Rx   d 8 00 40 0C CB 2A 00 F1 00  Length = 4108212 BitCount = 141 ID = 271360064x
   3.001471 1  10304058x       Rx   d 3 44 59 01  Length = 2728251 BitCount = 95 ID = 271597656x
   3.005990 1  Statistic: D 1 R 0 XD 148 XR 0 E 2 O 0 B 59.80%
   3.005990 2  Statistic: D 0 R 0 XD 0 XR 0 E 0 O 0 B 0.00%
   3.005990 3  Statistic: D 0 R 0 XD 0 XR 0 E 0 O 0 B 0.00%
   3.007079 1  10306099x       Rx   d 3 44 59 01  Length = 2754642 BitCount = 96 ID = 271605913x
   3.011430 1  10264040x       Rx   d 8 04 06 00 00 00 00 00 3B  Length = 4224577 BitCount = 145 ID = 270942272x
   3.020012 1  10210040x       Rx   d 8 00 00 00 00 00 00 00 00  Length = 4284562 BitCount = 147 ID = 270598208x
   3.022927 1  10308060x       Rx   d 3 44 59 01  Length = 2788236 BitCount = 97 ID = 271614048x
   3.027189 1  1022A040x       Rx   d 8 00 B0 00 12 42 00 00 22  Length = 4138208 BitCount = 142 ID = 270704704x
   3.034989 1  10220040x       Rx   d 8 10 00 00 00 00 06 00 00  Length = 4284573 BitCount = 147 ID = 270663744x
   3.039374 1  1022C040x       Rx   d 6 00 10 00 20 00 00  Length = 3688216 BitCount = 127 ID = 270712896x
   3.044989 1  1022E040x       Rx   d 8 00 00 00 00 00 00 00 00  Length = 4318223 BitCount = 148 ID = 270721088x
   3.049943 1  10230040x       Rx   d 8 10 00 00 00 10 00 00 00  Length = 4258208 BitCount = 146 ID = 270729280x
   3.053302 1  10250040x       Rx   d 2 00 03  Length = 2604669 BitCount = 91 ID = 270860352x
   3.059847 1  102CC040x       Rx   d 8 00 09 CF 69 00 87 06 A6  Length = 4078212 BitCount = 140 ID = 271368256x
   3.064860 1  102CE040x       Rx   d 8 90 00 64 7F 00 00 26 A6  Length = 4108212 BitCount = 141 ID = 271376448x
   3.069990 1  10240040x       Rx   d 8 83 FE 88 01 01 0E 0F FC  Length = 4224562 BitCount = 145 ID = 270794816x
   3.074885 1  102D0040x       Rx   d 8 01 69 01 ED 7C 8C 00 FF  Length = 4168208 BitCount = 143 ID = 271384640x
   3.080016 1  102E0040x       Rx   d 8 00 33 CA 6F 8A 00 62 80  Length = 4168223 BitCount = 143 ID = 271450176x
   3.084155 1  10466040x       Rx   d 5 00 00 00 00 00  Length = 3444598 BitCount = 119 ID = 273047616x
   3.089860 1  102CA040x       Rx   d 8 00 40 0C C7 2A 00 F1 00  Length = 4078227 BitCount = 140 ID = 271360064x
   3.092983 1  106B0040x       Rx   d 1 00  Length = 2308248 BitCount = 81 ID = 275447872x
   3.099347 1  C800040x        Rx   d 6 08 CB 00 00 35 4B  Length = 3598216 BitCount = 124 ID = 209715264x
   3.105052 1  106B8040x       Rx   d 8 00 00 00 00 00 00 00 00  Length = 4318208 BitCount = 148 ID = 275480640x
   3.109975 1  10264040x       Rx   d 8 04 06 00 00 00 00 00 27  Length = 4228208 BitCount = 145 ID = 270942272x
   3.114146 1  106C0040x       Rx   d 5 00 06 0F 07 00  Length = 3448220 BitCount = 119 ID = 275513408x
   3.120029 1  10210040x       Rx   d 8 00 00 00 00 00 00 00 00  Length = 4288208 BitCount = 147 ID = 270598208x
   3.122250 1  13FFE060x       Rx   d 0  Length = 2098256 BitCount = 74 ID = 335536224x
   3.125523 1  1077C040x       Rx   d 4 30 30 01 F4  Length = 3148224 BitCount = 109 ID = 276283456x
   3.127716 1  13FFE080x       Rx   d 0  Length = 2068260 BitCount = 73 ID = 335536256x
   3.132155 1  10220040x       Rx   d 8 10 00 00 00 00 07 00 00  Length = 4314558 BitCount = 148 ID = 270663744x
   3.136418 1  13FFE099x       Rx   d 0  Length = 2068260 BitCount = 73 ID = 335536281x
   3.140830 1  1022E040x       Rx   d 8 20 00 00 00 20 00 00 00  Length = 4288208 BitCount = 147 ID = 270721088x
   3.147941 1  10734099x       Rx   d 6 24 40 00 7D 00 00  Length = 3594590 BitCount = 124 ID = 275988633x
   3.152325 1  10230040x       Rx   d 8 30 00 00 00 30 00 00 00  Length = 4258208 BitCount = 146 ID = 270729280x
   3.160037 1  1043A040x       Rx   d 8 00 00 36 00 00 00 00 00  Length = 4288208 BitCount = 147 ID = 272867392x
   3.165078 1  10780040x       Rx   d 8 00 00 01 04 08 00 00 22  Length = 4288208 BitCount = 147 ID = 276299840x
   3.169971 1  10240040x       Rx   d 8 83 FE 88 01 01 0E 0F FC  Length = 4228208 BitCount = 145 ID = 270794816x
   3.174505 1  10788040x       Rx   d 6 08 00 00 00 00 00  Length = 3778216 BitCount = 130 ID = 276332608x
   3.179027 CAN 1 Status:chip status error active  - TxErr: 0 RxErr: 1
   3.179034 1  ErrorFrame	Flags = 0xfffe	CodeExt = 0x2072	Code = 0x81	ID = 0x90806040	DLC = 5	Position = 96	Length = 3234390	Data = 0  0  0  0  0x19
   3.182746 CAN 1 Status:chip status error active
   3.182963 1  10806040x       Rx   d 5 00 00 00 00 19  Length = 3414598 BitCount = 118 ID = 276848704x
   3.189866 1  102CA040x       Rx   d 8 00 40 0C C4 29 00 F1 00  Length = 4078212 BitCount = 140 ID = 271360064x
   3.192089 1  13FFE058x       Rx   d 0  Length = 2098256 BitCount = 74 ID = 335536216x
   3.194282 1  13FFE040x       Rx   d 0  Length = 2068260 BitCount = 73 ID = 335536192x
   3.209977 1  10264040x       Rx   d 8 04 06 00 00 00 00 00 3B  Length = 4228208 BitCount = 145 ID = 270942272x
   3.212171 1  13FFE0AFx       Rx   d 0  Length = 2068260 BitCount = 73 ID = 335536303x
   3.214605 1  106B0040x       Rx   d 1 00  Length = 2308248 BitCount = 81 ID = 275447872x
   3.220155 1  10210040x       Rx   d 8 00 00 00 00 00 00 00 00  Length = 4288208 BitCount = 147 ID = 270598208x
   3.230122 1  10220040x       Rx   d 8 10 00 00 00 00 04 00 00  Length = 4318208 BitCount = 148 ID = 270663744x
   3.237411 1  10814099x       Rx   d 4 20 44 2E 00  Length = 3054618 BitCount = 106 ID = 276906137x
   3.241663 CAN 1 Status:chip status error active  - TxErr: 0 RxErr: 1
   3.241671 1  ErrorFrame	Flags = 0xfffe	CodeExt = 0x2072	Code = 0x81	ID = 0x9022e040	DLC = 8	Position = 120	Length = 4134375	Data = 0  0  0  0  0  0  0  0
   3.246283 CAN 1 Status:chip status error active
   3.246500 1  1022E040x       Rx   d 8 00 00 00 00 00 00 00 00  Length = 4314558 BitCount = 148 ID = 270721088x
   3.254994 1  10230040x       Rx   d 8 10 00 00 00 10 00 00 00  Length = 4258208 BitCount = 146 ID = 270729280x
   3.259343 1  621             Rx   d 8 00 52 00 00 00 00 00 00  Length = 3594590 BitCount = 124 ID = 1569
   3.269910 1  1022A040x       Rx   d 8 00 B0 00 12 42 00 00 22  Length = 4138208 BitCount = 142 ID = 270704704x
   3.274445 1  1022C040x       Rx   d 6 00 10 00 20 00 00  Length = 3688216 BitCount = 127 ID = 270712896x
   3.280120 1  10240040x       Rx   d 8 83 FF 88 01 01 0E 0F FC  Length = 4228223 BitCount = 145 ID = 270794816x
   3.284023 1  102C0040x       Rx   d 5 AE EF 44 59 03  Length = 3298224 BitCount = 114 ID = 271319104x
   3.289637 1  10248040x       Rx   d 7 00 00 6D D2 CC 08 00  Length = 3868212 BitCount = 133 ID = 270827584x
   3.294946 1  102CA040x       Rx   d 8 00 40 0C CA 2A 00 F1 00  Length = 4104566 BitCount = 141 ID = 271360064x
   3.299871 1  102CC040x       Rx   d 8 00 09 CF 69 00 87 06 A7  Length = 4078212 BitCount = 140 ID = 271368256x
   3.302783 1  10308060x       Rx   d 3 44 59 01  Length = 2788236 BitCount = 97 ID = 271614048x
   3.307223 1  106B8040x       Rx   d 8 00 00 00 00 00 00 00 00  Length = 4314558 BitCount = 148 ID = 275480640x
   3.310108 1  10306099x       Rx   d 3 44 59 01  Length = 2758236 BitCount = 96 ID = 271605913x
   3.312957 1  10304058x       Rx   d 3 44 59 01  Length = 2724642 BitCount = 95 ID = 271597656x
   3.317311 1  10264040x       Rx   d 8 04 06 00 00 00 00 00 3B  Length = 4228208 BitCount = 145 ID = 270942272x
   3.325083 1  10210040x       Rx   d 8 00 00 00 00 00 00 00 00  Length = 4284562 BitCount = 147 ID = 270598208x
   3.330128 1  10220040x       Rx   d 8 10 00 00 00 00 04 00 00  Length = 4318208 BitCount = 148 ID = 270663744x
   3.334929 1  102CE040x       Rx   d 8 90 00 64 7F 00 00 26 A7  Length = 4108223 BitCount = 141 ID = 271376448x
   3.340122 1  1022E040x       Rx   d 8 20 00 00 00 20 00 00 00  Length = 4288208 BitCount = 147 ID = 270721088x
   3.343154 1  106B0040x       Rx   d 1 00  Length = 2308248 BitCount = 81 ID = 275447872x
   3.349429 1  C800040x        Rx   d 6 08 CB 00 00 35 4E  Length = 3628216 BitCount = 125 ID = 209715264x
   3.355072 1  10230040x       Rx   d 8 30 00 00 00 30 00 00 00  Length = 4258208 BitCount = 146 ID = 270729280x
   3.360144 1  10780040x       Rx   d 8 00 00 01 04 08 00 00 22  Length = 4284562 BitCount = 147 ID = 276299840x
   3.370020 1  10240040x       Rx   d 8 83 FF 88 01 01 0E 0F FC  Length = 4228208 BitCount = 145 ID = 270794816x
   3.389943 1  102CA040x       Rx   d 8 00 40 0C AD 29 00 F1 00  Length = 4104566 BitCount = 141 ID = 271360064x
   3.409988 1  10264040x       Rx   d 8 04 06 00 00 00 00 00 3A  Length = 4194562 BitCount = 144 ID = 270942272x
   3.415089 1  1043A040x       Rx   d 8 00 00 34 00 00 00 00 00  Length = 4284562 BitCount = 147 ID = 272867392x
   3.420104 1  10210040x       Rx   d 8 00 00 00 00 00 00 00 00  Length = 4288208 BitCount = 147 ID = 270598208x
   3.430186 1  10220040x       Rx   d 8 10 00 00 00 00 04 00 00  Length = 4318208 BitCount = 148 ID = 270663744x
   3.440151 1  1022E040x       Rx   d 8 00 00 00 00 00 00 00 00  Length = 4318208 BitCount = 148 ID = 270721088x
   3.450025 1  10230040x       Rx   d 8 10 00 00 00 10 00 00 00  Length = 4258208 BitCount = 146 ID = 270729280x
   3.458072 1  106B0040x       Rx   d 1 00  Length = 2308248 BitCount = 81 ID = 275447872x
   3.470046 1  10240040x       Rx   d 8 83 FF 88 01 01 0E 0F FC  Length = 4228208 BitCount = 145 ID = 270794816x
   3.473764 1  108E0080x       Rx   d 6 0E 01 17 02 05 7A  Length = 3594590 BitCount = 124 ID = 277741696x
   3.478208 1  106B8040x       Rx   d 8 00 00 00 00 00 00 00 00  Length = 4318223 BitCount = 148 ID = 275480640x
   3.490035 1  102CA040x       Rx   d 8 00 40 0C B1 2A 00 F1 00  Length = 4138208 BitCount = 142 ID = 271360064x
   3.497024 1  13FFE068x       Rx   d 0  Length = 2064714 BitCount = 73 ID = 335536232x
   3.499729 1  106D0080x       Rx   d 2 00 00  Length = 2578255 BitCount = 90 ID = 275579008x
   3.510054 1  10264040x       Rx   d 8 04 06 00 00 00 00 00 27  Length = 4228208 BitCount = 145 ID = 270942272x
   3.520108 1  10210040x       Rx   d 8 00 00 00 00 00 00 00 00  Length = 4288208 BitCount = 147 ID = 270598208x
   3.525001 1  1022A040x       Rx   d 8 00 B0 00 12 42 00 00 22  Length = 4138208 BitCount = 142 ID = 270704704x
   3.530132 1  10220040x       Rx   d 8 10 00 00 00 00 05 00 00  Length = 4288208 BitCount = 147 ID = 270663744x
   3.534486 1  1022C040x       Rx   d 6 00 10 00 20 00 00  Length = 3688216 BitCount = 127 ID = 270712896x
   3.540161 1  1022E040x       Rx   d 8 20 00 00 00 20 00 00 00  Length = 4288208 BitCount = 147 ID = 270721088x
   3.550035 1  10230040x       Rx   d 8 30 00 00 00 30 00 00 00  Length = 4258208 BitCount = 146 ID = 270729280x
   3.554929 1  102CC040x       Rx   d 8 00 09 CF 69 00 87 06 A9  Length = 4048212 BitCount = 139 ID = 271368256x
   3.560002 1  102CE040x       Rx   d 8 90 00 64 7F 00 00 26 A8  Length = 4108212 BitCount = 141 ID = 271376448x
   3.564955 1  102D0040x       Rx   d 8 01 69 01 ED 7C 8D 00 FF  Length = 4108212 BitCount = 141 ID = 271384640x
   3.570086 1  10240040x       Rx   d 8 83 FE 88 01 01 0E 0F FC  Length = 4228208 BitCount = 145 ID = 270794816x
   3.573117 1  106B0040x       Rx   d 1 00  Length = 2308248 BitCount = 81 ID = 275447872x
   3.579213 1  102C0040x       Rx   d 5 AE EF 44 59 03  Length = 3298224 BitCount = 114 ID = 271319104x
   3.584258 1  10806040x       Rx   d 5 00 00 00 00 19  Length = 3418220 BitCount = 118 ID = 276848704x
   3.590049 1  102CA040x       Rx   d 8 00 40 0C B2 2A 00 F1 00  Length = 4138208 BitCount = 142 ID = 271360064x
   3.595182 1  10780040x       Rx   d 8 00 00 01 04 08 00 00 22  Length = 4288208 BitCount = 147 ID = 276299840x
   3.599474 1  C800040x        Rx   d 6 08 CB 00 00 35 51  Length = 3598216 BitCount = 124 ID = 209715264x
   3.602321 1  10304058x       Rx   d 3 44 59 01  Length = 2724657 BitCount = 95 ID = 271597656x
   3.606225 1  10788040x       Rx   d 6 08 00 00 00 00 00  Length = 3778216 BitCount = 130 ID = 276332608x
   3.609103 1  10306099x       Rx   d 3 44 59 01  Length = 2754657 BitCount = 96 ID = 271605913x
   3.615047 1  10264040x       Rx   d 8 04 06 00 00 00 00 00 3A  Length = 4198208 BitCount = 144 ID = 270942272x
   3.620265 1  10210040x       Rx   d 8 00 00 00 00 00 00 00 00  Length = 4284562 BitCount = 147 ID = 270598208x
   3.623180 1  10308060x       Rx   d 3 44 59 01  Length = 2788247 BitCount = 97 ID = 271614048x
   3.630113 1  10220040x       Rx   d 8 10 00 00 00 00 05 00 00  Length = 4288208 BitCount = 147 ID = 270663744x
   3.640197 1  1022E040x       Rx   d 8 00 00 00 00 00 00 00 00  Length = 4318208 BitCount = 148 ID = 270721088x
   3.647938 1  10734099x       Rx   d 6 24 40 00 7D 00 00  Length = 3598216 BitCount = 124 ID = 275988633x
   3.652320 1  10230040x       Rx   d 8 10 00 00 00 10 00 00 00  Length = 4258208 BitCount = 146 ID = 270729280x
   3.660178 1  1043A040x       Rx   d 8 00 00 34 00 00 00 00 00  Length = 4284573 BitCount = 147 ID = 272867392x
   3.670084 1  10240040x       Rx   d 8 83 FE 88 01 01 0E 0F FC  Length = 4228208 BitCount = 145 ID = 270794816x
   3.675187 1  106B8040x       Rx   d 8 00 00 00 00 00 00 00 00  Length = 4318208 BitCount = 148 ID = 275480640x
   3.690043 1  102CA040x       Rx   d 8 00 40 0C B1 2A 00 F1 00  Length = 4138208 BitCount = 142 ID = 271360064x
   3.693136 1  106B0040x       Rx   d 1 00  Length = 2308248 BitCount = 81 ID = 275447872x
   3.710124 1  10264040x       Rx   d 8 04 06 00 00 00 00 00 38  Length = 4258223 BitCount = 146 ID = 270942272x
   3.720297 1  10210040x       Rx   d 8 00 00 00 00 00 00 00 00  Length = 4288223 BitCount = 147 ID = 270598208x
   3.730231 1  10220040x       Rx   d 8 10 00 00 00 00 06 00 00  Length = 4288208 BitCount = 147 ID = 270663744x
   3.740165 1  1022E040x       Rx   d 8 20 00 00 00 20 00 00 00  Length = 4288223 BitCount = 147 ID = 270721088x
   3.750130 1  10230040x       Rx   d 8 30 00 00 00 30 00 00 00  Length = 4258208 BitCount = 146 ID = 270729280x
   3.770026 1  1022A040x       Rx   d 8 00 B0 00 12 42 00 00 22  Length = 4138223 BitCount = 142 ID = 270704704x
   3.774554 1  1022C040x       Rx   d 6 00 10 00 20 00 00  Length = 3684586 BitCount = 127 ID = 270712896x
   3.780289 1  10240040x       Rx   d 8 83 FE 88 01 01 0E 0F FC  Length = 4228223 BitCount = 145 ID = 270794816x
   3.789740 1  10248040x       Rx   d 7 00 00 6D D2 CC 08 00  Length = 3864578 BitCount = 133 ID = 270827584x
   3.795055 1  102CA040x       Rx   d 8 00 40 0C AF 2A 00 F1 00  Length = 4108212 BitCount = 141 ID = 271360064x
   3.799980 1  102CC040x       Rx   d 8 00 09 CF 69 00 87 06 AA  Length = 4048212 BitCount = 139 ID = 271368256x
   3.810124 1  10264040x       Rx   d 8 04 06 00 00 00 00 00 25  Length = 4228208 BitCount = 145 ID = 270942272x
   3.812286 1  13FFE0BBx       Rx   d 0  Length = 2038275 BitCount = 72 ID = 335536315x
   3.816518 1  102CE040x       Rx   d 8 90 00 64 7F 00 00 26 A8  Length = 4108212 BitCount = 141 ID = 271376448x
   3.825001 CAN 1 Status:chip status error active  - TxErr: 0 RxErr: 1
   3.825008 1  ErrorFrame	Flags = 0xfffe	CodeExt = 0x2072	Code = 0x81	ID = 0x90210040	DLC = 8	Position = 120	Length = 4104390	Data = 0  0  0  0  0  0  0  0
   3.829596 CAN 1 Status:chip status error active
   3.829813 1  10210040x       Rx   d 8 00 00 00 00 00 00 00 00  Length = 4288223 BitCount = 147 ID = 270598208x
   3.833567 1  624             Rx   d 8 00 20 00 00 00 00 00 00  Length = 3628216 BitCount = 125 ID = 1572
   3.837979 1  10220040x       Rx   d 8 10 00 00 00 00 06 00 00  Length = 4288223 BitCount = 147 ID = 270663744x
   3.845183 1  1022E040x       Rx   d 8 00 00 00 00 00 00 00 00  Length = 4318208 BitCount = 148 ID = 270721088x
   3.849532 1  C800040x        Rx   d 6 08 CB 00 00 35 54  Length = 3594590 BitCount = 124 ID = 209715264x
   3.855147 1  10230040x       Rx   d 8 10 00 00 00 10 00 00 00  Length = 4258208 BitCount = 146 ID = 270729280x
   3.858150 1  10428040x       Rx   d 1 02  Length = 2278252 BitCount = 80 ID = 272793664x
   3.863192 1  106B0040x       Rx   d 1 00  Length = 2304686 BitCount = 81 ID = 275447872x
   3.870153 1  10240040x       Rx   d 8 83 FE 88 01 01 0E 0F FC  Length = 4224562 BitCount = 145 ID = 270794816x
   3.875228 1  106B8040x       Rx   d 8 00 00 00 00 00 00 00 00  Length = 4318208 BitCount = 148 ID = 275480640x
   3.879309 1  102C0040x       Rx   d 5 AE EF 44 59 03  Length = 3298224 BitCount = 114 ID = 271319104x
   3.885252 1  10780040x       Rx   d 8 00 00 01 04 08 00 00 22  Length = 4288208 BitCount = 147 ID = 276299840x
   3.890114 1  102CA040x       Rx   d 8 00 40 0C BC 2A 00 F1 00  Length = 4138208 BitCount = 142 ID = 271360064x
   3.900043 1  10308060x       Rx   d 3 44 59 01  Length = 2784638 BitCount = 97 ID = 271614048x
   3.902893 1  10304058x       Rx   d 3 44 59 01  Length = 2724642 BitCount = 95 ID = 271597656x
   3.906106 1  10448060x       Rx   d 4 00 00 45 40  Length = 3088243 BitCount = 107 ID = 272924768x
   3.910491 1  10264040x       Rx   d 8 04 06 00 00 00 00 00 38  Length = 4261854 BitCount = 146 ID = 270942272x
   3.913369 1  10306099x       Rx   d 3 44 59 01  Length = 2754642 BitCount = 96 ID = 271605913x
   3.917779 1  1043A040x       Rx   d 8 00 00 36 00 00 00 00 00  Length = 4284562 BitCount = 147 ID = 272867392x
   3.925224 1  10210040x       Rx   d 8 00 00 00 00 00 00 00 00  Length = 4288208 BitCount = 147 ID = 270598208x
   3.930237 1  10220040x       Rx   d 8 10 00 00 00 00 06 00 00  Length = 4288208 BitCount = 147 ID = 270663744x
   3.934948 1  1080A040x       Rx   d 7 00 00 00 00 00 00 00  Length = 4018212 BitCount = 138 ID = 276865088x
   3.940234 1  1022E040x       Rx   d 8 20 00 00 00 20 00 00 00  Length = 4288208 BitCount = 147 ID = 270721088x
   3.943984 1  62C             Rx   d 8 00 40 00 00 00 00 00 00  Length = 3624586 BitCount = 125 ID = 1580
   3.947943 1  631             Rx   d 8 00 40 00 00 00 00 00 00  Length = 3564605 BitCount = 123 ID = 1585
   3.952135 CAN 1 Status:chip status error active  - TxErr: 0 RxErr: 1
   3.952143 1  ErrorFrame	Flags = 0xfffe	CodeExt = 0x2072	Code = 0x81	ID = 0x90230040	DLC = 8	Position = 120	Length = 4074390	Data = 0x30  0  0  0  0x30  0  0  0
   3.956694 CAN 1 Status:chip status error active
   3.956912 1  10230040x       Rx   d 8 30 00 00 00 30 00 00 00  Length = 4254562 BitCount = 146 ID = 270729280x
   3.970119 1  10240040x       Rx   d 8 83 FF 88 01 01 0C 0F FC  Length = 4198208 BitCount = 144 ID = 270794816x
   3.978283 1  106B0040x       Rx   d 1 00  Length = 2308248 BitCount = 81 ID = 275447872x
   3.990080 1  102CA040x       Rx   d 8 00 40 0C B0 2A 00 F1 00  Length = 4108212 BitCount = 141 ID = 271360064x
   4.002566 Li SleepModeEvent 0 entering sleep mode due to bus idle timeout
   4.005991 1  Statistic: D 4 R 0 XD 154 XR 0 E 4 O 0 B 62.90%
   4.005991 2  Statistic: D 0 R 0 XD 0 XR 0 E 0 O 0 B 0.00%
   4.005991 3  Statistic: D 0 R 0 XD 0 XR 0 E 0 O 0 B 0.00%
   4.010187 1  10264040x       Rx   d 8 04 06 00 00 00 00 00 38  Length = 4258208 BitCount = 146 ID = 270942272x
   4.020241 1  10210040x       Rx   d 8 00 00 00 00 00 00 00 00  Length = 4288208 BitCount = 147 ID = 270598208x
   4.025104 1  1022A040x       Rx   d 8 00 B0 00 12 42 00 00 22  Length = 4138208 BitCount = 142 ID = 270704704x
   4.030267 1  10220040x       Rx   d 8 10 00 00 00 00 08 00 00  Length = 4318208 BitCount = 148 ID = 270663744x
   4.034615 1  1022C040x       Rx   d 6 00 10 00 20 00 00  Length = 3684586 BitCount = 127 ID = 270712896x
   4.040290 1  1022E040x       Rx   d 8 00 00 00 00 00 00 00 00  Length = 4318223 BitCount = 148 ID = 270721088x
   4.043533 1  10250040x       Rx   d 2 00 03  Length = 2608240 BitCount = 91 ID = 270860352x
   4.050166 1  10230040x       Rx   d 8 10 00 00 00 10 00 00 00  Length = 4258208 BitCount = 146 ID = 270729280x
   4.055059 1  102CC040x       Rx   d 8 00 09 CF 69 00 87 06 A8  Length = 4078212 BitCount = 140 ID = 271368256x
   4.060101 1  102CE040x       Rx   d 8 90 00 64 7F 00 00 26 A8  Length = 4108223 BitCount = 141 ID = 271376448x
   4.065084 1  102D0040x       Rx   d 8 01 69 01 ED 7C 8D 00 FF  Length = 4108223 BitCount = 141 ID = 271384640x
   4.070155 1  10240040x       Rx   d 8 83 FF 88 01 01 0C 0F FC  Length = 4198208 BitCount = 144 ID = 270794816x
   4.075168 1  102E0040x       Rx   d 8 00 33 CA 6F 8A 00 62 81  Length = 4138208 BitCount = 142 ID = 271450176x
   4.080386 1  106B8040x       Rx   d 8 00 00 00 00 00 00 00 00  Length = 4314558 BitCount = 148 ID = 275480640x
   4.084381 1  106C0040x       Rx   d 5 00 06 0F 07 00  Length = 3448220 BitCount = 119 ID = 275513408x
   4.090144 1  102CA040x       Rx   d 8 00 40 0C B7 2A 00 F1 00  Length = 4108212 BitCount = 141 ID = 271360064x
   4.093237 1  106B0040x       Rx   d 1 00  Length = 2308248 BitCount = 81 ID = 275447872x
   4.099630 1  C800040x        Rx   d 6 08 CB 00 00 35 57  Length = 3628216 BitCount = 125 ID = 209715264x
   4.104070 1  1077C040x       Rx   d 4 30 30 01 F4  Length = 3144614 BitCount = 109 ID = 276283456x
   4.110225 1  10264040x       Rx   d 8 04 06 00 00 00 00 00 38  Length = 4258208 BitCount = 146 ID = 270942272x
   4.115300 1  10780040x       Rx   d 8 00 00 01 04 08 00 00 22  Length = 4288208 BitCount = 147 ID = 276299840x
   4.120281 1  10210040x       Rx   d 8 00 00 00 00 00 00 00 00  Length = 4288208 BitCount = 147 ID = 270598208x
   4.124751 1  10788040x       Rx   d 6 08 00 00 00 00 00  Length = 3774582 BitCount = 130 ID = 276332608x
   4.130276 1  10220040x       Rx   d 8 10 00 00 00 00 06 00 00  Length = 4288223 BitCount = 147 ID = 270663744x
   4.134389 1  10806040x       Rx   d 5 00 00 00 00 19  Length = 3418220 BitCount = 118 ID = 276848704x
   4.140328 1  1022E040x       Rx   d 8 20 00 00 00 20 00 00 00  Length = 4284562 BitCount = 147 ID = 270721088x
   4.147953 1  10734099x       Rx   d 6 24 40 00 7D 00 00  Length = 3598216 BitCount = 124 ID = 275988633x
   4.152335 1  10230040x       Rx   d 8 30 00 00 00 30 00 00 00  Length = 4258208 BitCount = 146 ID = 270729280x
   4.160253 1  1043A040x       Rx   d 8 00 00 35 00 00 00 00 00  Length = 4284573 BitCount = 147 ID = 272867392x
   4.170189 1  10240040x       Rx   d 8 83 FF 88 01 01 0C 0F FC  Length = 4198208 BitCount = 144 ID = 270794816x
   4.179314 1  102C0040x       Rx   d 5 AE EF 44 59 03  Length = 3298239 BitCount = 114 ID = 271319104x
   4.190118 1  102CA040x       Rx   d 8 00 40 0C B2 29 00 F1 00  Length = 4078212 BitCount = 140 ID = 271360064x
   4.201155 1  10304058x       Rx   d 3 44 59 01  Length = 2724642 BitCount = 95 ID = 271597656x
   4.207070 1  10306099x       Rx   d 3 44 59 01  Length = 2758251 BitCount = 96 ID = 271605913x
   4.211423 1  10264040x       Rx   d 8 04 06 00 00 00 00 00 25  Length = 4228208 BitCount = 145 ID = 270942272x
   4.220339 1  10210040x       Rx   d 8 00 00 00 00 00 00 00 00  Length = 4288223 BitCount = 147 ID = 270598208x
   4.223250 1  10308060x       Rx   d 3 44 59 01  Length = 2784638 BitCount = 97 ID = 271614048x
   4.225679 1  106B0040x       Rx   d 1 00  Length = 2304686 BitCount = 81 ID = 275447872x
   4.230394 1  10220040x       Rx   d 8 10 00 00 00 00 04 00 00  Length = 4318223 BitCount = 148 ID = 270663744x
   4.240420 1  1022E040x       Rx   d 8 00 00 00 00 00 00 00 00  Length = 4318223 BitCount = 148 ID = 270721088x
   4.250205 1  10230040x       Rx   d 8 10 00 00 00 10 00 00 00  Length = 4258208 BitCount = 146 ID = 270729280x
   4.259569 1  621             Rx   d 8 00 52 00 00 00 00 00 00  Length = 3598216 BitCount = 124 ID = 1569
   4.267160 1  106D4099x       Rx   d 3 00 00 81  Length = 2818247 BitCount = 98 ID = 275595417x
   4.271424 1  1022A040x       Rx   d 8 00 B0 00 12 42 00 00 22  Length = 4138208 BitCount = 142 ID = 270704704x
   4.279676 1  1022C040x       Rx   d 6 00 10 00 20 00 00  Length = 3688216 BitCount = 127 ID = 270712896x
   4.285289 1  10240040x       Rx   d 8 83 FE 88 01 01 0C 0F FC  Length = 4258223 BitCount = 146 ID = 270794816x
   4.289884 1  10248040x       Rx   d 7 00 00 6D D2 CC 08 00  Length = 3868212 BitCount = 133 ID = 270827584x
   4.295164 1  102CA040x       Rx   d 8 00 40 0C BA 29 00 F1 00  Length = 4104566 BitCount = 141 ID = 271360064x
   4.300089 1  102CC040x       Rx   d 8 00 09 CF 69 00 87 06 A9  Length = 4048212 BitCount = 139 ID = 271368256x
   4.303272 1  10428040x       Rx   d 1 00  Length = 2308248 BitCount = 81 ID = 272793664x
   4.310295 1  10264040x       Rx   d 8 04 06 00 00 00 00 00 38  Length = 4258208 BitCount = 146 ID = 270942272x
   4.315160 1  102CE040x       Rx   d 8 90 00 64 7F 00 00 26 A8  Length = 4108223 BitCount = 141 ID = 271376448x
   4.318038 1  13FFE080x       Rx   d 0  Length = 2064714 BitCount = 73 ID = 335536256x
   4.322448 1  10210040x       Rx   d 8 00 00 00 00 00 00 00 00  Length = 4284573 BitCount = 147 ID = 270598208x
   4.324673 1  13FFE060x       Rx   d 0  Length = 2098256 BitCount = 74 ID = 335536224x
   4.330466 1  10220040x       Rx   d 8 10 00 00 00 00 04 00 00  Length = 4318208 BitCount = 148 ID = 270663744x
   4.335357 1  106B8040x       Rx   d 8 00 00 00 00 00 00 00 00  Length = 4318208 BitCount = 148 ID = 275480640x
   4.337551 1  13FFE099x       Rx   d 0  Length = 2068260 BitCount = 73 ID = 335536281x
   4.341959 1  1022E040x       Rx   d 8 20 00 00 00 20 00 00 00  Length = 4284562 BitCount = 147 ID = 270721088x
   4.349671 1  C800040x        Rx   d 6 08 CB 00 00 35 5A  Length = 3594601 BitCount = 124 ID = 209715264x
   4.355256 1  10230040x       Rx   d 8 30 00 00 00 30 00 00 00  Length = 4258208 BitCount = 146 ID = 270729280x
   4.358321 1  106B0040x       Rx   d 1 00  Length = 2308248 BitCount = 81 ID = 275447872x
   4.365375 1  10780040x       Rx   d 8 00 00 01 04 08 00 00 22  Length = 4288223 BitCount = 147 ID = 276299840x
   4.370240 1  10240040x       Rx   d 8 83 FF 88 01 01 0B 0F FC  Length = 4198208 BitCount = 144 ID = 270794816x
   4.373033 1  13FFE040x       Rx   d 0  Length = 2068275 BitCount = 73 ID = 335536192x
   4.390167 1  102CA040x       Rx   d 8 00 40 0C CA 29 00 F1 00  Length = 4074566 BitCount = 140 ID = 271360064x
   4.393978 1  10324058x       Rx   d 6 00 00 03 FF 00 00  Length = 3684586 BitCount = 127 ID = 271728728x
   4.396497 1  13FFE058x       Rx   d 0  Length = 2094710 BitCount = 74 ID = 335536216x
   4.400821 1  102C6060x       Rx   d 6 00 14 BA 00 32 B4  Length = 3568216 BitCount = 123 ID = 271343712x
   4.410303 1  10264040x       Rx   d 8 04 06 00 00 00 00 00 38  Length = 4258208 BitCount = 146 ID = 270942272x
   4.412495 1  13FFE0AFx       Rx   d 0  Length = 2068260 BitCount = 73 ID = 335536303x
   4.416903 1  1043A040x       Rx   d 8 00 00 34 00 00 00 00 00  Length = 4284562 BitCount = 147 ID = 272867392x
   4.425339 1  10210040x       Rx   d 8 00 00 00 00 00 00 00 00  Length = 4288208 BitCount = 147 ID = 270598208x
   4.430468 1  10220040x       Rx   d 8 10 00 00 00 00 04 00 00  Length = 4314558 BitCount = 148 ID = 270663744x
   4.440405 1  1022E040x       Rx   d 8 00 00 00 00 00 00 00 00  Length = 4318223 BitCount = 148 ID = 270721088x
   4.450279 1  10230040x       Rx   d 8 10 00 00 00 10 00 00 00  Length = 4258208 BitCount = 146 ID = 270729280x
   4.469542 1  108E0080x       Rx   d 6 0E 01 17 02 05 7B  Length = 3628231 BitCount = 125 ID = 277741696x
   4.473835 1  10240040x       Rx   d 8 83 FF 88 01 01 09 0F FC  Length = 4168208 BitCount = 143 ID = 270794816x
   4.479328 1  102C0040x       Rx   d 5 AE EF 44 59 03  Length = 3298224 BitCount = 114 ID = 271319104x
   4.483322 1  106B0040x       Rx   d 1 00  Length = 2308248 BitCount = 81 ID = 275447872x
   4.490251 1  102CA040x       Rx   d 8 00 40 0C BD 29 00 F1 00  Length = 4134566 BitCount = 142 ID = 271360064x
   4.495416 1  106B8040x       Rx   d 8 00 00 00 00 00 00 00 00  Length = 4318208 BitCount = 148 ID = 275480640x
   4.500033 1  10308060x       Rx   d 3 44 59 01  Length = 2784638 BitCount = 97 ID = 271614048x
   4.502882 1  10304058x       Rx   d 3 44 59 01  Length = 2724657 BitCount = 95 ID = 271597656x
   4.507085 1  10306099x       Rx   d 3 44 59 01  Length = 2758251 BitCount = 96 ID = 271605913x
   4.511434 1  10264040x       Rx   d 8 04 06 00 00 00 00 00 25  Length = 4224562 BitCount = 145 ID = 270942272x
   4.520410 1  10210040x       Rx   d 8 00 00 00 00 00 00 00 00  Length = 4288208 BitCount = 147 ID = 270598208x
   4.525243 1  1022A040x       Rx   d 8 00 B0 00 12 42 00 00 22  Length = 4138208 BitCount = 142 ID = 270704704x
   4.530376 1  10220040x       Rx   d 8 10 00 00 00 00 05 00 00  Length = 4288208 BitCount = 147 ID = 270663744x
   4.534728 1  1022C040x       Rx   d 6 00 10 00 20 00 00  Length = 3688216 BitCount = 127 ID = 270712896x
   4.540339 1  1022E040x       Rx   d 8 20 00 00 00 20 00 00 00  Length = 4288208 BitCount = 147 ID = 270721088x
   4.550275 1  10230040x       Rx   d 8 30 00 00 00 30 00 00 00  Length = 4258208 BitCount = 146 ID = 270729280x
   4.555198 1  102CC040x       Rx   d 8 00 09 CF 69 00 87 06 A8  Length = 4078227 BitCount = 140 ID = 271368256x
   4.560238 1  102CE040x       Rx   d 8 90 00 64 7F 00 00 26 A8  Length = 4104566 BitCount = 141 ID = 271376448x
   4.565313 1  102D0040x       Rx   d 8 01 69 01 ED 7C 8C 00 FF  Length = 4168208 BitCount = 143 ID = 271384640x
   4.570294 1  10240040x       Rx   d 8 83 FE 88 01 01 08 0F FC  Length = 4198208 BitCount = 144 ID = 270794816x
   4.579508 1  10806040x       Rx   d 5 00 00 00 00 19  Length = 3418220 BitCount = 118 ID = 276848704x
   4.590283 1  102CA040x       Rx   d 8 00 40 0C BF 29 00 F1 00  Length = 4138208 BitCount = 142 ID = 271360064x
   4.595472 1  10780040x       Rx   d 8 00 00 01 04 08 00 00 22  Length = 4284562 BitCount = 147 ID = 276299840x
   4.599704 1  C800040x        Rx   d 6 08 CB 00 00 35 5D  Length = 3594590 BitCount = 124 ID = 209715264x
   4.603369 1  106B0040x       Rx   d 1 00  Length = 2308248 BitCount = 81 ID = 275447872x
   4.610330 1  10264040x       Rx   d 8 04 06 00 00 00 00 00 38  Length = 4254577 BitCount = 146 ID = 270942272x
   4.614895 1  10788040x       Rx   d 6 08 00 00 00 00 00  Length = 3778216 BitCount = 130 ID = 276332608x
   4.620390 1  10210040x       Rx   d 8 00 00 00 00 00 00 00 00  Length = 4288208 BitCount = 147 ID = 270598208x
   4.630385 1  10220040x       Rx   d 8 10 00 00 00 00 05 00 00  Length = 4288208 BitCount = 147 ID = 270663744x
   4.640379 1  1022E040x       Rx   d 8 00 00 00 00 00 00 00 00  Length = 4318208 BitCount = 148 ID = 270721088x
   4.647941 1  10734099x       Rx   d 6 24 40 00 7D 00 00  Length = 3598216 BitCount = 124 ID = 275988633x
   4.652324 1  10230040x       Rx   d 8 10 00 00 00 10 00 00 00  Length = 4258208 BitCount = 146 ID = 270729280x
   4.660398 1  1043A040x       Rx   d 8 00 00 36 00 00 00 00 00  Length = 4288208 BitCount = 147 ID = 272867392x
   4.670332 1  10240040x       Rx   d 8 83 FE 88 01 01 08 0F FC  Length = 4198208 BitCount = 144 ID = 270794816x
   4.675434 1  106B8040x       Rx   d 8 00 00 00 00 00 00 00 00  Length = 4314573 BitCount = 148 ID = 275480640x
   4.690291 1  102CA040x       Rx   d 8 00 40 0C BB 29 00 F1 00  Length = 4108212 BitCount = 141 ID = 271360064x
   4.697016 1  13FFE068x       Rx   d 0  Length = 2068275 BitCount = 73 ID = 335536232x
   4.699715 1  106D0080x       Rx   d 2 00 00  Length = 2574658 BitCount = 90 ID = 275579008x
   4.710370 1  10264040x       Rx   d 8 04 06 00 00 00 00 00 38  Length = 4258223 BitCount = 146 ID = 270942272x
   4.720396 1  10210040x       Rx   d 8 00 00 00 00 00 00 00 00  Length = 4288208 BitCount = 147 ID = 270598208x
   4.723399 1  106B0040x       Rx   d 1 00  Length = 2308248 BitCount = 81 ID = 275447872x
   4.730449 1  10220040x       Rx   d 8 10 00 00 00 00 04 00 00  Length = 4314558 BitCount = 148 ID = 270663744x
   4.740353 1  1022E040x       Rx   d 8 20 00 00 00 20 00 00 00  Length = 4288208 BitCount = 147 ID = 270721088x
   4.750320 1  10230040x       Rx   d 8 30 00 00 00 30 00 00 00  Length = 4258223 BitCount = 146 ID = 270729280x
   4.770273 1  1022A040x       Rx   d 8 00 B0 00 12 42 00 00 22  Length = 4134566 BitCount = 142 ID = 270704704x
   4.774808 1  1022C040x       Rx   d 6 00 10 00 20 00 00  Length = 3688216 BitCount = 127 ID = 270712896x
   4.780333 1  10240040x       Rx   d 8 83 FE 88 01 01 08 0F FC  Length = 4198208 BitCount = 144 ID = 270794816x
   4.784386 1  102C0040x       Rx   d 5 AE EF 44 59 03  Length = 3298224 BitCount = 114 ID = 271319104x
   4.789999 1  10248040x       Rx   d 7 00 00 6D D2 CC 08 00  Length = 3868212 BitCount = 133 ID = 270827584x
   4.795339 1  102CA040x       Rx   d 8 00 40 0C BC 29 00 F1 00  Length = 4074566 BitCount = 140 ID = 271360064x
   4.800204 1  102CC040x       Rx   d 8 00 09 CF 69 00 87 06 A9  Length = 4048212 BitCount = 139 ID = 271368256x
   4.807074 1  10306099x       Rx   d 3 44 59 01  Length = 2758236 BitCount = 96 ID = 271605913x
   4.811456 1  10264040x       Rx   d 8 04 06 00 00 00 00 00 38  Length = 4258223 BitCount = 146 ID = 270942272x
   4.814304 1  10304058x       Rx   d 3 44 59 01  Length = 2724642 BitCount = 95 ID = 271597656x
   4.820458 1  10210040x       Rx   d 8 00 00 00 00 00 00 00 00  Length = 4288208 BitCount = 147 ID = 270598208x
   4.823373 1  10308060x       Rx   d 3 44 59 01  Length = 2788236 BitCount = 97 ID = 271614048x
   4.827606 1  102CE040x       Rx   d 8 90 00 64 7F 00 00 26 A8  Length = 4108223 BitCount = 141 ID = 271376448x
   4.835470 1  10220040x       Rx   d 8 10 00 00 00 00 07 00 00  Length = 4318208 BitCount = 148 ID = 270663744x
   4.840425 1  1022E040x       Rx   d 8 00 00 00 00 00 00 00 00  Length = 4318208 BitCount = 148 ID = 270721088x
   4.843517 1  106B0040x       Rx   d 1 00  Length = 2308248 BitCount = 81 ID = 275447872x
   4.849792 1  C800040x        Rx   d 6 08 CB 00 00 35 60  Length = 3628216 BitCount = 125 ID = 209715264x
   4.855375 1  10230040x       Rx   d 8 10 00 00 00 10 00 00 00  Length = 4258208 BitCount = 146 ID = 270729280x
   4.860476 1  10780040x       Rx   d 8 00 00 01 04 08 00 00 22  Length = 4284562 BitCount = 147 ID = 276299840x
   4.870353 1  10240040x       Rx   d 8 83 FE 88 01 01 08 0F FC  Length = 4198208 BitCount = 144 ID = 270794816x
   4.875486 1  106B8040x       Rx   d 8 00 00 00 00 00 00 00 00  Length = 4318208 BitCount = 148 ID = 275480640x
   4.890336 1  102CA040x       Rx   d 8 00 40 0C BD 29 00 F1 00  Length = 4134566 BitCount = 142 ID = 271360064x
   4.900326 1  10448060x       Rx   d 4 00 00 45 40  Length = 3084618 BitCount = 107 ID = 272924768x
   4.910382 1  10264040x       Rx   d 8 04 06 00 00 00 00 00 25  Length = 4228208 BitCount = 145 ID = 270942272x
   4.915603 1  1043A040x       Rx   d 8 00 00 37 00 00 00 00 00  Length = 4318223 BitCount = 148 ID = 272867392x
   4.920465 1  10210040x       Rx   d 8 00 00 00 00 00 00 00 00  Length = 4288208 BitCount = 147 ID = 270598208x
   4.925178 1  1080A040x       Rx   d 7 00 00 00 00 00 00 00  Length = 4018212 BitCount = 138 ID = 276865088x
   4.930463 1  10220040x       Rx   d 8 10 00 00 00 00 06 00 00  Length = 4288208 BitCount = 147 ID = 270663744x
   4.940399 1  1022E040x       Rx   d 8 20 00 00 00 20 00 00 00  Length = 4288208 BitCount = 147 ID = 270721088x
   4.950394 1  10230040x       Rx   d 8 30 00 00 00 30 00 00 00  Length = 4258208 BitCount = 146 ID = 270729280x
   4.958438 1  106B0040x       Rx   d 1 00  Length = 2308263 BitCount = 81 ID = 275447872x
   4.970385 1  10240040x       Rx   d 8 83 FE 88 01 01 08 0F FC  Length = 4198223 BitCount = 144 ID = 270794816x
   4.990336 1  102CA040x       Rx   d 8 00 40 0C C7 29 00 F1 00  Length = 4104566 BitCount = 141 ID = 271360064x
   5.005991 1  Statistic: D 1 R 0 XD 152 XR 0 E 0 O 0 B 59.76%
   5.005991 2  Statistic: D 0 R 0 XD 0 XR 0 E 0 O 0 B 0.00%
   5.005991 3  Statistic: D 0 R 0 XD 0 XR 0 E 0 O 0 B 0.00%
   5.010384 1  10264040x       Rx   d 8 04 06 00 00 00 00 00 3A  Length = 4198208 BitCount = 144 ID = 270942272x
   5.012968 1  13FFE0BBx       Rx   d 0  Length = 2038260 BitCount = 72 ID = 335536315x
   5.020501 1  10210040x       Rx   d 8 00 00 00 00 00 00 00 00  Length = 4288208 BitCount = 147 ID = 270598208x
   5.025362 1  1022A040x       Rx   d 8 00 B0 00 12 42 00 00 22  Length = 4138208 BitCount = 142 ID = 270704704x
   5.030525 1  10220040x       Rx   d 8 10 00 00 00 00 08 00 00  Length = 4318208 BitCount = 148 ID = 270663744x
   5.034876 1  1022C040x       Rx   d 6 00 10 00 20 00 00  Length = 3688216 BitCount = 127 ID = 270712896x
   5.040488 1  1022E040x       Rx   d 8 00 00 00 00 00 00 00 00  Length = 4318208 BitCount = 148 ID = 270721088x
   5.043849 1  10250040x       Rx   d 2 00 03  Length = 2604654 BitCount = 91 ID = 270860352x
   5.050424 1  10230040x       Rx   d 8 10 00 00 00 10 00 00 00  Length = 4258208 BitCount = 146 ID = 270729280x
   5.055317 1  102CC040x       Rx   d 8 00 09 CF 69 00 87 06 A7  Length = 4078227 BitCount = 140 ID = 271368256x
   5.060357 1  102CE040x       Rx   d 8 90 00 64 7F 00 00 26 A8  Length = 4104566 BitCount = 141 ID = 271376448x
   5.065342 1  102D0040x       Rx   d 8 01 69 01 ED 7C 8B 00 FF  Length = 4138208 BitCount = 142 ID = 271384640x
   5.070411 1  10240040x       Rx   d 8 83 FE 88 01 01 08 0F FC  Length = 4194562 BitCount = 144 ID = 270794816x
   5.075426 1  102E0040x       Rx   d 8 00 33 CA 6F 8A 00 62 81  Length = 4138208 BitCount = 142 ID = 271450176x
   5.079477 1  102C0040x       Rx   d 5 AE EF 44 59 03  Length = 3298224 BitCount = 114 ID = 271319104x
   5.084637 1  10466040x       Rx   d 5 00 00 00 00 00  Length = 3444609 BitCount = 119 ID = 273047616x
   5.090402 1  102CA040x       Rx   d 8 00 40 0C CC 29 00 F1 00  Length = 4108212 BitCount = 141 ID = 271360064x
   5.093525 1  106B0040x       Rx   d 1 00  Length = 2308248 BitCount = 81 ID = 275447872x
   5.099828 1  C800040x        Rx   d 6 08 CB 00 00 35 62  Length = 3598216 BitCount = 124 ID = 209715264x
   5.102679 1  10304058x       Rx   d 3 44 59 01  Length = 2724657 BitCount = 95 ID = 271597656x
   5.105592 1  10308060x       Rx   d 3 44 59 01  Length = 2788247 BitCount = 97 ID = 271614048x
   5.108471 1  10306099x       Rx   d 3 44 59 01  Length = 2754642 BitCount = 96 ID = 271605913x
   5.112915 1  106B8040x       Rx   d 8 00 00 00 00 00 00 00 00  Length = 4318223 BitCount = 148 ID = 275480640x
   5.120541 1  10210040x       Rx   d 8 00 00 00 00 00 00 00 00  Length = 4288208 BitCount = 147 ID = 270598208x
   5.125402 1  10264040x       Rx   d 8 04 06 00 00 00 00 00 3A  Length = 4198208 BitCount = 144 ID = 270942272x
   5.130535 1  10220040x       Rx   d 8 10 00 00 00 00 09 00 00  Length = 4288208 BitCount = 147 ID = 270663744x
   5.134617 1  106C0040x       Rx   d 5 00 06 0F 07 00  Length = 3448220 BitCount = 119 ID = 275513408x
   5.140470 1  1022E040x       Rx   d 8 20 00 00 00 20 00 00 00  Length = 4288223 BitCount = 147 ID = 270721088x
   5.144403 1  1077C040x       Rx   d 4 30 30 01 F4  Length = 3148224 BitCount = 109 ID = 276283456x
   5.148121 1  10734099x       Rx   d 6 24 40 00 7D 00 00  Length = 3594601 BitCount = 124 ID = 275988633x
   5.152501 1  10230040x       Rx   d 8 30 00 00 00 30 00 00 00  Length = 4254562 BitCount = 146 ID = 270729280x
   5.160517 1  1043A040x       Rx   d 8 00 00 33 00 00 00 00 00  Length = 4288223 BitCount = 147 ID = 272867392x
   5.165558 1  10780040x       Rx   d 8 00 00 01 04 08 00 00 22  Length = 4284573 BitCount = 147 ID = 276299840x
   5.170423 1  10240040x       Rx   d 8 83 FE 88 01 01 09 0F FC  Length = 4168208 BitCount = 143 ID = 270794816x
   5.175076 1  10788040x       Rx   d 6 08 00 00 00 00 00  Length = 3778216 BitCount = 130 ID = 276332608x
   5.179636 1  10806040x       Rx   d 5 00 00 00 00 19  Length = 3414613 BitCount = 118 ID = 276848704x
   5.190382 1  102CA040x       Rx   d 8 00 40 0C D5 29 00 F1 00  Length = 4078212 BitCount = 140 ID = 271360064x
   5.210459 1  10264040x       Rx   d 8 04 06 00 00 00 00 00 26  Length = 4228208 BitCount = 145 ID = 270942272x
   5.213554 1  106B0040x       Rx   d 1 00  Length = 2308248 BitCount = 81 ID = 275447872x
   5.220544 1  10210040x       Rx   d 8 00 00 00 00 00 00 00 00  Length = 4284562 BitCount = 147 ID = 270598208x
   5.230540 1  10220040x       Rx   d 8 10 00 00 00 00 07 00 00  Length = 4318208 BitCount = 148 ID = 270663744x
   5.240504 1  1022E040x       Rx   d 8 00 00 00 00 00 00 00 00  Length = 4318208 BitCount = 148 ID = 270721088x
   5.250558 1  10230040x       Rx   d 8 10 00 00 00 10 00 00 00  Length = 4258223 BitCount = 146 ID = 270729280x
   5.259773 1  621             Rx   d 8 00 52 00 00 00 00 00 00  Length = 3598231 BitCount = 124 ID = 1569
   5.270397 1  1022A040x       Rx   d 8 00 B0 00 12 42 00 00 22  Length = 4138208 BitCount = 142 ID = 270704704x
   5.274927 1  1022C040x       Rx   d 6 00 10 00 20 00 00  Length = 3684586 BitCount = 127 ID = 270712896x
   5.280452 1  10240040x       Rx   d 8 83 FF 88 01 01 09 0F FC  Length = 4168208 BitCount = 143 ID = 270794816x
   5.285585 1  106B8040x       Rx   d 8 00 00 00 00 00 00 00 00  Length = 4318208 BitCount = 148 ID = 275480640x
   5.290112 1  10248040x       Rx   d 7 00 00 6D D2 CC 07 00  Length = 3834578 BitCount = 132 ID = 270827584x
   5.295397 1  102CA040x       Rx   d 8 00 40 0C CB 29 00 F1 00  Length = 4078212 BitCount = 140 ID = 271360064x
   5.300352 1  102CC040x       Rx   d 8 00 09 CF 69 00 87 06 A6  Length = 4078212 BitCount = 140 ID = 271368256x
   5.310467 1  10264040x       Rx   d 8 04 06 00 00 00 00 00 3A  Length = 4198208 BitCount = 144 ID = 270942272x
   5.315418 1  102CE040x       Rx   d 8 90 00 64 7F 00 00 26 A7  Length = 4108212 BitCount = 141 ID = 271376448x
   5.320548 1  10210040x       Rx   d 8 00 00 00 00 00 00 00 00  Length = 4284562 BitCount = 147 ID = 270598208x
   5.330634 1  10220040x       Rx   d 8 10 00 00 00 00 04 00 00  Length = 4318223 BitCount = 148 ID = 270663744x
   5.333547 1  106B0040x       Rx   d 1 00  Length = 2308248 BitCount = 81 ID = 275447872x
   5.340566 1  1022E040x       Rx   d 8 20 00 00 00 20 00 00 00  Length = 4284573 BitCount = 147 ID = 270721088x
   5.345611 1  10780040x       Rx   d 8 00 00 01 04 08 00 00 22  Length = 4288208 BitCount = 147 ID = 276299840x
   5.349873 1  C800040x        Rx   d 6 08 CB 00 00 35 66  Length = 3598216 BitCount = 124 ID = 209715264x
   5.355486 1  10230040x       Rx   d 8 30 00 00 00 30 00 00 00  Length = 4258208 BitCount = 146 ID = 270729280x
   5.370431 1  10240040x       Rx   d 8 83 FE 88 01 01 09 0F FC  Length = 4168208 BitCount = 143 ID = 270794816x
   5.375177 1  10EC4040x       Rx   d 8 4C 41 5A 41 36 39 53 44  Length = 3958212 BitCount = 136 ID = 283918400x
   5.379680 1  102C0040x       Rx   d 5 AE EF 44 59 03  Length = 3298224 BitCount = 114 ID = 271319104x
   5.385145 1  10EC8040x       Rx   d 8 48 42 37 30 31 34 39 36  Length = 3898227 BitCount = 134 ID = 283934784x
   5.390428 1  102CA040x       Rx   d 8 00 40 0C CE 29 00 F1 00  Length = 4078212 BitCount = 140 ID = 271360064x
   5.400838 1  10304058x       Rx   d 3 44 59 01  Length = 2728236 BitCount = 95 ID = 271597656x
   5.407080 1  10306099x       Rx   d 3 44 59 01  Length = 2758251 BitCount = 96 ID = 271605913x
   5.411401 1  10264040x       Rx   d 8 04 06 00 00 00 00 00 3A  Length = 4198223 BitCount = 144 ID = 270942272x
   5.420643 1  10210040x       Rx   d 8 00 00 00 00 00 00 00 00  Length = 4288208 BitCount = 147 ID = 270598208x
   5.423558 1  10308060x       Rx   d 3 44 59 01  Length = 2788236 BitCount = 97 ID = 271614048x
   5.427971 1  1043A040x       Rx   d 8 00 00 33 00 00 00 00 00  Length = 4288208 BitCount = 147 ID = 272867392x
   5.435597 1  10220040x       Rx   d 8 10 00 00 00 00 03 00 00  Length = 4318208 BitCount = 148 ID = 270663744x
   5.440578 1  1022E040x       Rx   d 8 00 00 00 00 00 00 00 00  Length = 4318223 BitCount = 148 ID = 270721088x
   5.450513 1  10230040x       Rx   d 8 10 00 00 00 10 00 00 00  Length = 4258208 BitCount = 146 ID = 270729280x
   5.453576 1  106B0040x       Rx   d 1 00  Length = 2308248 BitCount = 81 ID = 275447872x
   5.470472 1  10240040x       Rx   d 8 83 FF 88 01 01 09 0F FC  Length = 4168208 BitCount = 143 ID = 270794816x
   5.475635 1  106B8040x       Rx   d 8 00 00 00 00 00 00 00 00  Length = 4318208 BitCount = 148 ID = 275480640x
   5.479345 CAN 1 Status:chip status error active  - TxErr: 0 RxErr: 1
   5.479352 1  ErrorFrame	Flags = 0xfffe	CodeExt = 0x2072	Code = 0x81	ID = 0x908e0080	DLC = 6	Position = 104	Length = 3444390	Data = 0xe  0x1  0x17  0x2  0x5  0x80
   5.483278 CAN 1 Status:chip status error active
   5.483495 1  108E0080x       Rx   d 6 0E 01 17 02 05 80  Length = 3628216 BitCount = 125 ID = 277741696x
   5.485688 1  13FFE040x       Rx   d 0  Length = 2068260 BitCount = 73 ID = 335536192x
   5.490460 1  102CA040x       Rx   d 8 00 40 0C D1 29 00 F1 00  Length = 4108212 BitCount = 141 ID = 271360064x
   5.510503 1  10264040x       Rx   d 8 04 06 00 00 00 00 00 3A  Length = 4194562 BitCount = 144 ID = 270942272x
   5.518004 1  13FFE080x       Rx   d 0  Length = 2064714 BitCount = 73 ID = 335536256x
   5.522412 1  10210040x       Rx   d 8 00 00 00 00 00 00 00 00  Length = 4284562 BitCount = 147 ID = 270598208x
   5.524637 1  13FFE060x       Rx   d 0  Length = 2098256 BitCount = 74 ID = 335536224x
   5.530610 1  10220040x       Rx   d 8 10 00 00 00 00 05 00 00  Length = 4288208 BitCount = 147 ID = 270663744x
   5.535471 1  1022A040x       Rx   d 8 00 B0 00 12 42 00 00 22  Length = 4138208 BitCount = 142 ID = 270704704x
   5.537665 1  13FFE099x       Rx   d 0  Length = 2068260 BitCount = 73 ID = 335536281x
   5.541477 1  1022C040x       Rx   d 6 00 10 00 20 00 00  Length = 3688231 BitCount = 127 ID = 270712896x
   5.550573 1  1022E040x       Rx   d 8 30 00 00 00 30 00 00 00  Length = 4288208 BitCount = 147 ID = 270721088x
   5.555556 1  10230040x       Rx   d 8 30 00 00 00 30 00 00 00  Length = 4258208 BitCount = 146 ID = 270729280x
   5.560447 1  102CC040x       Rx   d 8 00 09 CF 69 00 87 06 A6  Length = 4078212 BitCount = 140 ID = 271368256x
   5.565461 1  102CE040x       Rx   d 8 90 00 64 7F 00 00 26 A6  Length = 4108223 BitCount = 141 ID = 271376448x
   5.570504 1  10240040x       Rx   d 8 83 FF 88 01 01 09 0F FC  Length = 4168208 BitCount = 143 ID = 270794816x
   5.575395 1  102D0040x       Rx   d 8 01 69 01 ED 7C 8A 00 FF  Length = 4078227 BitCount = 140 ID = 271384640x
   5.578728 1  106B0040x       Rx   d 1 00  Length = 2308248 BitCount = 81 ID = 275447872x
   5.584729 1  10806040x       Rx   d 5 00 00 00 00 19  Length = 3418220 BitCount = 118 ID = 276848704x
   5.590491 1  102CA040x       Rx   d 8 00 40 0C BB 2A 00 F1 00  Length = 4078212 BitCount = 140 ID = 271360064x
   5.592713 1  13FFE058x       Rx   d 0  Length = 2098256 BitCount = 74 ID = 335536216x
   5.597126 1  10780040x       Rx   d 8 00 00 01 04 08 00 00 22  Length = 4288208 BitCount = 147 ID = 276299840x
   5.604954 1  C800040x        Rx   d 6 08 CB 00 00 35 68  Length = 3624586 BitCount = 125 ID = 209715264x
   5.610570 1  10264040x       Rx   d 8 04 06 00 00 00 00 00 26  Length = 4228208 BitCount = 145 ID = 270942272x
   5.612762 1  13FFE0AFx       Rx   d 0  Length = 2068260 BitCount = 73 ID = 335536303x
   5.616665 1  10788040x       Rx   d 6 08 00 00 00 00 00  Length = 3778216 BitCount = 130 ID = 276332608x
   5.625635 1  10210040x       Rx   d 8 00 00 00 00 00 00 00 00  Length = 4284562 BitCount = 147 ID = 270598208x
   5.630620 1  10220040x       Rx   d 8 10 00 00 00 00 05 00 00  Length = 4288208 BitCount = 147 ID = 270663744x
   5.640613 1  1022E040x       Rx   d 8 00 00 00 00 00 00 00 00  Length = 4318208 BitCount = 148 ID = 270721088x
   5.647931 1  10734099x       Rx   d 6 24 40 00 7D 00 00  Length = 3594590 BitCount = 124 ID = 275988633x
   5.652312 1  10230040x       Rx   d 8 10 00 00 00 10 00 00 00  Length = 4254562 BitCount = 146 ID = 270729280x
   5.660628 1  1043A040x       Rx   d 8 00 00 35 00 00 00 00 00  Length = 4288208 BitCount = 147 ID = 272867392x
   5.670532 1  10240040x       Rx   d 8 83 FF 88 01 01 09 0F FC  Length = 4168223 BitCount = 143 ID = 270794816x
   5.675662 1  106B8040x       Rx   d 8 00 00 00 00 00 00 00 00  Length = 4314558 BitCount = 148 ID = 275480640x
   5.679626 1  102C0040x       Rx   d 5 AE EF 44 59 03  Length = 3298239 BitCount = 114 ID = 271319104x
   5.690491 1  102CA040x       Rx   d 8 00 40 0C B0 29 00 F1 00  Length = 4108212 BitCount = 141 ID = 271360064x
   5.693614 1  106B0040x       Rx   d 1 00  Length = 2308248 BitCount = 81 ID = 275447872x
   5.700003 1  10308060x       Rx   d 3 44 59 01  Length = 2784638 BitCount = 97 ID = 271614048x
   5.702852 1  10304058x       Rx   d 3 44 59 01  Length = 2724642 BitCount = 95 ID = 271597656x
   5.707085 1  10306099x       Rx   d 3 44 59 01  Length = 2758236 BitCount = 96 ID = 271605913x
   5.711468 1  10264040x       Rx   d 8 04 06 00 00 00 00 00 38  Length = 4258208 BitCount = 146 ID = 270942272x
   5.720744 1  10210040x       Rx   d 8 00 00 00 00 00 00 00 00  Length = 4288208 BitCount = 147 ID = 270598208x
   5.723173 1  10244060x       Rx   d 1 02  Length = 2304686 BitCount = 81 ID = 270811232x
   5.730739 1  10220040x       Rx   d 8 10 00 00 00 00 06 00 00  Length = 4288208 BitCount = 147 ID = 270663744x
