date Tue May 17 08:22:28.188 pm 2016
base hex  timestamps absolute
internal events logged
// version 8.5.0
Begin Triggerblock Tue May 17 08:22:28.188 pm 2016
   0.000000 Start of measurement
   0.005538 1  C2F8040x        Rx   d 1 00  Length = 2278263 BitCount = 80 ID = 204439616x
   0.007967 1  103BC060x       Rx   d 1 00  Length = 2308248 BitCount = 81 ID = 272351328x
   0.010369 1  C2FA040x        Rx   d 1 00  Length = 2278252 BitCount = 80 ID = 204447808x
   0.012801 1  103D20BCx       Rx   d 1 00  Length = 2308263 BitCount = 81 ID = 272441532x
   0.015173 1  C630040x        Rx   d 1 80  Length = 2248252 BitCount = 79 ID = 207814720x
   0.017605 1  103D6060x       Rx   d 1 00  Length = 2308263 BitCount = 81 ID = 272457824x
   0.019977 1  C714040x        Rx   d 1 0F  Length = 2248252 BitCount = 79 ID = 208748608x
   0.022435 1  103DA060x       Rx   d 1 00  Length = 2334697 BitCount = 82 ID = 272474208x
   0.026847 1  10210040x       Rx   d 8 00 00 20 00 00 00 20 00  Length = 4284562 BitCount = 147 ID = 270598208x
   0.029251 1  1045C060x       Rx   d 1 00  Length = 2278252 BitCount = 80 ID = 273006688x
   0.031949 1  106D0080x       Rx   d 2 00 00  Length = 2574658 BitCount = 90 ID = 275579008x
   0.036389 1  10220040x       Rx   d 8 10 00 00 00 00 00 00 00  Length = 4314573 BitCount = 148 ID = 270663744x
   0.040533 1  1036A080x       Rx   d 7 01 00 00 00 00 00 00  Length = 4018212 BitCount = 138 ID = 272015488x
   0.043441 1  106D4099x       Rx   d 3 00 00 73  Length = 2784638 BitCount = 97 ID = 275595417x
   0.047849 1  1022A040x       Rx   d 8 00 B0 00 00 00 00 00 00  Length = 4284573 BitCount = 147 ID = 270704704x
   0.050251 1  10812060x       Rx   d 1 00  Length = 2274686 BitCount = 80 ID = 276897888x
   0.051634 CAN 1 Status:chip status error active
   0.051634 CAN 2 Status:chip status error active
   0.052626 1  1084A060x       Rx   d 1 00  Length = 2248252 BitCount = 79 ID = 277127264x
   0.056527 1  1022C040x       Rx   d 6 00 00 00 00 00 00  Length = 3778216 BitCount = 130 ID = 270712896x
   0.060907 1  10ACE060x       Rx   d 8 1E 00 00 00 00 00 00 00  Length = 4254577 BitCount = 146 ID = 279765088x
   0.065169 1  10AE8060x       Rx   d 8 03 0E 01 01 04 05 00 00  Length = 4134566 BitCount = 142 ID = 279871584x
   0.069609 1  1022E040x       Rx   d 8 00 00 00 00 00 00 00 00  Length = 4314558 BitCount = 148 ID = 270721088x
   0.073836 1  10AEC099x       Rx   d 8 08 44 04 40 20 00 00 2A  Length = 4100924 BitCount = 141 ID = 279888025x
   0.078216 1  10230040x       Rx   d 8 10 00 00 00 10 00 00 00  Length = 4254562 BitCount = 146 ID = 270729280x
   0.080441 1  13FFE060x       Rx   d 0  Length = 2098256 BitCount = 74 ID = 335536224x
   0.082633 1  13FFE068x       Rx   d 0  Length = 2068260 BitCount = 73 ID = 335536232x
   0.086985 1  10240040x       Rx   d 8 80 00 88 01 00 44 00 00  Length = 4228208 BitCount = 145 ID = 270794816x
   0.091333 1  10AE8060x       Rx   d 8 00 16 01 08 00 00 00 00  Length = 4224562 BitCount = 145 ID = 279871584x
   0.093765 1  10242040x       Rx   d 1 01  Length = 2304686 BitCount = 81 ID = 270803008x
   0.095960 1  13FFE080x       Rx   d 0  Length = 2068260 BitCount = 73 ID = 335536256x
   0.100039 1  10248040x       Rx   d 7 00 00 60 F8 F7 FD 00  Length = 3894574 BitCount = 134 ID = 270827584x
   0.105440 1  10210040x       Rx   d 8 00 00 20 00 00 00 20 00  Length = 4284562 BitCount = 147 ID = 270598208x
   0.110365 1  10264040x       Rx   d 8 04 0E 00 00 00 00 00 00  Length = 4228208 BitCount = 145 ID = 270942272x
   0.115464 1  10220040x       Rx   d 8 10 00 00 00 00 00 00 00  Length = 4314573 BitCount = 148 ID = 270663744x
   0.120389 1  102CA040x       Rx   d 8 00 00 00 00 4B 00 F1 00  Length = 4198208 BitCount = 144 ID = 271360064x
   0.125402 1  1022E040x       Rx   d 8 20 00 00 00 20 00 00 00  Length = 4288208 BitCount = 147 ID = 270721088x
   0.127831 1  103D20BCx       Rx   d 1 00  Length = 2308248 BitCount = 81 ID = 272441532x
   0.132182 1  10264040x       Rx   d 8 04 0E 00 00 00 00 00 00  Length = 4224562 BitCount = 145 ID = 270942272x
   0.140347 1  10230040x       Rx   d 8 30 00 00 00 30 00 00 00  Length = 4258208 BitCount = 146 ID = 270729280x
   0.143410 1  10242040x       Rx   d 1 01  Length = 2308248 BitCount = 81 ID = 270803008x
   0.150283 1  102CC040x       Rx   d 8 01 00 CF 00 00 51 06 8D  Length = 4108212 BitCount = 141 ID = 271368256x
   0.155382 1  10240040x       Rx   d 8 80 00 88 01 00 44 00 00  Length = 4224562 BitCount = 145 ID = 270794816x
   0.160337 1  102CE040x       Rx   d 8 40 00 32 00 00 00 06 C7  Length = 4168223 BitCount = 143 ID = 271376448x
   0.163215 1  10424060x       Rx   d 3 05 86 8B  Length = 2754642 BitCount = 96 ID = 272777312x
   0.166664 1  102C0040x       Rx   d 5 44 05 A9 84 03  Length = 3324602 BitCount = 115 ID = 271319104x
   0.171016 1  10ACE060x       Rx   d 8 2B 00 00 00 00 00 00 00  Length = 4224562 BitCount = 145 ID = 279765088x
   0.175492 1  102CA040x       Rx   d 8 00 00 00 00 4B 00 F1 00  Length = 4198208 BitCount = 144 ID = 271360064x
   0.178370 1  10304058x       Rx   d 3 A9 84 01  Length = 2754642 BitCount = 96 ID = 271597656x
   0.182691 1  102D0040x       Rx   d 8 01 00 01 00 48 00 00 FF  Length = 4194562 BitCount = 144 ID = 271384640x
   0.186918 1  10AEC099x       Rx   d 8 08 44 04 40 20 00 00 2A  Length = 4100939 BitCount = 141 ID = 279888025x
   0.191149 1  102E0040x       Rx   d 8 00 00 CA 00 89 00 5E 73  Length = 4104566 BitCount = 141 ID = 271450176x
   0.193999 1  10306099x       Rx   d 3 A9 84 01  Length = 2724642 BitCount = 95 ID = 271605913x
   0.198319 1  10AFC060x       Rx   d 8 38 FF FF FF FF FF FF 2B  Length = 4194562 BitCount = 144 ID = 279953504x
   0.202670 1  10264040x       Rx   d 8 04 0E 00 00 00 00 00 00  Length = 4224562 BitCount = 145 ID = 270942272x
   0.205615 1  10308060x       Rx   d 3 A9 84 01  Length = 2818232 BitCount = 98 ID = 271614048x
   0.215461 1  10210040x       Rx   d 8 00 00 20 00 00 00 20 00  Length = 4288208 BitCount = 147 ID = 270598208x
   0.220530 1  10220040x       Rx   d 8 10 00 00 00 0F FC 00 00  Length = 4344558 BitCount = 149 ID = 270663744x
   0.225455 1  1022E040x       Rx   d 8 00 00 00 00 00 00 00 00  Length = 4318208 BitCount = 148 ID = 270721088x
   0.228638 1  103A6040x       Rx   d 2 44 54  Length = 2518255 BitCount = 88 ID = 272261184x
   0.235447 1  10230040x       Rx   d 8 10 00 00 00 10 00 00 00  Length = 4254562 BitCount = 146 ID = 270729280x
   0.237881 1  103D20BCx       Rx   d 1 00  Length = 2308248 BitCount = 81 ID = 272441532x
   0.240281 1  103B4040x       Rx   d 1 04  Length = 2274686 BitCount = 80 ID = 272318528x
   0.244506 CAN 1 Status:chip status error active  - TxErr: 0 RxErr: 1
   0.244513 1  ErrorFrame	Flags = 0xfffe	CodeExt = 0x2072	Code = 0x81	ID = 0x903d4040	DLC = 6	Position = 104	Length = 3354375	Data = 0x24  0x24  0x40  0x3f  0x3d  0x46
   0.248348 CAN 1 Status:chip status error active
   0.248566 1  103D4040x       Rx   d 6 24 24 40 3F 3D 46  Length = 3538220 BitCount = 122 ID = 272449600x
   0.255499 1  1022A040x       Rx   d 8 00 B0 00 00 00 00 00 00  Length = 4288208 BitCount = 147 ID = 270704704x
   0.259908 1  1022C040x       Rx   d 6 00 00 00 00 00 00  Length = 3774582 BitCount = 130 ID = 270712896x
   0.265433 1  10240040x       Rx   d 8 83 FF 88 01 00 44 00 00  Length = 4258208 BitCount = 146 ID = 270794816x
   0.269842 1  103DC040x       Rx   d 6 05 85 00 00 00 00  Length = 3714582 BitCount = 128 ID = 272482368x
   0.275457 1  102CA040x       Rx   d 8 00 00 00 00 4B 00 F1 00  Length = 4198223 BitCount = 144 ID = 271360064x
   0.278490 1  10428040x       Rx   d 1 00  Length = 2308248 BitCount = 81 ID = 272793664x
   0.285393 1  102CC040x       Rx   d 8 01 00 CF 00 00 52 06 8D  Length = 4108212 BitCount = 141 ID = 271368256x
   0.289592 1  10466040x       Rx   d 5 00 00 00 00 00  Length = 3444598 BitCount = 119 ID = 273047616x
   0.293819 1  10AEC099x       Rx   d 8 08 44 04 40 20 00 00 2A  Length = 4100924 BitCount = 141 ID = 279888025x
   0.298169 1  10264040x       Rx   d 8 04 0E 00 00 00 00 00 00  Length = 4224562 BitCount = 145 ID = 270942272x
   0.305464 1  10210040x       Rx   d 8 00 00 20 00 00 00 20 00  Length = 4288208 BitCount = 147 ID = 270598208x
   0.308947 1  10308060x       Rx   d 3 A9 84 01  Length = 2818232 BitCount = 98 ID = 271614048x
   0.313236 1  102CE040x       Rx   d 8 40 00 32 00 00 00 06 C7  Length = 4164581 BitCount = 143 ID = 271376448x
   0.320471 1  10220040x       Rx   d 8 10 00 00 00 0F FD 00 00  Length = 4288208 BitCount = 147 ID = 270663744x
   0.325454 1  1022E040x       Rx   d 8 20 00 00 00 20 00 00 00  Length = 4288223 BitCount = 147 ID = 270721088x
   0.329627 1  1046A040x       Rx   d 5 00 00 00 00 00  Length = 3478220 BitCount = 120 ID = 273064000x
   0.335480 1  10230040x       Rx   d 8 30 00 00 00 30 00 00 00  Length = 4258223 BitCount = 146 ID = 270729280x
   0.338453 1  105A2040x       Rx   d 1 00  Length = 2308248 BitCount = 81 ID = 274341952x
   0.344512 1  1062C040x       Rx   d 5 00 00 CA 11 03  Length = 3354602 BitCount = 116 ID = 274907200x
   0.346944 1  103D20BCx       Rx   d 1 00  Length = 2304686 BitCount = 81 ID = 272441532x
   0.349679 1  10632040x       Rx   d 2 00 00  Length = 2608240 BitCount = 91 ID = 274931776x
   0.355412 1  10240040x       Rx   d 8 80 00 88 01 00 44 00 00  Length = 4228208 BitCount = 145 ID = 270794816x
   0.358835 1  10424060x       Rx   d 3 04 86 8B  Length = 2758236 BitCount = 96 ID = 272777312x
   0.361718 1  10644040x       Rx   d 3 02 F6 F6  Length = 2758236 BitCount = 96 ID = 275005504x
   0.368441 1  10646040x       Rx   d 1 20  Length = 2278263 BitCount = 80 ID = 275013696x
   0.375460 1  102CA040x       Rx   d 8 00 00 00 00 4B 00 F1 00  Length = 4194577 BitCount = 144 ID = 271360064x
   0.378705 1  1064A040x       Rx   d 2 28 2D  Length = 2518240 BitCount = 88 ID = 275030080x
   0.383478 1  106B0040x       Rx   d 1 02  Length = 2278252 BitCount = 80 ID = 275447872x
   0.390497 1  106B8040x       Rx   d 8 00 00 00 00 00 00 00 00  Length = 4314573 BitCount = 148 ID = 275480640x
   0.394248 1  10734099x       Rx   d 6 10 00 00 7D 00 00  Length = 3624586 BitCount = 125 ID = 275988633x
   0.398597 1  10264040x       Rx   d 8 04 0E 00 00 00 00 00 00  Length = 4224562 BitCount = 145 ID = 270942272x
   0.405498 1  10210040x       Rx   d 8 00 00 20 00 00 00 20 00  Length = 4284573 BitCount = 147 ID = 270598208x
   0.410513 1  106B8040x       Rx   d 8 00 00 00 00 00 00 00 00  Length = 4318208 BitCount = 148 ID = 275480640x
   0.415466 1  10220040x       Rx   d 8 10 00 00 00 0F FB 00 00  Length = 4258208 BitCount = 146 ID = 270663744x
   0.418944 1  10308060x       Rx   d 3 A9 84 01  Length = 2814638 BitCount = 98 ID = 271614048x
   0.422394 1  106C0040x       Rx   d 5 00 03 D1 C6 00  Length = 3324602 BitCount = 115 ID = 275513408x
   0.425572 1  10AC0099x       Rx   d 4 00 00 07 00  Length = 3051012 BitCount = 106 ID = 279707801x
   0.429829 1  10ACA099x       Rx   d 8 2A 21 20 00 00 00 00 00  Length = 4130920 BitCount = 142 ID = 279748761x
   0.434269 1  1022E040x       Rx   d 8 00 00 00 00 00 00 00 00  Length = 4314558 BitCount = 148 ID = 270721088x
   0.438500 1  10AEC099x       Rx   d 8 08 44 04 40 20 00 00 2A  Length = 4104581 BitCount = 141 ID = 279888025x
   0.442883 1  10230040x       Rx   d 8 10 00 00 00 10 00 00 00  Length = 4258208 BitCount = 146 ID = 270729280x
   0.448436 1  10728040x       Rx   d 1 00  Length = 2278252 BitCount = 80 ID = 275939392x
   0.455399 1  10240040x       Rx   d 8 83 FF 88 01 00 44 0F FC  Length = 4198208 BitCount = 144 ID = 270794816x
   0.457831 1  103D20BCx       Rx   d 1 00  Length = 2308248 BitCount = 81 ID = 272441532x
   0.461309 1  1062C040x       Rx   d 5 00 00 CA 11 03  Length = 3354602 BitCount = 116 ID = 274907200x
   0.469504 1  102C0040x       Rx   d 5 44 05 A9 84 03  Length = 3328224 BitCount = 115 ID = 271319104x
   0.475507 1  102CA040x       Rx   d 8 00 00 00 00 4B 00 F1 00  Length = 4198208 BitCount = 144 ID = 271360064x
   0.478956 1  10644040x       Rx   d 3 02 F6 F6  Length = 2754642 BitCount = 96 ID = 275005504x
   0.484087 1  10754040x       Rx   d 3 04 40 00  Length = 2844634 BitCount = 99 ID = 276119616x
   0.486968 1  10304058x       Rx   d 3 A9 84 01  Length = 2754642 BitCount = 96 ID = 271597656x
   0.489940 1  10758040x       Rx   d 3 00 00 00  Length = 2848232 BitCount = 99 ID = 276136000x
   0.492789 1  10306099x       Rx   d 3 A9 84 01  Length = 2724657 BitCount = 95 ID = 271605913x
   0.497140 1  10264040x       Rx   d 8 04 0E 00 00 00 00 00 00  Length = 4224562 BitCount = 145 ID = 270942272x
   0.505515 1  10210040x       Rx   d 8 00 00 20 00 00 00 20 00  Length = 4288208 BitCount = 147 ID = 270598208x
   0.510528 1  1022A040x       Rx   d 8 00 B0 00 00 00 00 00 00  Length = 4288208 BitCount = 147 ID = 270704704x
   0.515567 1  10220040x       Rx   d 8 10 00 00 00 0F FC 00 00  Length = 4344558 BitCount = 149 ID = 270663744x
   0.519978 1  1022C040x       Rx   d 6 00 00 00 00 00 00  Length = 3774593 BitCount = 130 ID = 270712896x
   0.525503 1  1022E040x       Rx   d 8 20 00 00 00 20 00 00 00  Length = 4288223 BitCount = 147 ID = 270721088x
   0.528896 1  10308060x       Rx   d 3 A9 84 01  Length = 2818232 BitCount = 98 ID = 271614048x
   0.532918 1  10248040x       Rx   d 7 00 00 60 F8 F7 FD 00  Length = 3898212 BitCount = 134 ID = 270827584x
   0.540452 1  10230040x       Rx   d 8 30 00 00 00 30 00 00 00  Length = 4258208 BitCount = 146 ID = 270729280x
   0.544736 1  10ACA099x       Rx   d 8 07 E0 0A 00 00 00 00 00  Length = 4160920 BitCount = 143 ID = 279748761x
   0.547465 1  10250040x       Rx   d 2 00 00  Length = 2604669 BitCount = 91 ID = 270860352x
   0.555510 1  10240040x       Rx   d 8 83 FF 88 01 00 44 00 00  Length = 4258208 BitCount = 146 ID = 270794816x
   0.560370 1  102CC040x       Rx   d 8 01 00 CF 00 00 52 06 8D  Length = 4104566 BitCount = 141 ID = 271368256x
   0.565471 1  102CE040x       Rx   d 8 40 00 32 00 00 00 06 C6  Length = 4194577 BitCount = 144 ID = 271376448x
   0.567903 1  103D20BCx       Rx   d 1 00  Length = 2308248 BitCount = 81 ID = 272441532x
   0.572222 1  102D0040x       Rx   d 8 01 00 01 00 48 00 00 FF  Length = 4194562 BitCount = 144 ID = 271384640x
   0.580507 1  102CA040x       Rx   d 8 00 00 00 00 4B 00 F1 00  Length = 4198208 BitCount = 144 ID = 271360064x
   0.585430 1  102E0040x       Rx   d 8 00 00 CA 00 89 00 5E 73  Length = 4108212 BitCount = 141 ID = 271450176x
   0.589693 1  62C             Rx   d 8 00 40 00 00 00 00 00 00  Length = 3628231 BitCount = 125 ID = 1580
   0.593112 1  10400060x       Rx   d 5 86 28 04 FF 88  Length = 3294606 BitCount = 114 ID = 272629856x
   0.597553 1  106B8040x       Rx   d 8 00 00 00 00 00 00 00 00  Length = 4314558 BitCount = 148 ID = 275480640x
   0.599742 1  13FFE099x       Rx   d 0  Length = 2064714 BitCount = 73 ID = 335536281x
   0.601935 1  13FFE0AFx       Rx   d 0  Length = 2068275 BitCount = 73 ID = 335536303x
   0.606342 1  10210040x       Rx   d 8 00 00 20 00 00 00 20 00  Length = 4284573 BitCount = 147 ID = 270598208x
   0.615588 1  10220040x       Rx   d 8 10 00 00 00 0F FC 00 00  Length = 4348208 BitCount = 149 ID = 270663744x
   0.620481 1  10264040x       Rx   d 8 04 0E 00 00 00 00 00 00  Length = 4228223 BitCount = 145 ID = 270942272x
   0.625584 1  1022E040x       Rx   d 8 00 00 00 00 00 00 00 00  Length = 4318208 BitCount = 148 ID = 270721088x
   0.629577 1  106C0040x       Rx   d 5 00 03 D1 C6 00  Length = 3328224 BitCount = 115 ID = 275513408x
   0.635636 1  10230040x       Rx   d 8 10 00 00 00 10 00 00 00  Length = 4254562 BitCount = 146 ID = 270729280x
   0.637861 1  13FFE058x       Rx   d 0  Length = 2098256 BitCount = 74 ID = 335536216x
   0.640803 1  10308060x       Rx   d 3 A9 84 01  Length = 2818232 BitCount = 98 ID = 271614048x
   0.643776 1  10754040x       Rx   d 3 04 40 00  Length = 2848232 BitCount = 99 ID = 276119616x
   0.649355 1  1077C040x       Rx   d 4 30 30 01 F4  Length = 3144614 BitCount = 109 ID = 276283456x
   0.655476 1  10240040x       Rx   d 8 80 00 88 01 00 44 00 00  Length = 4224577 BitCount = 145 ID = 270794816x
   0.660637 1  10780040x       Rx   d 8 00 00 01 00 08 00 00 00  Length = 4314573 BitCount = 148 ID = 276299840x
   0.664361 1  1077C040x       Rx   d 4 30 30 01 F4  Length = 3148224 BitCount = 109 ID = 276283456x
   0.666555 1  13FFE0BCx       Rx   d 0  Length = 2068275 BitCount = 73 ID = 335536316x
   0.670453 1  10788040x       Rx   d 6 08 00 00 00 00 00  Length = 3774582 BitCount = 130 ID = 276332608x
   0.672617 1  13FFE0BBx       Rx   d 0  Length = 2038260 BitCount = 72 ID = 335536315x
   0.676938 1  102CA040x       Rx   d 8 00 00 00 00 4B 00 F1 00  Length = 4198208 BitCount = 144 ID = 271360064x
   0.679368 1  103D20BCx       Rx   d 1 00  Length = 2304686 BitCount = 81 ID = 272441532x
   0.685703 1  10780040x       Rx   d 8 00 00 01 00 08 00 00 00  Length = 4318208 BitCount = 148 ID = 276299840x
   0.690023 1  10788040x       Rx   d 6 08 00 00 00 00 00  Length = 3774582 BitCount = 130 ID = 276332608x
   0.695489 1  10264040x       Rx   d 8 04 0E 00 00 00 00 00 00  Length = 4228208 BitCount = 145 ID = 270942272x
   0.699958 1  10800040x       Rx   d 6 02 EC 00 00 00 00  Length = 3684586 BitCount = 127 ID = 276824128x
   0.705543 1  10210040x       Rx   d 8 00 00 20 00 00 00 20 00  Length = 4288223 BitCount = 147 ID = 270598208x
   0.709686 1  10806040x       Rx   d 5 00 00 00 00 19  Length = 3418220 BitCount = 118 ID = 276848704x
   0.715599 1  10220040x       Rx   d 8 10 00 00 00 0F FC 00 00  Length = 4348208 BitCount = 149 ID = 270663744x
   0.719761 CAN 1 Status:chip status error active  - TxErr: 0 RxErr: 1
   0.719768 1  ErrorFrame	Flags = 0xfffe	CodeExt = 0x2072	Code = 0x81	ID = 0x90800040	DLC = 6	Position = 104	Length = 3504390	Data = 0x2  0xec  0  0  0  0
   0.723751 CAN 1 Status:chip status error active
   0.723969 1  10800040x       Rx   d 6 02 EC 00 00 00 00  Length = 3684586 BitCount = 127 ID = 276824128x
   0.730576 1  1022E040x       Rx   d 8 20 00 00 00 20 00 00 00  Length = 4288208 BitCount = 147 ID = 270721088x
   0.735495 1  10230040x       Rx   d 8 30 00 00 00 30 00 00 00  Length = 4254562 BitCount = 146 ID = 270729280x
   0.739670 1  10806040x       Rx   d 5 00 00 00 00 19  Length = 3418220 BitCount = 118 ID = 276848704x
   0.745579 1  10ACA040x       Rx   d 8 28 D0 00 00 00 00 00 00  Length = 4194562 BitCount = 144 ID = 279748672x
   0.748822 1  10308060x       Rx   d 3 A9 84 01  Length = 2814649 BitCount = 98 ID = 271614048x
   0.753053 1  10AEC040x       Rx   d 8 09 04 92 38 00 7F FF 28  Length = 4104566 BitCount = 141 ID = 279887936x
   0.760588 1  1022A040x       Rx   d 8 00 B0 00 00 00 00 00 00  Length = 4288223 BitCount = 147 ID = 270704704x
   0.765027 1  1022C040x       Rx   d 6 00 00 00 00 00 00  Length = 3774582 BitCount = 130 ID = 270712896x
   0.770462 1  10240040x       Rx   d 8 80 00 88 01 00 44 0F FC  Length = 4198208 BitCount = 144 ID = 270794816x
   0.774604 1  102C0040x       Rx   d 5 44 05 A9 84 03  Length = 3328224 BitCount = 115 ID = 271319104x
   0.780548 1  102CA040x       Rx   d 8 00 00 00 00 4B 00 F1 00  Length = 4198208 BitCount = 144 ID = 271360064x
   0.785470 1  102CC040x       Rx   d 8 01 00 CF 00 00 53 06 8D  Length = 4138208 BitCount = 142 ID = 271368256x
   0.788348 1  10304058x       Rx   d 3 A9 84 01  Length = 2754642 BitCount = 96 ID = 271597656x
   0.791196 1  10306099x       Rx   d 3 A9 84 01  Length = 2724642 BitCount = 95 ID = 271605913x
   0.793629 1  103D20BCx       Rx   d 1 00  Length = 2308248 BitCount = 81 ID = 272441532x
   0.798069 1  106B8040x       Rx   d 8 00 00 00 00 00 00 00 00  Length = 4314558 BitCount = 148 ID = 275480640x
   0.805574 1  10210040x       Rx   d 8 00 00 20 00 00 00 20 00  Length = 4288208 BitCount = 147 ID = 270598208x
   0.810494 1  10264040x       Rx   d 8 04 0E 00 00 00 00 00 00  Length = 4224562 BitCount = 145 ID = 270942272x
   0.815628 1  10220040x       Rx   d 8 10 00 00 00 0F FC 00 00  Length = 4348223 BitCount = 149 ID = 270663744x
   0.820521 1  102CE040x       Rx   d 8 40 00 32 00 00 00 06 C6  Length = 4198208 BitCount = 144 ID = 271376448x
   0.825590 1  1022E040x       Rx   d 8 00 00 00 00 00 00 00 00  Length = 4314573 BitCount = 148 ID = 270721088x
   0.830665 1  10780040x       Rx   d 8 00 00 01 00 08 00 00 00  Length = 4318223 BitCount = 148 ID = 276299840x
   0.835498 1  10230040x       Rx   d 8 10 00 00 00 10 00 00 00  Length = 4258208 BitCount = 146 ID = 270729280x
   0.839971 1  10800040x       Rx   d 6 02 EC 00 00 00 00  Length = 3688231 BitCount = 127 ID = 276824128x
   0.845164 1  10EC4040x       Rx   d 8 4C 59 44 43 34 38 37 44  Length = 3928227 BitCount = 135 ID = 283918400x
   0.850147 1  10EC8040x       Rx   d 8 47 43 35 32 38 34 33 33  Length = 3898212 BitCount = 134 ID = 283934784x
   0.855490 1  10240040x       Rx   d 8 80 00 88 01 00 44 0F FC  Length = 4198208 BitCount = 144 ID = 270794816x
   0.858823 1  10308060x       Rx   d 3 A9 84 01  Length = 2818247 BitCount = 98 ID = 271614048x
   0.863082 1  10ACA040x       Rx   d 8 2C 8D DC 00 00 00 00 00  Length = 4134566 BitCount = 142 ID = 279748672x
   0.870347 1  10AEC040x       Rx   d 8 0A 09 1E 49 04 9F FF 2C  Length = 4048212 BitCount = 139 ID = 279887936x
   0.875600 1  102CA040x       Rx   d 8 00 00 00 00 4B 00 F1 00  Length = 4198223 BitCount = 144 ID = 271360064x
   0.880193 1  10EC4040x       Rx   d 8 4C 59 44 43 34 38 37 44  Length = 3928212 BitCount = 135 ID = 283918400x
   0.885176 1  10EC8040x       Rx   d 8 47 43 35 32 38 34 33 33  Length = 3898212 BitCount = 134 ID = 283934784x
   0.888299 1  13FFE040x       Rx   d 0  Length = 2068260 BitCount = 73 ID = 335536192x
   0.892048 1  10734099x       Rx   d 6 10 00 00 7D 00 00  Length = 3624586 BitCount = 125 ID = 275988633x
   0.896400 1  10264040x       Rx   d 8 04 0E 00 00 00 00 00 00  Length = 4228208 BitCount = 145 ID = 270942272x
   0.905584 1  10210040x       Rx   d 8 00 00 20 00 00 00 20 00  Length = 4288223 BitCount = 147 ID = 270598208x
   0.908014 1  103D20BCx       Rx   d 1 00  Length = 2308248 BitCount = 81 ID = 272441532x
   0.910207 1  13FFE040x       Rx   d 0  Length = 2068260 BitCount = 73 ID = 335536192x
   0.915546 1  10220040x       Rx   d 8 10 00 00 00 0F FB 00 00  Length = 4254562 BitCount = 146 ID = 270663744x
   0.919837 1  621             Rx   d 8 00 52 00 00 00 00 00 00  Length = 3594590 BitCount = 124 ID = 1569
   0.925541 1  1022E040x       Rx   d 8 20 00 00 00 20 00 00 00  Length = 4288208 BitCount = 147 ID = 270721088x
   0.930368 1  631             Rx   d 8 01 10 00 00 00 00 00 00  Length = 3564590 BitCount = 123 ID = 1585
   0.933576 1  10814099x       Rx   d 4 00 00 00 00  Length = 3084618 BitCount = 107 ID = 276906137x
   0.937956 1  10230040x       Rx   d 8 30 00 00 00 30 00 00 00  Length = 4254562 BitCount = 146 ID = 270729280x
   0.940151 1  13FFE099x       Rx   d 0  Length = 2068260 BitCount = 73 ID = 335536281x
   0.943929 1  624             Rx   d 8 01 10 00 00 00 00 00 00  Length = 3654586 BitCount = 126 ID = 1572
   0.946303 1  C630040x        Rx   d 1 80  Length = 2248252 BitCount = 79 ID = 207814720x
   0.948492 1  13FFE080x       Rx   d 0  Length = 2064714 BitCount = 73 ID = 335536256x
   0.952215 1  62C             Rx   d 8 01 12 00 00 00 00 00 00  Length = 3594590 BitCount = 124 ID = 1580
   0.956593 1  10240040x       Rx   d 8 83 FF 88 01 00 44 00 00  Length = 4254562 BitCount = 146 ID = 270794816x
   0.959024 1  10244060x       Rx   d 1 00  Length = 2304686 BitCount = 81 ID = 270811232x
   0.962686 1  102C6060x       Rx   d 6 00 33 0E 00 45 CA  Length = 3534590 BitCount = 122 ID = 271343712x
   0.968596 1  10242040x       Rx   d 1 01  Length = 2304686 BitCount = 81 ID = 270803008x
   0.971028 1  103BC060x       Rx   d 1 00  Length = 2304686 BitCount = 81 ID = 272351328x
   0.973973 1  10308060x       Rx   d 3 A9 84 01  Length = 2818232 BitCount = 98 ID = 271614048x
   0.978292 1  102CA040x       Rx   d 8 00 00 00 00 4B 00 F1 00  Length = 4194562 BitCount = 144 ID = 271360064x
   0.980723 1  103D6060x       Rx   d 1 00  Length = 2304697 BitCount = 81 ID = 272457824x
   0.983184 1  103DA060x       Rx   d 1 00  Length = 2334682 BitCount = 82 ID = 272474208x
   0.986066 1  10424060x       Rx   d 3 04 86 8B  Length = 2754657 BitCount = 96 ID = 272777312x
   0.988466 1  1045C060x       Rx   d 1 00  Length = 2274701 BitCount = 80 ID = 273006688x
   0.992906 1  106B8040x       Rx   d 8 00 00 00 00 00 00 00 00  Length = 4314573 BitCount = 148 ID = 275480640x
   0.995308 1  10812060x       Rx   d 1 00  Length = 2274686 BitCount = 80 ID = 276897888x
   0.997679 1  1084A060x       Rx   d 1 00  Length = 2244690 BitCount = 79 ID = 277127264x
   1.001634 1  Statistic: D 5 R 0 XD 224 XR 0 E 2 O 0 B 84.36%
   1.001634 2  Statistic: D 0 R 0 XD 0 XR 0 E 0 O 0 B 0.00%
   1.002030 1  10264040x       Rx   d 8 04 0E 00 00 00 00 00 00  Length = 4224562 BitCount = 145 ID = 270942272x
   1.006412 1  10ACE060x       Rx   d 8 1E 00 00 00 00 00 00 00  Length = 4254562 BitCount = 146 ID = 279765088x
   1.010822 1  10210040x       Rx   d 8 00 00 20 00 00 00 20 00  Length = 4284562 BitCount = 147 ID = 270598208x
   1.015083 1  10AE8060x       Rx   d 8 03 0E 01 01 04 05 00 00  Length = 4134566 BitCount = 142 ID = 279871584x
   1.019466 1  10220040x       Rx   d 8 10 00 00 00 0F FB 00 00  Length = 4258208 BitCount = 146 ID = 270663744x
   1.021895 1  103D20BCx       Rx   d 1 00  Length = 2304686 BitCount = 81 ID = 272441532x
   1.026310 1  1022A040x       Rx   d 8 00 B0 00 00 00 00 00 00  Length = 4288208 BitCount = 147 ID = 270704704x
   1.028529 1  13FFE060x       Rx   d 0  Length = 2094710 BitCount = 74 ID = 335536224x
   1.035134 1  1022C040x       Rx   d 6 00 00 00 00 00 00  Length = 3778216 BitCount = 130 ID = 270712896x
   1.040143 1  10AE8060x       Rx   d 8 03 0E 01 01 04 05 00 00  Length = 4134566 BitCount = 142 ID = 279871584x
   1.044524 1  1022E040x       Rx   d 8 10 00 00 00 10 00 00 00  Length = 4254562 BitCount = 146 ID = 270721088x
   1.047731 1  10814099x       Rx   d 4 00 00 00 00  Length = 3081008 BitCount = 107 ID = 276906137x
   1.052112 1  10230040x       Rx   d 8 20 00 00 00 20 00 00 00  Length = 4254562 BitCount = 146 ID = 270729280x
   1.060577 1  10240040x       Rx   d 8 83 FF 88 01 00 44 00 00  Length = 4258208 BitCount = 146 ID = 270794816x
   1.063520 1  C630040x        Rx   d 1 80  Length = 2248252 BitCount = 79 ID = 207814720x
   1.068348 1  10244060x       Rx   d 1 00  Length = 2304686 BitCount = 81 ID = 270811232x
   1.070781 1  10242040x       Rx   d 1 01  Length = 2308248 BitCount = 81 ID = 270803008x
   1.075129 1  10AE8060x       Rx   d 8 00 16 01 08 00 00 00 00  Length = 4224562 BitCount = 145 ID = 279871584x
   1.079211 1  10248040x       Rx   d 7 00 00 60 F7 F7 FC 00  Length = 3954574 BitCount = 136 ID = 270827584x
   1.082157 1  10308060x       Rx   d 3 A9 84 01  Length = 2818232 BitCount = 98 ID = 271614048x
   1.085606 1  102C0040x       Rx   d 5 44 05 A9 84 03  Length = 3324602 BitCount = 115 ID = 271319104x
   1.088038 1  103BC060x       Rx   d 1 00  Length = 2304686 BitCount = 81 ID = 272351328x
   1.092360 1  102CA040x       Rx   d 8 00 00 00 00 4B 00 F1 00  Length = 4194562 BitCount = 144 ID = 271360064x
   1.095869 1  10304058x       Rx   d 3 A9 84 01  Length = 2754657 BitCount = 96 ID = 271597656x
   1.098420 1  1045C060x       Rx   d 1 00  Length = 2274686 BitCount = 80 ID = 273006688x
   1.102771 1  10264040x       Rx   d 8 04 0E 00 00 00 00 00 00  Length = 4224562 BitCount = 145 ID = 270942272x
   1.110633 1  10210040x       Rx   d 8 00 00 20 00 00 00 20 00  Length = 4284562 BitCount = 147 ID = 270598208x
   1.115584 1  10220040x       Rx   d 8 10 00 00 00 0F FB 00 00  Length = 4254562 BitCount = 146 ID = 270663744x
   1.120266 1  10ACE060x       Rx   d 8 1E 00 00 00 00 00 00 00  Length = 4254562 BitCount = 146 ID = 279765088x
   1.124526 1  102CC040x       Rx   d 8 01 00 CF 00 00 54 06 8D  Length = 4134566 BitCount = 142 ID = 271368256x
   1.126958 1  103D20BCx       Rx   d 1 00  Length = 2308248 BitCount = 81 ID = 272441532x
   1.131367 1  1022E040x       Rx   d 8 20 00 00 00 20 00 00 00  Length = 4284562 BitCount = 147 ID = 270721088x
   1.140552 1  10230040x       Rx   d 8 30 00 00 00 30 00 00 00  Length = 4258208 BitCount = 146 ID = 270729280x
   1.143400 1  10306099x       Rx   d 3 A9 84 01  Length = 2724657 BitCount = 95 ID = 271605913x
   1.147722 1  102CE040x       Rx   d 8 40 00 32 00 00 00 06 C6  Length = 4198208 BitCount = 144 ID = 271376448x
   1.155582 1  10240040x       Rx   d 8 80 00 88 01 00 44 00 00  Length = 4224577 BitCount = 145 ID = 270794816x
   1.160535 1  102D0040x       Rx   d 8 01 00 01 00 48 00 00 FF  Length = 4194577 BitCount = 144 ID = 271384640x
   1.165669 1  106B8040x       Rx   d 8 00 00 00 00 00 00 00 00  Length = 4318208 BitCount = 148 ID = 275480640x
   1.169182 1  10754040x       Rx   d 3 04 40 00  Length = 2848232 BitCount = 99 ID = 276119616x
   1.175602 1  102CA040x       Rx   d 8 00 00 00 00 4B 00 F1 00  Length = 4194562 BitCount = 144 ID = 271360064x
   1.180823 1  10780040x       Rx   d 8 00 00 01 00 08 00 00 00  Length = 4314573 BitCount = 148 ID = 276299840x
   1.185143 1  10788040x       Rx   d 6 08 00 00 00 00 00  Length = 3774582 BitCount = 130 ID = 276332608x
   1.188868 1  10308060x       Rx   d 3 A9 84 01  Length = 2818232 BitCount = 98 ID = 271614048x
   1.191571 1  106D0080x       Rx   d 2 00 00  Length = 2578240 BitCount = 90 ID = 275579008x
   1.195383 1  10800040x       Rx   d 6 02 EC 00 00 00 00  Length = 3688216 BitCount = 127 ID = 276824128x
   1.200572 1  10264040x       Rx   d 8 04 0E 00 00 00 00 00 00  Length = 4224562 BitCount = 145 ID = 270942272x
   1.202974 1  13FFE068x       Rx   d 0  Length = 2064714 BitCount = 73 ID = 335536232x
   1.207386 1  10210040x       Rx   d 8 00 00 20 00 00 00 20 00  Length = 4284562 BitCount = 147 ID = 270598208x
   1.215611 1  10220040x       Rx   d 8 10 00 00 00 0F FB 00 00  Length = 4258208 BitCount = 146 ID = 270663744x
   1.219754 1  10806040x       Rx   d 5 00 00 00 00 19  Length = 3418220 BitCount = 118 ID = 276848704x
   1.225663 1  1022E040x       Rx   d 8 00 00 00 00 00 00 00 00  Length = 4314558 BitCount = 148 ID = 270721088x
   1.230224 1  10ACE060x       Rx   d 8 2B 00 00 00 00 00 00 00  Length = 4224562 BitCount = 145 ID = 279765088x
   1.234545 1  10ACA040x       Rx   d 8 28 D0 00 00 00 00 00 00  Length = 4194562 BitCount = 144 ID = 279748672x
   1.236978 1  103D20BCx       Rx   d 1 00  Length = 2308248 BitCount = 81 ID = 272441532x
   1.241356 1  10230040x       Rx   d 8 10 00 00 00 10 00 00 00  Length = 4254577 BitCount = 146 ID = 270729280x
   1.250208 1  10AFC060x       Rx   d 8 38 FF FF FF FF FF FF 2B  Length = 4194577 BitCount = 144 ID = 279953504x
   1.254439 1  10AEC040x       Rx   d 8 09 04 92 38 00 7F FF 28  Length = 4104581 BitCount = 141 ID = 279887936x
   1.260684 1  1022A040x       Rx   d 8 00 B0 00 00 00 00 00 00  Length = 4288208 BitCount = 147 ID = 270704704x
   1.265127 1  1022C040x       Rx   d 6 00 00 00 00 00 00  Length = 3778216 BitCount = 130 ID = 270712896x
   1.270589 1  10240040x       Rx   d 8 80 00 88 01 00 44 0F FC  Length = 4198208 BitCount = 144 ID = 270794816x
   1.275633 1  102CA040x       Rx   d 8 00 00 00 00 4B 00 F1 00  Length = 4198208 BitCount = 144 ID = 271360064x
   1.278392 1  13FFE040x       Rx   d 0  Length = 2064714 BitCount = 73 ID = 335536192x
   1.285536 1  102CC040x       Rx   d 8 01 00 CF 00 00 54 06 8D  Length = 4138208 BitCount = 142 ID = 271368256x
   1.289196 1  10754040x       Rx   d 3 04 40 00  Length = 2844634 BitCount = 99 ID = 276119616x
   1.295620 1  10264040x       Rx   d 8 04 0E 00 00 00 00 00 00  Length = 4228223 BitCount = 145 ID = 270942272x
   1.298803 1  10308060x       Rx   d 3 A9 84 01  Length = 2818247 BitCount = 98 ID = 271614048x
   1.303126 1  102CE040x       Rx   d 8 40 00 32 00 00 00 06 C6  Length = 4198208 BitCount = 144 ID = 271376448x
   1.310659 1  10210040x       Rx   d 8 00 00 20 00 00 00 20 00  Length = 4288223 BitCount = 147 ID = 270598208x
   1.315759 1  10220040x       Rx   d 8 10 00 00 00 0F FC 00 00  Length = 4344558 BitCount = 149 ID = 270663744x
   1.325604 1  1022E040x       Rx   d 8 20 00 00 00 20 00 00 00  Length = 4288223 BitCount = 147 ID = 270721088x
   1.330853 1  10780040x       Rx   d 8 00 00 01 00 08 00 00 00  Length = 4314573 BitCount = 148 ID = 276299840x
   1.335600 1  10230040x       Rx   d 8 30 00 00 00 30 00 00 00  Length = 4258208 BitCount = 146 ID = 270729280x
   1.340069 1  10800040x       Rx   d 6 02 EC 00 00 00 00  Length = 3684586 BitCount = 127 ID = 276824128x
   1.344633 1  103D20BCx       Rx   d 1 00  Length = 2308248 BitCount = 81 ID = 272441532x
   1.355618 1  10240040x       Rx   d 8 80 00 88 01 00 44 00 00  Length = 4228208 BitCount = 145 ID = 270794816x
   1.360691 1  106B8040x       Rx   d 8 00 00 00 00 00 00 00 00  Length = 4318208 BitCount = 148 ID = 275480640x
   1.364654 1  102C0040x       Rx   d 5 44 05 A9 84 03  Length = 3328235 BitCount = 115 ID = 271319104x
   1.375668 1  102CA040x       Rx   d 8 00 00 00 00 4B 00 F1 00  Length = 4198208 BitCount = 144 ID = 271360064x
   1.378546 1  10304058x       Rx   d 3 A9 84 01  Length = 2754642 BitCount = 96 ID = 271597656x
   1.389274 1  10306099x       Rx   d 3 A9 84 01  Length = 2721052 BitCount = 95 ID = 271605913x
   1.393026 1  10734099x       Rx   d 6 10 00 00 7D 00 00  Length = 3624601 BitCount = 125 ID = 275988633x
   1.397374 1  10264040x       Rx   d 8 04 0E 00 00 00 00 00 00  Length = 4224577 BitCount = 145 ID = 270942272x
   1.405690 1  10210040x       Rx   d 8 00 00 20 00 00 00 20 00  Length = 4288223 BitCount = 147 ID = 270598208x
   1.408813 1  10308060x       Rx   d 3 A9 84 01  Length = 2818232 BitCount = 98 ID = 271614048x
   1.415625 1  10220040x       Rx   d 8 10 00 00 00 0F FB 00 00  Length = 4258208 BitCount = 146 ID = 270663744x
   1.425679 1  1022E040x       Rx   d 8 00 00 00 00 00 00 00 00  Length = 4318208 BitCount = 148 ID = 270721088x
   1.431766 1  10324058x       Rx   d 6 00 00 07 EF 00 00  Length = 3684586 BitCount = 127 ID = 271728728x
   1.436149 1  10230040x       Rx   d 8 10 00 00 00 10 00 00 00  Length = 4258208 BitCount = 146 ID = 270729280x
   1.455591 1  10240040x       Rx   d 8 80 00 88 01 00 46 0F FC  Length = 4194562 BitCount = 144 ID = 270794816x
   1.458024 1  103D20BCx       Rx   d 1 00  Length = 2308248 BitCount = 81 ID = 272441532x
   1.475635 1  102CA040x       Rx   d 8 00 00 00 00 4B 00 F1 00  Length = 4194577 BitCount = 144 ID = 271360064x
   1.495649 1  10264040x       Rx   d 8 04 0E 00 00 00 00 00 00  Length = 4224577 BitCount = 145 ID = 270942272x
   1.505735 1  10210040x       Rx   d 8 00 00 20 00 00 00 20 00  Length = 4288208 BitCount = 147 ID = 270598208x
   1.510747 1  1022A040x       Rx   d 8 00 B0 00 00 00 00 00 00  Length = 4288208 BitCount = 147 ID = 270704704x
   1.515700 1  10220040x       Rx   d 8 10 00 00 00 0F FB 00 00  Length = 4258208 BitCount = 146 ID = 270663744x
   1.518882 1  10308060x       Rx   d 3 A9 84 01  Length = 2818247 BitCount = 98 ID = 271614048x
   1.522784 1  1022C040x       Rx   d 6 00 00 00 00 00 00  Length = 3778216 BitCount = 130 ID = 270712896x
   1.530704 1  1022E040x       Rx   d 8 20 00 00 00 20 00 00 00  Length = 4284562 BitCount = 147 ID = 270721088x
   1.535628 1  10230040x       Rx   d 8 30 00 00 00 30 00 00 00  Length = 4258208 BitCount = 146 ID = 270729280x
   1.540341 1  10248040x       Rx   d 7 00 00 5F F7 F7 FC 00  Length = 3928212 BitCount = 135 ID = 270827584x
   1.544001 1  10250040x       Rx   d 2 00 00  Length = 2604654 BitCount = 91 ID = 270860352x
   1.550635 1  102CC040x       Rx   d 8 01 00 CF 00 00 55 06 8D  Length = 4108212 BitCount = 141 ID = 271368256x
   1.555765 1  10240040x       Rx   d 8 80 00 88 01 00 46 0F FC  Length = 4194562 BitCount = 144 ID = 270794816x
   1.560659 1  102CE040x       Rx   d 8 40 00 32 00 00 00 06 C6  Length = 4198223 BitCount = 144 ID = 271376448x
   1.565642 1  102D0040x       Rx   d 8 01 00 01 00 48 00 00 FF  Length = 4198208 BitCount = 144 ID = 271384640x
   1.568074 1  103D20BCx       Rx   d 1 00  Length = 2308263 BitCount = 81 ID = 272441532x
   1.572305 1  102E0040x       Rx   d 8 00 00 CA 00 89 00 5E 73  Length = 4108212 BitCount = 141 ID = 271450176x
   1.580739 1  102CA040x       Rx   d 8 00 00 00 00 4B 00 F1 00  Length = 4198208 BitCount = 144 ID = 271360064x
   1.584878 1  10466040x       Rx   d 5 00 00 00 00 00  Length = 3444598 BitCount = 119 ID = 273047616x
   1.590733 1  106B8040x       Rx   d 8 00 00 00 00 00 00 00 00  Length = 4318208 BitCount = 148 ID = 275480640x
   1.595656 1  10264040x       Rx   d 8 04 0E 00 00 00 00 00 00  Length = 4228208 BitCount = 145 ID = 270942272x
   1.599795 1  106C0040x       Rx   d 5 00 03 D1 C6 00  Length = 3324602 BitCount = 115 ID = 275513408x
   1.605740 1  10210040x       Rx   d 8 00 00 20 00 00 00 20 00  Length = 4288223 BitCount = 147 ID = 270598208x
   1.609613 1  1077C040x       Rx   d 4 30 30 01 F4  Length = 3148224 BitCount = 109 ID = 276283456x
   1.615672 1  10220040x       Rx   d 8 10 00 00 00 0F FB 00 00  Length = 4254562 BitCount = 146 ID = 270663744x
   1.620807 1  10780040x       Rx   d 8 00 00 01 00 08 00 00 00  Length = 4318208 BitCount = 148 ID = 276299840x
   1.625786 1  1022E040x       Rx   d 8 00 00 00 00 00 00 00 00  Length = 4314558 BitCount = 148 ID = 270721088x
   1.628822 1  10308060x       Rx   d 3 A9 84 01  Length = 2818247 BitCount = 98 ID = 271614048x
   1.632725 1  10788040x       Rx   d 6 08 00 00 00 00 00  Length = 3778216 BitCount = 130 ID = 276332608x
   1.640645 1  10230040x       Rx   d 8 10 00 00 00 10 00 00 00  Length = 4254562 BitCount = 146 ID = 270729280x
   1.645119 1  10800040x       Rx   d 6 02 EC 00 00 00 00  Length = 3688216 BitCount = 127 ID = 276824128x
   1.649859 1  10806040x       Rx   d 5 00 00 00 00 19  Length = 3414598 BitCount = 118 ID = 276848704x
   1.655680 1  10240040x       Rx   d 8 80 00 88 01 00 46 00 00  Length = 4194562 BitCount = 144 ID = 270794816x
   1.662131 1  1036A080x       Rx   d 7 01 00 00 00 00 00 00  Length = 4014585 BitCount = 138 ID = 272015488x
   1.665580 1  102C0040x       Rx   d 5 44 05 A9 84 03  Length = 3324602 BitCount = 115 ID = 271319104x
   1.667984 1  1040A080x       Rx   d 1 40  Length = 2278263 BitCount = 80 ID = 272670848x
   1.675694 1  102CA040x       Rx   d 8 00 00 00 00 4B 00 F1 00  Length = 4194577 BitCount = 144 ID = 271360064x
   1.678574 1  10304058x       Rx   d 3 A9 84 01  Length = 2754642 BitCount = 96 ID = 271597656x
   1.681006 1  103D20BCx       Rx   d 1 00  Length = 2308248 BitCount = 81 ID = 272441532x
   1.689040 1  10306099x       Rx   d 3 A9 84 01  Length = 2724642 BitCount = 95 ID = 271605913x
   1.695703 1  10264040x       Rx   d 8 04 0E 00 00 00 00 00 00  Length = 4228208 BitCount = 145 ID = 270942272x
   1.705536 CAN 1 Status:chip status error active  - TxErr: 0 RxErr: 1
   1.705543 1  ErrorFrame	Flags = 0xfffe	CodeExt = 0x2072	Code = 0x81	ID = 0x90210040	DLC = 8	Position = 120	Length = 4104375	Data = 0  0  0x20  0  0  0  0x20  0
   1.710130 CAN 1 Status:chip status error active
   1.710348 1  10210040x       Rx   d 8 00 00 20 00 00 00 20 00  Length = 4288208 BitCount = 147 ID = 270598208x
   1.715717 1  10220040x       Rx   d 8 10 00 00 00 0F FB 00 00  Length = 4254562 BitCount = 146 ID = 270663744x
   1.725713 1  1022E040x       Rx   d 8 20 00 00 00 20 00 00 00  Length = 4288208 BitCount = 147 ID = 270721088x
   1.735647 1  10230040x       Rx   d 8 30 00 00 00 30 00 00 00  Length = 4258208 BitCount = 146 ID = 270729280x
   1.738770 1  10308060x       Rx   d 3 A9 84 01  Length = 2818232 BitCount = 98 ID = 271614048x
   1.755785 1  1022A040x       Rx   d 8 00 B0 00 00 00 00 00 00  Length = 4288223 BitCount = 147 ID = 270704704x
   1.760198 1  1022C040x       Rx   d 6 00 00 00 00 00 00  Length = 3778216 BitCount = 130 ID = 270712896x
   1.765691 1  10240040x       Rx   d 8 80 00 88 01 00 46 0F FC  Length = 4198208 BitCount = 144 ID = 270794816x
   1.770793 1  106B8040x       Rx   d 8 00 00 00 00 00 00 00 00  Length = 4318208 BitCount = 148 ID = 275480640x
   1.775713 1  102CA040x       Rx   d 8 00 00 00 00 4B 00 F1 00  Length = 4194562 BitCount = 144 ID = 271360064x
   1.785620 1  102CC040x       Rx   d 8 01 00 CF 00 00 55 06 8D  Length = 4108212 BitCount = 141 ID = 271368256x
   1.788050 1  103D20BCx       Rx   d 1 00  Length = 2304686 BitCount = 81 ID = 272441532x
   1.792335 1  13FFE0AFx       Rx   d 0  Length = 2061168 BitCount = 73 ID = 335536303x
   1.796687 1  10264040x       Rx   d 8 04 0E 00 00 00 00 00 00  Length = 4224562 BitCount = 145 ID = 270942272x
   1.805782 1  10210040x       Rx   d 8 00 00 20 00 00 00 20 00  Length = 4288208 BitCount = 147 ID = 270598208x
   1.810705 1  102CE040x       Rx   d 8 40 00 32 00 00 00 06 C6  Length = 4198208 BitCount = 144 ID = 271376448x
   1.815748 1  10220040x       Rx   d 8 10 00 00 00 0F FB 00 00  Length = 4258208 BitCount = 146 ID = 270663744x
   1.825802 1  1022E040x       Rx   d 8 00 00 00 00 00 00 00 00  Length = 4318208 BitCount = 148 ID = 270721088x
   1.830931 1  10780040x       Rx   d 8 00 00 01 00 08 00 00 00  Length = 4314558 BitCount = 148 ID = 276299840x
   1.835736 1  10230040x       Rx   d 8 10 00 00 00 10 00 00 00  Length = 4258208 BitCount = 146 ID = 270729280x
   1.837955 1  13FFE058x       Rx   d 0  Length = 2094710 BitCount = 74 ID = 335536216x
   1.841767 1  10800040x       Rx   d 6 02 EC 00 00 00 00  Length = 3688216 BitCount = 127 ID = 276824128x
   1.848760 1  10308060x       Rx   d 3 A9 84 01  Length = 2818247 BitCount = 98 ID = 271614048x
   1.855690 1  10240040x       Rx   d 8 80 00 88 01 00 46 00 00  Length = 4194577 BitCount = 144 ID = 270794816x
   1.864807 CAN 1 Status:chip status error active  - TxErr: 0 RxErr: 1
   1.864814 1  ErrorFrame	Flags = 0xfffe	CodeExt = 0x2072	Code = 0x81	ID = 0x93ffe0bc	DLC = 0	Position = 56	Length = 1884390
   1.867179 CAN 1 Status:chip status error active
   1.867396 1  13FFE0BCx       Rx   d 0  Length = 2068260 BitCount = 73 ID = 335536316x
   1.872525 1  13FFE0BBx       Rx   d 0  Length = 2034733 BitCount = 72 ID = 335536315x
   1.876846 1  102CA040x       Rx   d 8 00 00 00 00 4B 00 F1 00  Length = 4194562 BitCount = 144 ID = 271360064x
   1.889741 1  10734099x       Rx   d 6 10 00 00 7D 00 00  Length = 3624601 BitCount = 125 ID = 275988633x
   1.895714 1  10264040x       Rx   d 8 04 0E 00 00 00 00 00 00  Length = 4228223 BitCount = 145 ID = 270942272x
   1.898145 1  103D20BCx       Rx   d 1 00  Length = 2308248 BitCount = 81 ID = 272441532x
   1.905766 1  10210040x       Rx   d 8 00 00 20 00 00 00 20 00  Length = 4284562 BitCount = 147 ID = 270598208x
   1.915821 1  10220040x       Rx   d 8 10 00 00 00 0F FC 00 00  Length = 4348208 BitCount = 149 ID = 270663744x
   1.925721 1  1022E040x       Rx   d 8 20 00 00 00 20 00 00 00  Length = 4284562 BitCount = 147 ID = 270721088x
   1.930072 1  621             Rx   d 8 00 52 00 00 00 00 00 00  Length = 3594590 BitCount = 124 ID = 1569
   1.935777 1  10230040x       Rx   d 8 30 00 00 00 30 00 00 00  Length = 4258223 BitCount = 146 ID = 270729280x
   1.955669 1  10240040x       Rx   d 8 80 00 88 01 00 46 00 00  Length = 4194562 BitCount = 144 ID = 270794816x
   1.958884 1  10308060x       Rx   d 3 A9 84 01  Length = 2818232 BitCount = 98 ID = 271614048x
   1.963326 1  106B8040x       Rx   d 8 00 00 00 00 00 00 00 00  Length = 4318223 BitCount = 148 ID = 275480640x
   1.966988 1  108E0080x       Rx   d 6 10 05 11 01 45 79  Length = 3538231 BitCount = 122 ID = 277741696x
   1.970440 1  102C0040x       Rx   d 5 44 05 A9 84 03  Length = 3328235 BitCount = 115 ID = 271319104x
   1.975813 1  102CA040x       Rx   d 8 00 00 00 00 4B 00 F1 00  Length = 4198223 BitCount = 144 ID = 271360064x
   1.985466 1  10304058x       Rx   d 3 A9 84 01  Length = 2754657 BitCount = 96 ID = 271597656x
   1.989004 1  10306099x       Rx   d 3 A9 84 01  Length = 2724642 BitCount = 95 ID = 271605913x
   1.995729 1  10264040x       Rx   d 8 04 0E 00 00 00 00 00 00  Length = 4228208 BitCount = 145 ID = 270942272x
   2.001634 1  Statistic: D 1 R 0 XD 174 XR 0 E 2 O 0 B 67.31%
   2.001634 2  Statistic: D 0 R 0 XD 0 XR 0 E 0 O 0 B 0.00%
   2.005783 1  10210040x       Rx   d 8 00 00 20 00 00 00 20 00  Length = 4288208 BitCount = 147 ID = 270598208x
   2.008214 1  103D20BCx       Rx   d 1 00  Length = 2308248 BitCount = 81 ID = 272441532x
   2.012628 1  1022A040x       Rx   d 8 00 B0 00 00 00 00 00 00  Length = 4288208 BitCount = 147 ID = 270704704x
   2.020788 1  10220040x       Rx   d 8 10 00 00 00 0F FB 00 00  Length = 4254562 BitCount = 146 ID = 270663744x
   2.025289 1  1022C040x       Rx   d 6 00 00 00 00 00 00  Length = 3774582 BitCount = 130 ID = 270712896x
   2.030813 1  1022E040x       Rx   d 8 00 00 00 00 00 00 00 00  Length = 4318208 BitCount = 148 ID = 270721088x
   2.035736 1  10230040x       Rx   d 8 10 00 00 00 10 00 00 00  Length = 4258208 BitCount = 146 ID = 270729280x
   2.040419 1  10248040x       Rx   d 7 00 00 5F F7 F7 FC 00  Length = 3928212 BitCount = 135 ID = 270827584x
   2.045639 1  102CC040x       Rx   d 8 01 00 CF 00 00 56 06 8D  Length = 4104581 BitCount = 141 ID = 271368256x
   2.050742 1  102CE040x       Rx   d 8 40 00 32 00 00 00 06 C6  Length = 4194562 BitCount = 144 ID = 271376448x
   2.055726 1  10240040x       Rx   d 8 83 FF 88 01 00 46 00 00  Length = 4198208 BitCount = 144 ID = 270794816x
   2.060705 1  102D0040x       Rx   d 8 01 00 01 00 48 00 00 FF  Length = 4194562 BitCount = 144 ID = 271384640x
   2.064936 1  10806040x       Rx   d 5 00 00 00 00 19  Length = 3414613 BitCount = 118 ID = 276848704x
   2.068752 1  10308060x       Rx   d 3 A9 84 01  Length = 2818247 BitCount = 98 ID = 271614048x
   2.075772 1  102CA040x       Rx   d 8 00 00 00 00 4B 00 F1 00  Length = 4194562 BitCount = 144 ID = 271360064x
   2.080933 1  10780040x       Rx   d 8 00 00 01 00 08 00 00 00  Length = 4314558 BitCount = 148 ID = 276299840x
   2.085314 1  10788040x       Rx   d 6 08 00 00 00 00 00  Length = 3774582 BitCount = 130 ID = 276332608x
   2.090209 1  10800040x       Rx   d 6 00 EC 00 00 00 00  Length = 3688216 BitCount = 127 ID = 276824128x
   2.095762 1  10264040x       Rx   d 8 04 0E 00 00 00 00 00 00  Length = 4228208 BitCount = 145 ID = 270942272x
   2.105846 1  10210040x       Rx   d 8 00 00 20 00 00 00 20 00  Length = 4288208 BitCount = 147 ID = 270598208x
   2.115870 1  10220040x       Rx   d 8 10 00 00 00 0F FC 00 00  Length = 4348208 BitCount = 149 ID = 270663744x
   2.118302 1  103D20BCx       Rx   d 1 00  Length = 2308248 BitCount = 81 ID = 272441532x
   2.125775 1  1022E040x       Rx   d 8 20 00 00 00 20 00 00 00  Length = 4288208 BitCount = 147 ID = 270721088x
   2.128087 1  13FFE060x       Rx   d 0  Length = 2098256 BitCount = 74 ID = 335536224x
   2.130276 1  13FFE099x       Rx   d 0  Length = 2064729 BitCount = 73 ID = 335536281x
   2.132469 1  13FFE080x       Rx   d 0  Length = 2068275 BitCount = 73 ID = 335536256x
   2.136848 1  10230040x       Rx   d 8 30 00 00 00 30 00 00 00  Length = 4254562 BitCount = 146 ID = 270729280x
   2.155725 1  10240040x       Rx   d 8 83 FF 88 01 00 46 00 00  Length = 4198208 BitCount = 144 ID = 270794816x
   2.160855 1  106B8040x       Rx   d 8 00 00 00 00 00 00 00 00  Length = 4314558 BitCount = 148 ID = 275480640x
   2.175767 1  102CA040x       Rx   d 8 00 00 00 00 4B 00 F1 00  Length = 4194562 BitCount = 144 ID = 271360064x
   2.178861 1  10308060x       Rx   d 3 A9 84 01  Length = 2818232 BitCount = 98 ID = 271614048x
   2.195751 1  10264040x       Rx   d 8 04 0E 00 00 00 00 00 00  Length = 4224562 BitCount = 145 ID = 270942272x
   2.205837 1  10210040x       Rx   d 8 00 00 20 00 00 00 20 00  Length = 4288208 BitCount = 147 ID = 270598208x
   2.215801 1  10220040x       Rx   d 8 10 00 00 00 0F FB 00 00  Length = 4258223 BitCount = 146 ID = 270663744x
   2.225825 1  1022E040x       Rx   d 8 00 00 00 00 00 00 00 00  Length = 4318208 BitCount = 148 ID = 270721088x
   2.228254 1  103D20BCx       Rx   d 1 00  Length = 2304686 BitCount = 81 ID = 272441532x
   2.235821 1  10230040x       Rx   d 8 10 00 00 00 10 00 00 00  Length = 4258208 BitCount = 146 ID = 270729280x
   2.255863 1  1022A040x       Rx   d 8 00 B0 00 00 00 00 00 00  Length = 4284562 BitCount = 147 ID = 270704704x
   2.260116 CAN 1 Status:chip status error active  - TxErr: 0 RxErr: 1
   2.260124 1  ErrorFrame	Flags = 0xfffe	CodeExt = 0x2072	Code = 0x81	ID = 0x9022c040	DLC = 6	Position = 104	Length = 3594390	Data = 0  0  0  0  0  0
   2.264199 CAN 1 Status:chip status error active
   2.264416 1  1022C040x       Rx   d 6 00 00 00 00 00 00  Length = 3778216 BitCount = 130 ID = 270712896x
   2.270746 1  10240040x       Rx   d 8 80 00 88 01 00 46 00 00  Length = 4194562 BitCount = 144 ID = 270794816x
   2.274888 1  102C0040x       Rx   d 5 44 05 A9 84 03  Length = 3328224 BitCount = 115 ID = 271319104x
   2.280827 1  102CA040x       Rx   d 8 00 00 00 00 4B 00 F1 00  Length = 4194562 BitCount = 144 ID = 271360064x
   2.285752 1  102CC040x       Rx   d 8 01 00 CF 00 00 57 06 8D  Length = 4108212 BitCount = 141 ID = 271368256x
   2.288630 1  10304058x       Rx   d 3 A9 84 01  Length = 2754642 BitCount = 96 ID = 271597656x
   2.291480 1  10306099x       Rx   d 3 A9 84 01  Length = 2724642 BitCount = 95 ID = 271605913x
   2.295830 1  10264040x       Rx   d 8 04 0E 00 00 00 00 00 00  Length = 4224577 BitCount = 145 ID = 270942272x
   2.298775 1  10308060x       Rx   d 3 A9 84 01  Length = 2818247 BitCount = 98 ID = 271614048x
   2.303094 1  102CE040x       Rx   d 8 40 00 32 00 00 00 06 C6  Length = 4194562 BitCount = 144 ID = 271376448x
   2.310869 1  10210040x       Rx   d 8 00 00 20 00 00 00 20 00  Length = 4288223 BitCount = 147 ID = 270598208x
   2.315908 1  10220040x       Rx   d 8 10 00 00 00 0F FC 00 00  Length = 4344558 BitCount = 149 ID = 270663744x
   2.325814 1  1022E040x       Rx   d 8 20 00 00 00 20 00 00 00  Length = 4288208 BitCount = 147 ID = 270721088x
   2.330977 1  10780040x       Rx   d 8 00 00 01 00 08 00 00 00  Length = 4318208 BitCount = 148 ID = 276299840x
   2.335956 1  10230040x       Rx   d 8 30 00 00 00 30 00 00 00  Length = 4254562 BitCount = 146 ID = 270729280x
   2.338391 1  103D20BCx       Rx   d 1 00  Length = 2308263 BitCount = 81 ID = 272441532x
   2.342203 1  10800040x       Rx   d 6 00 EC 00 00 00 00  Length = 3688216 BitCount = 127 ID = 276824128x
   2.355576 CAN 1 Status:chip status error active  - TxErr: 0 RxErr: 1
   2.355584 1  ErrorFrame	Flags = 0xfffe	CodeExt = 0x2072	Code = 0x81	ID = 0x90240040	DLC = 8	Position = 120	Length = 4014375	Data = 0x80  0  0x88  0x1  0  0x46  0  0
   2.360075 CAN 1 Status:chip status error active
   2.360293 1  10240040x       Rx   d 8 80 00 88 01 00 46 00 00  Length = 4194562 BitCount = 144 ID = 270794816x
   2.365908 1  106B8040x       Rx   d 8 00 00 00 00 00 00 00 00  Length = 4318208 BitCount = 148 ID = 275480640x
   2.375811 1  102CA040x       Rx   d 8 00 00 00 00 4B 00 F1 00  Length = 4198208 BitCount = 144 ID = 271360064x
   2.389449 1  10734099x       Rx   d 6 10 00 00 7D 00 00  Length = 3620956 BitCount = 125 ID = 275988633x
   2.392151 1  106D0080x       Rx   d 2 00 00  Length = 2574658 BitCount = 90 ID = 275579008x
   2.396502 1  10264040x       Rx   d 8 04 0E 00 00 00 00 00 00  Length = 4224562 BitCount = 145 ID = 270942272x
   2.402921 1  13FFE068x       Rx   d 0  Length = 2064714 BitCount = 73 ID = 335536232x
   2.407332 1  10210040x       Rx   d 8 00 00 20 00 00 00 20 00  Length = 4284562 BitCount = 147 ID = 270598208x
   2.410275 1  10308060x       Rx   d 3 A9 84 01  Length = 2818247 BitCount = 98 ID = 271614048x
   2.415823 1  10220040x       Rx   d 8 10 00 00 00 0F FB 00 00  Length = 4254577 BitCount = 146 ID = 270663744x
   2.418584 1  13FFE040x       Rx   d 0  Length = 2064714 BitCount = 73 ID = 335536192x
   2.425909 1  1022E040x       Rx   d 8 00 00 00 00 00 00 00 00  Length = 4318208 BitCount = 148 ID = 270721088x
   2.435963 1  10230040x       Rx   d 8 10 00 00 00 10 00 00 00  Length = 4258223 BitCount = 146 ID = 270729280x
   2.445630 1  103D20BCx       Rx   d 1 00  Length = 2308248 BitCount = 81 ID = 272441532x
   2.455773 1  10240040x       Rx   d 8 83 FF 88 01 00 46 00 00  Length = 4198208 BitCount = 144 ID = 270794816x
   2.475815 1  102CA040x       Rx   d 8 00 00 00 00 4B 00 F1 00  Length = 4194562 BitCount = 144 ID = 271360064x
   2.495829 1  10264040x       Rx   d 8 04 0E 00 00 00 00 00 00  Length = 4224562 BitCount = 145 ID = 270942272x
   2.505884 1  10210040x       Rx   d 8 00 00 00 00 00 00 00 00  Length = 4288208 BitCount = 147 ID = 270598208x
   2.510927 1  1022A040x       Rx   d 8 00 B0 00 00 00 00 00 00  Length = 4288208 BitCount = 147 ID = 270704704x
   2.515937 1  10220040x       Rx   d 8 10 00 00 00 0F FC 00 00  Length = 4344573 BitCount = 149 ID = 270663744x
   2.518882 1  10308060x       Rx   d 3 A9 84 01  Length = 2818232 BitCount = 98 ID = 271614048x
   2.522786 1  1022C040x       Rx   d 6 00 00 00 00 00 00  Length = 3778216 BitCount = 130 ID = 270712896x
   2.530886 1  1022E040x       Rx   d 8 20 00 00 00 20 00 00 00  Length = 4284562 BitCount = 147 ID = 270721088x
   2.535807 1  10230040x       Rx   d 8 30 00 00 00 30 00 00 00  Length = 4254562 BitCount = 146 ID = 270729280x
   2.540487 1  10248040x       Rx   d 7 00 00 5F F7 F7 FB 00  Length = 3894574 BitCount = 134 ID = 270827584x
   2.544176 1  10250040x       Rx   d 2 00 00  Length = 2604669 BitCount = 91 ID = 270860352x
   2.550751 1  102CC040x       Rx   d 8 01 00 CF 00 00 57 06 8D  Length = 4108212 BitCount = 141 ID = 271368256x
   2.555820 1  10240040x       Rx   d 8 80 00 88 01 00 46 00 00  Length = 4194562 BitCount = 144 ID = 270794816x
   2.558251 1  103D20BCx       Rx   d 1 00  Length = 2304686 BitCount = 81 ID = 272441532x
   2.562574 1  102CE040x       Rx   d 8 40 00 32 00 00 00 06 C6  Length = 4194562 BitCount = 144 ID = 271376448x
   2.569899 1  102C0040x       Rx   d 5 44 05 A9 84 03  Length = 3328224 BitCount = 115 ID = 271319104x
   2.575932 1  102CA040x       Rx   d 8 00 00 00 00 4B 00 F1 00  Length = 4198208 BitCount = 144 ID = 271360064x
   2.580881 1  102D0040x       Rx   d 8 01 00 01 00 48 00 00 FF  Length = 4194562 BitCount = 144 ID = 271384640x
   2.585866 1  102E0040x       Rx   d 8 00 00 CA 00 89 00 5E 73  Length = 4108212 BitCount = 141 ID = 271450176x
   2.588744 1  10304058x       Rx   d 3 A9 84 01  Length = 2754642 BitCount = 96 ID = 271597656x
   2.591593 1  10306099x       Rx   d 3 A9 84 01  Length = 2724657 BitCount = 95 ID = 271605913x
   2.596038 1  106B8040x       Rx   d 8 00 00 00 00 00 00 00 00  Length = 4318223 BitCount = 148 ID = 275480640x
   2.600837 1  10264040x       Rx   d 8 04 0E 00 00 00 00 00 00  Length = 4224562 BitCount = 145 ID = 270942272x
   2.605908 1  10210040x       Rx   d 8 00 00 00 00 00 00 00 00  Length = 4284562 BitCount = 147 ID = 270598208x
   2.609903 1  106C0040x       Rx   d 5 00 03 D1 C6 00  Length = 3328224 BitCount = 115 ID = 275513408x
   2.615872 1  10220040x       Rx   d 8 10 00 00 00 0F FB 00 00  Length = 4254562 BitCount = 146 ID = 270663744x
   2.619746 1  1077C040x       Rx   d 4 30 30 01 F4  Length = 3148239 BitCount = 109 ID = 276283456x
   2.625896 1  1022E040x       Rx   d 8 00 00 00 00 00 00 00 00  Length = 4314558 BitCount = 148 ID = 270721088x
   2.628837 1  10308060x       Rx   d 3 A9 84 01  Length = 2814649 BitCount = 98 ID = 271614048x
   2.633281 1  10780040x       Rx   d 8 00 00 01 00 08 00 00 00  Length = 4318208 BitCount = 148 ID = 276299840x
   2.640844 1  10230040x       Rx   d 8 10 00 00 00 10 00 00 00  Length = 4258208 BitCount = 146 ID = 270729280x
   2.645404 1  10788040x       Rx   d 6 08 00 00 00 00 00  Length = 3774582 BitCount = 130 ID = 276332608x
   2.650358 1  10800040x       Rx   d 6 00 EC 00 00 00 00  Length = 3688216 BitCount = 127 ID = 276824128x
   2.655821 1  10240040x       Rx   d 8 83 FF 88 01 00 46 00 00  Length = 4198208 BitCount = 144 ID = 270794816x
   2.660054 1  10806040x       Rx   d 5 00 00 00 00 19  Length = 3418220 BitCount = 118 ID = 276848704x
   2.665817 1  103D20BCx       Rx   d 1 00  Length = 2308248 BitCount = 81 ID = 272441532x
   2.675871 1  102CA040x       Rx   d 8 00 00 00 00 4B 00 F1 00  Length = 4198208 BitCount = 144 ID = 271360064x
   2.695853 1  10264040x       Rx   d 8 04 0E 00 00 00 00 00 00  Length = 4224577 BitCount = 145 ID = 270942272x
   2.705939 1  10210040x       Rx   d 8 00 00 00 00 00 00 00 00  Length = 4288208 BitCount = 147 ID = 270598208x
   2.715963 1  10220040x       Rx   d 8 10 00 00 00 0F FC 00 00  Length = 4348208 BitCount = 149 ID = 270663744x
   2.725867 1  1022E040x       Rx   d 8 20 00 00 00 20 00 00 00  Length = 4288208 BitCount = 147 ID = 270721088x
   2.735977 1  10230040x       Rx   d 8 30 00 00 00 30 00 00 00  Length = 4254562 BitCount = 146 ID = 270729280x
   2.738916 1  10308060x       Rx   d 3 A9 84 01  Length = 2814638 BitCount = 98 ID = 271614048x
   2.755990 1  1022A040x       Rx   d 8 00 B0 00 00 00 00 00 00  Length = 4288208 BitCount = 147 ID = 270704704x
   2.760400 1  1022C040x       Rx   d 6 00 00 00 00 00 00  Length = 3774593 BitCount = 130 ID = 270712896x
   2.765860 1  10240040x       Rx   d 8 80 00 88 01 00 46 0F FC  Length = 4194562 BitCount = 144 ID = 270794816x
   2.770993 1  106B8040x       Rx   d 8 00 00 00 00 00 00 00 00  Length = 4318223 BitCount = 148 ID = 275480640x
   2.775913 1  102CA040x       Rx   d 8 00 00 00 00 4B 00 F1 00  Length = 4194562 BitCount = 144 ID = 271360064x
   2.778344 1  103D20BCx       Rx   d 1 00  Length = 2304686 BitCount = 81 ID = 272441532x
   2.785820 1  102CC040x       Rx   d 8 01 00 CF 00 00 58 06 8D  Length = 4108212 BitCount = 141 ID = 271368256x
   2.795874 1  10264040x       Rx   d 8 04 0E 00 00 00 00 00 00  Length = 4228208 BitCount = 145 ID = 270942272x
   2.800917 1  102CE040x       Rx   d 8 40 00 32 00 00 00 06 C6  Length = 4198208 BitCount = 144 ID = 271376448x
   2.805956 1  10210040x       Rx   d 8 00 00 00 00 00 00 00 00  Length = 4284562 BitCount = 147 ID = 270598208x
   2.815892 1  10220040x       Rx   d 8 10 00 00 00 0F FB 00 00  Length = 4258223 BitCount = 146 ID = 270663744x
   2.825942 1  1022E040x       Rx   d 8 00 00 00 00 00 00 00 00  Length = 4314558 BitCount = 148 ID = 270721088x
   2.831075 1  10780040x       Rx   d 8 00 00 01 00 08 00 00 00  Length = 4318208 BitCount = 148 ID = 276299840x
   2.835964 1  10230040x       Rx   d 8 10 00 00 00 10 00 00 00  Length = 4254562 BitCount = 146 ID = 270729280x
   2.840347 1  10800040x       Rx   d 6 00 EC 00 00 00 00  Length = 3684586 BitCount = 127 ID = 276824128x
   2.848691 1  10308060x       Rx   d 3 A9 84 01  Length = 2818247 BitCount = 98 ID = 271614048x
   2.855890 1  10240040x       Rx   d 8 83 FF 88 01 00 46 0F FC  Length = 4224562 BitCount = 145 ID = 270794816x
   2.864926 1  102C0040x       Rx   d 5 44 05 A9 84 03  Length = 3328224 BitCount = 115 ID = 271319104x
   2.875940 1  102CA040x       Rx   d 8 00 00 00 00 4B 00 F1 00  Length = 4198208 BitCount = 144 ID = 271360064x
   2.878819 1  10304058x       Rx   d 3 A9 84 01  Length = 2754642 BitCount = 96 ID = 271597656x
   2.885805 CAN 1 Status:chip status error active  - TxErr: 0 RxErr: 1
   2.885812 1  ErrorFrame	Flags = 0xfffe	CodeExt = 0x2072	Code = 0x81	ID = 0x903d20bc	DLC = 1	Position = 64	Length = 2124390	Data = 0
   2.888833 CAN 1 Status:chip status error active
   2.889051 1  10306099x       Rx   d 3 A9 84 01  Length = 2724642 BitCount = 95 ID = 271605913x
   2.891484 1  103D20BCx       Rx   d 1 00  Length = 2308248 BitCount = 81 ID = 272441532x
   2.895232 1  10734099x       Rx   d 6 10 00 00 7D 00 00  Length = 3624601 BitCount = 125 ID = 275988633x
   2.899584 1  10264040x       Rx   d 8 04 0E 00 00 00 00 00 00  Length = 4228208 BitCount = 145 ID = 270942272x
   2.905977 1  10210040x       Rx   d 8 00 00 00 00 00 00 00 00  Length = 4288208 BitCount = 147 ID = 270598208x
   2.915941 1  10220040x       Rx   d 8 10 00 00 00 0F FA 00 00  Length = 4288208 BitCount = 147 ID = 270663744x
   2.925931 1  1022E040x       Rx   d 8 20 00 00 00 20 00 00 00  Length = 4284562 BitCount = 147 ID = 270721088x
   2.936073 1  10230040x       Rx   d 8 30 00 00 00 30 00 00 00  Length = 4254562 BitCount = 146 ID = 270729280x
   2.940218 1  621             Rx   d 8 00 52 00 00 00 00 00 00  Length = 3598216 BitCount = 124 ID = 1569
   2.955879 1  10240040x       Rx   d 8 80 00 88 01 00 46 00 00  Length = 4194562 BitCount = 144 ID = 270794816x
   2.958820 1  10308060x       Rx   d 3 A9 84 01  Length = 2814649 BitCount = 98 ID = 271614048x
   2.963259 1  106B8040x       Rx   d 8 00 00 00 00 00 00 00 00  Length = 4314558 BitCount = 148 ID = 275480640x
   2.966919 1  108E0080x       Rx   d 6 10 05 11 01 45 7A  Length = 3534590 BitCount = 122 ID = 277741696x
   2.975983 1  102CA040x       Rx   d 8 00 00 00 00 4B 00 F1 00  Length = 4198208 BitCount = 144 ID = 271360064x
   2.991543 1  13FFE0AFx       Rx   d 0  Length = 2064714 BitCount = 73 ID = 335536303x
   2.995923 1  10264040x       Rx   d 8 04 0E 00 00 00 00 00 00  Length = 4224577 BitCount = 145 ID = 270942272x
   2.998355 1  103D20BCx       Rx   d 1 00  Length = 2308248 BitCount = 81 ID = 272441532x
   3.001635 1  Statistic: D 1 R 0 XD 149 XR 0 E 3 O 0 B 59.37%
   3.001635 2  Statistic: D 0 R 0 XD 0 XR 0 E 0 O 0 B 0.00%
   3.005978 1  10210040x       Rx   d 8 00 00 00 00 00 00 00 00  Length = 4288208 BitCount = 147 ID = 270598208x
   3.008891 1  10424060x       Rx   d 3 04 86 8A  Length = 2788247 BitCount = 97 ID = 272777312x
   3.013300 1  1022A040x       Rx   d 8 00 B0 00 00 00 00 00 00  Length = 4284562 BitCount = 147 ID = 270704704x
   3.021041 1  10220040x       Rx   d 8 10 00 00 00 0F FC 00 00  Length = 4344558 BitCount = 149 ID = 270663744x
   3.025452 1  1022C040x       Rx   d 6 00 00 00 00 00 00  Length = 3774582 BitCount = 130 ID = 270712896x
   3.030786 CAN 1 Status:chip status error active  - TxErr: 0 RxErr: 1
   3.030793 1  ErrorFrame	Flags = 0xfffe	CodeExt = 0x2072	Code = 0x81	ID = 0x9022e040	DLC = 8	Position = 120	Length = 4134375	Data = 0  0  0  0  0  0  0  0
   3.035405 CAN 1 Status:chip status error active
   3.035435 CAN 1 Status:chip status error active  - TxErr: 0 RxErr: 1
   3.035442 1  ErrorFrame	Flags = 0xfffe	CodeExt = 0x2072	Code = 0x81	ID = 0x9022e040	DLC = 8	Position = 120	Length = 4134375	Data = 0  0  0  0  0  0  0  0
   3.040054 CAN 1 Status:chip status error active
   3.040271 1  1022E040x       Rx   d 8 00 00 00 00 00 00 00 00  Length = 4314558 BitCount = 148 ID = 270721088x
   3.043246 1  102F0080x       Rx   d 3 09 00 00  Length = 2848232 BitCount = 99 ID = 271515776x
   3.047624 1  10230040x       Rx   d 8 20 00 00 00 20 00 00 00  Length = 4254562 BitCount = 146 ID = 270729280x
   3.049850 1  13FFE058x       Rx   d 0  Length = 2098256 BitCount = 74 ID = 335536216x
   3.055908 1  10240040x       Rx   d 8 80 00 88 01 00 46 0F FC  Length = 4194562 BitCount = 144 ID = 270794816x
   3.060402 CAN 1 Status:chip status error active  - TxErr: 0 RxErr: 1
   3.060409 1  ErrorFrame	Flags = 0xfffe	CodeExt = 0x2072	Code = 0x81	ID = 0x90248040	DLC = 7	Position = 112	Length = 3714390	Data = 0  0  0x5f  0xf7  0xf7  0xfb  0
   3.064604 CAN 1 Status:chip status error active
   3.064822 1  10248040x       Rx   d 7 00 00 5F F7 F7 FB 00  Length = 3898227 BitCount = 134 ID = 270827584x
   3.066820 CAN 1 Status:chip status error active  - TxErr: 0 RxErr: 1
   3.066828 1  ErrorFrame	Flags = 0xfffe	CodeExt = 0x2072	Code = 0x81	ID = 0x93ffe0bc	DLC = 0	Position = 56	Length = 1884390
   3.071236 CAN 1 Status:chip status error active
   3.071453 1  102CC040x       Rx   d 8 01 00 CF 00 00 59 06 8D  Length = 4111854 BitCount = 141 ID = 271368256x
   3.074393 1  10308060x       Rx   d 3 A9 84 01  Length = 2818232 BitCount = 98 ID = 271614048x
   3.078712 1  102CA040x       Rx   d 8 00 00 00 00 4B 00 F1 00  Length = 4194577 BitCount = 144 ID = 271360064x
   3.080876 1  13FFE0BBx       Rx   d 0  Length = 2038260 BitCount = 72 ID = 335536315x
   3.082876 CAN 1 Status:chip status error active  - TxErr: 0 RxErr: 1
   3.082884 1  ErrorFrame	Flags = 0xfffe	CodeExt = 0x2072	Code = 0x81	ID = 0x93ffe0bc	DLC = 0	Position = 56	Length = 1884375
   3.087375 CAN 1 Status:chip status error active
   3.087405 CAN 1 Status:chip status error active  - TxErr: 0 RxErr: 1
   3.087412 1  ErrorFrame	Flags = 0xfffe	CodeExt = 0x2072	Code = 0x81	ID = 0x902ce040	DLC = 8	Position = 120	Length = 4014375	Data = 0x40  0  0x32  0  0  0  0x6  0xc6
   3.091905 CAN 1 Status:chip status error active
   3.092122 1  102CE040x       Rx   d 8 40 00 32 00 00 00 06 C6  Length = 4194562 BitCount = 144 ID = 271376448x
   3.094316 1  13FFE0BCx       Rx   d 0  Length = 2068260 BitCount = 73 ID = 335536316x
   3.100979 1  10264040x       Rx   d 8 04 0E 00 00 00 00 00 00  Length = 4228208 BitCount = 145 ID = 270942272x
   3.106022 1  10210040x       Rx   d 8 00 00 00 00 00 00 00 00  Length = 4288208 BitCount = 147 ID = 270598208x
   3.108454 1  103D20BCx       Rx   d 1 00  Length = 2308248 BitCount = 81 ID = 272441532x
   3.112773 1  102D0040x       Rx   d 8 01 00 01 00 48 00 00 FF  Length = 4194577 BitCount = 144 ID = 271384640x
   3.120968 1  10220040x       Rx   d 8 10 00 00 00 0F FB 00 00  Length = 4258208 BitCount = 146 ID = 270663744x
   3.125981 1  1022E040x       Rx   d 8 20 00 00 00 20 00 00 00  Length = 4288208 BitCount = 147 ID = 270721088x
   3.131141 1  10780040x       Rx   d 8 00 00 01 00 08 00 00 00  Length = 4314558 BitCount = 148 ID = 276299840x
   3.136155 1  10230040x       Rx   d 8 30 00 00 00 30 00 00 00  Length = 4258208 BitCount = 146 ID = 270729280x
   3.140505 1  10788040x       Rx   d 6 08 00 00 00 00 00  Length = 3774582 BitCount = 130 ID = 276332608x
   3.145425 1  10800040x       Rx   d 6 00 EC 00 00 00 00  Length = 3684586 BitCount = 127 ID = 276824128x
   3.150142 1  10806040x       Rx   d 5 00 00 00 00 19  Length = 3418220 BitCount = 118 ID = 276848704x
   3.155935 1  10240040x       Rx   d 8 80 00 88 01 00 46 00 00  Length = 4198208 BitCount = 144 ID = 270794816x
   3.161034 1  106B8040x       Rx   d 8 00 00 00 00 00 00 00 00  Length = 4314558 BitCount = 148 ID = 275480640x
   3.164999 1  102C0040x       Rx   d 5 44 05 A9 84 03  Length = 3328224 BitCount = 115 ID = 271319104x
   3.175983 1  102CA040x       Rx   d 8 00 00 00 00 4B 00 F1 00  Length = 4198223 BitCount = 144 ID = 271360064x
   3.178861 1  10304058x       Rx   d 3 A9 84 01  Length = 2754642 BitCount = 96 ID = 271597656x
   3.181805 1  10308060x       Rx   d 3 A9 84 01  Length = 2818232 BitCount = 98 ID = 271614048x
   3.187921 1  10306099x       Rx   d 3 A9 84 01  Length = 2724642 BitCount = 95 ID = 271605913x
   3.195961 1  10264040x       Rx   d 8 04 0E 00 00 00 00 00 00  Length = 4224562 BitCount = 145 ID = 270942272x
   3.206017 1  10210040x       Rx   d 8 00 00 00 00 00 00 00 00  Length = 4288208 BitCount = 147 ID = 270598208x
   3.215981 1  10220040x       Rx   d 8 10 00 00 00 0F FB 00 00  Length = 4258208 BitCount = 146 ID = 270663744x
   3.218410 1  103D20BCx       Rx   d 1 00  Length = 2304686 BitCount = 81 ID = 272441532x
   3.226003 1  1022E040x       Rx   d 8 00 00 00 00 00 00 00 00  Length = 4314558 BitCount = 148 ID = 270721088x
   3.236031 1  10230040x       Rx   d 8 10 00 00 00 10 00 00 00  Length = 4258208 BitCount = 146 ID = 270729280x
   3.256043 1  1022A040x       Rx   d 8 00 B0 00 00 00 00 00 00  Length = 4284562 BitCount = 147 ID = 270704704x
   3.260296 CAN 1 Status:chip status error active  - TxErr: 0 RxErr: 1
   3.260303 1  ErrorFrame	Flags = 0xfffe	CodeExt = 0x2072	Code = 0x81	ID = 0x9022c040	DLC = 6	Position = 104	Length = 3594375	Data = 0  0  0  0  0  0
   3.264379 CAN 1 Status:chip status error active
   3.264596 1  1022C040x       Rx   d 6 00 00 00 00 00 00  Length = 3778216 BitCount = 130 ID = 270712896x
   3.270959 1  10240040x       Rx   d 8 83 FF 88 01 00 46 00 00  Length = 4198208 BitCount = 144 ID = 270794816x
   3.276002 1  102CA040x       Rx   d 8 00 00 00 00 4B 00 F1 00  Length = 4198208 BitCount = 144 ID = 271360064x
   3.285906 1  102CC040x       Rx   d 8 01 00 CF 00 00 59 06 8D  Length = 4108212 BitCount = 141 ID = 271368256x
   3.288846 1  10308060x       Rx   d 3 A9 84 01  Length = 2814638 BitCount = 98 ID = 271614048x
   3.295956 1  10264040x       Rx   d 8 04 0E 00 00 00 00 00 00  Length = 4224562 BitCount = 145 ID = 270942272x
   3.300997 1  102CE040x       Rx   d 8 40 00 32 00 00 00 06 C6  Length = 4194577 BitCount = 144 ID = 271376448x
   3.306042 1  10210040x       Rx   d 8 00 00 00 00 00 00 00 00  Length = 4288208 BitCount = 147 ID = 270598208x
   3.316096 1  10220040x       Rx   d 8 10 00 00 00 0F FC 00 00  Length = 4348208 BitCount = 149 ID = 270663744x
   3.326000 1  1022E040x       Rx   d 8 20 00 00 00 20 00 00 00  Length = 4288208 BitCount = 147 ID = 270721088x
   3.328431 1  103D20BCx       Rx   d 1 00  Length = 2308248 BitCount = 81 ID = 272441532x
   3.332872 1  10780040x       Rx   d 8 00 00 01 00 08 00 00 00  Length = 4318208 BitCount = 148 ID = 276299840x
   3.335095 1  13FFE060x       Rx   d 0  Length = 2098271 BitCount = 74 ID = 335536224x
   3.337287 1  13FFE080x       Rx   d 0  Length = 2068275 BitCount = 73 ID = 335536256x
   3.341666 1  10230040x       Rx   d 8 30 00 00 00 30 00 00 00  Length = 4254562 BitCount = 146 ID = 270729280x
   3.343856 1  13FFE099x       Rx   d 0  Length = 2064714 BitCount = 73 ID = 335536281x
   3.350458 1  10800040x       Rx   d 6 00 EC 00 00 00 00  Length = 3688216 BitCount = 127 ID = 276824128x
   3.353458 1  102F0080x       Rx   d 3 12 00 00  Length = 2874630 BitCount = 100 ID = 271515776x
   3.357776 1  10240040x       Rx   d 8 80 00 88 01 00 46 00 00  Length = 4194577 BitCount = 144 ID = 270794816x
   3.366092 1  106B8040x       Rx   d 8 00 00 00 00 00 00 00 00  Length = 4318208 BitCount = 148 ID = 275480640x
   3.375992 1  102CA040x       Rx   d 8 00 00 00 00 4B 00 F1 00  Length = 4194562 BitCount = 144 ID = 271360064x
   3.388645 1  10734099x       Rx   d 6 10 00 00 7D 00 00  Length = 3624586 BitCount = 125 ID = 275988633x
   3.395997 1  10264040x       Rx   d 8 04 0E 00 00 00 00 00 00  Length = 4228208 BitCount = 145 ID = 270942272x
   3.398940 1  10308060x       Rx   d 3 A9 84 01  Length = 2818232 BitCount = 98 ID = 271614048x
   3.406049 1  10210040x       Rx   d 8 00 00 00 00 00 00 00 00  Length = 4284562 BitCount = 147 ID = 270598208x
   3.416105 1  10220040x       Rx   d 8 10 00 00 00 0F FC 00 00  Length = 4348208 BitCount = 149 ID = 270663744x
   3.426039 1  1022E040x       Rx   d 8 00 00 00 00 00 00 00 00  Length = 4318223 BitCount = 148 ID = 270721088x
   3.429247 1  10814099x       Rx   d 4 00 00 00 00  Length = 3084618 BitCount = 107 ID = 276906137x
   3.433055 1  10324058x       Rx   d 6 00 00 07 EF 00 00  Length = 3684586 BitCount = 127 ID = 271728728x
   3.437437 1  10230040x       Rx   d 8 10 00 00 00 10 00 00 00  Length = 4258208 BitCount = 146 ID = 270729280x
   3.439866 1  103D20BCx       Rx   d 1 00  Length = 2304686 BitCount = 81 ID = 272441532x
   3.455983 1  10240040x       Rx   d 8 80 00 88 01 00 46 00 00  Length = 4198208 BitCount = 144 ID = 270794816x
   3.465047 1  102C0040x       Rx   d 5 44 05 A9 84 03  Length = 3328224 BitCount = 115 ID = 271319104x
   3.476061 1  102CA040x       Rx   d 8 00 00 00 00 4B 00 F1 00  Length = 4198208 BitCount = 144 ID = 271360064x
   3.478939 1  10304058x       Rx   d 3 A9 84 01  Length = 2754642 BitCount = 96 ID = 271597656x
   3.487636 1  10306099x       Rx   d 3 A9 84 01  Length = 2724642 BitCount = 95 ID = 271605913x
   3.496010 1  10264040x       Rx   d 8 04 0E 00 00 00 00 00 00  Length = 4228208 BitCount = 145 ID = 270942272x
   3.506064 1  10210040x       Rx   d 8 00 00 00 00 00 00 00 00  Length = 4288208 BitCount = 147 ID = 270598208x
   3.509003 1  10308060x       Rx   d 3 A9 84 01  Length = 2814638 BitCount = 98 ID = 271614048x
   3.513412 1  1022A040x       Rx   d 8 00 B0 00 00 00 00 00 00  Length = 4284573 BitCount = 147 ID = 270704704x
   3.521157 1  10220040x       Rx   d 8 10 00 00 00 0F FC 00 00  Length = 4348208 BitCount = 149 ID = 270663744x
   3.525536 1  1022C040x       Rx   d 6 00 00 00 00 00 00  Length = 3774582 BitCount = 130 ID = 270712896x
   3.531055 1  1022E040x       Rx   d 8 20 00 00 00 20 00 00 00  Length = 4284573 BitCount = 147 ID = 270721088x
   3.536036 1  10230040x       Rx   d 8 30 00 00 00 30 00 00 00  Length = 4254562 BitCount = 146 ID = 270729280x
   3.540500 CAN 1 Status:chip status error active  - TxErr: 0 RxErr: 1
   3.540507 1  ErrorFrame	Flags = 0xfffe	CodeExt = 0x2072	Code = 0x81	ID = 0x90248040	DLC = 7	Position = 112	Length = 3714375	Data = 0  0  0x5f  0xf7  0xf7  0xfb  0
   3.544702 CAN 1 Status:chip status error active
   3.544920 1  10248040x       Rx   d 7 00 00 5F F7 F7 FB 00  Length = 3898212 BitCount = 134 ID = 270827584x
   3.547349 1  103D20BCx       Rx   d 1 00  Length = 2304686 BitCount = 81 ID = 272441532x
   3.550079 1  10250040x       Rx   d 2 00 00  Length = 2604654 BitCount = 91 ID = 270860352x
   3.555990 1  10240040x       Rx   d 8 80 00 88 01 00 46 00 00  Length = 4194577 BitCount = 144 ID = 270794816x
   3.560945 1  102CC040x       Rx   d 8 01 00 CF 00 00 5A 06 8D  Length = 4108223 BitCount = 141 ID = 271368256x
   3.566048 1  102CE040x       Rx   d 8 40 00 32 00 00 00 06 C6  Length = 4198208 BitCount = 144 ID = 271376448x
   3.570997 1  102D0040x       Rx   d 8 01 00 01 00 48 00 00 FF  Length = 4194562 BitCount = 144 ID = 271384640x
   3.576102 1  102CA040x       Rx   d 8 00 00 00 00 4B 00 F1 00  Length = 4198208 BitCount = 144 ID = 271360064x
   3.581025 1  102E0040x       Rx   d 8 00 00 CA 00 89 00 5E 73  Length = 4108212 BitCount = 141 ID = 271450176x
   3.585344 1  10466040x       Rx   d 5 00 00 00 00 00  Length = 3444598 BitCount = 119 ID = 273047616x
   3.591165 1  106B8040x       Rx   d 8 00 00 00 00 00 00 00 00  Length = 4314558 BitCount = 148 ID = 275480640x
   3.593866 1  106D0080x       Rx   d 2 00 00  Length = 2574658 BitCount = 90 ID = 275579008x
   3.598216 1  10264040x       Rx   d 8 04 0E 00 00 00 00 00 00  Length = 4224562 BitCount = 145 ID = 270942272x
   3.602842 1  13FFE068x       Rx   d 0  Length = 2068275 BitCount = 73 ID = 335536232x
   3.607254 1  10210040x       Rx   d 8 00 00 00 00 00 00 00 00  Length = 4288208 BitCount = 147 ID = 270598208x
   3.616167 1  10220040x       Rx   d 8 10 00 00 00 0F FC 00 00  Length = 4348208 BitCount = 149 ID = 270663744x
   3.619107 1  10308060x       Rx   d 3 A9 84 01  Length = 2814638 BitCount = 98 ID = 271614048x
   3.622557 1  106C0040x       Rx   d 5 00 03 D1 C6 00  Length = 3324602 BitCount = 115 ID = 275513408x
   3.631109 1  1022E040x       Rx   d 8 00 00 00 00 00 00 00 00  Length = 4314558 BitCount = 148 ID = 270721088x
   3.636153 1  10230040x       Rx   d 8 10 00 00 00 10 00 00 00  Length = 4258208 BitCount = 146 ID = 270729280x
   3.639936 1  1077C040x       Rx   d 4 30 30 01 F4  Length = 3148224 BitCount = 109 ID = 276283456x
   3.646206 1  10780040x       Rx   d 8 00 00 01 00 08 00 00 00  Length = 4314558 BitCount = 148 ID = 276299840x
   3.650586 1  10788040x       Rx   d 6 08 00 00 00 00 00  Length = 3774582 BitCount = 130 ID = 276332608x
   3.655830 CAN 1 Status:chip status error active  - TxErr: 0 RxErr: 1
   3.655837 1  ErrorFrame	Flags = 0xfffe	CodeExt = 0x2072	Code = 0x81	ID = 0x90240040	DLC = 8	Position = 120	Length = 4014375	Data = 0x80  0  0x88  0x1  0  0x46  0  0
   3.660329 CAN 1 Status:chip status error active
   3.660546 1  10240040x       Rx   d 8 80 00 88 01 00 46 00 00  Length = 4194562 BitCount = 144 ID = 270794816x
   3.662976 1  103D20BCx       Rx   d 1 00  Length = 2304697 BitCount = 81 ID = 272441532x
   3.666791 1  10800040x       Rx   d 6 00 EC 00 00 00 00  Length = 3688216 BitCount = 127 ID = 276824128x
   3.676065 1  102CA040x       Rx   d 8 00 00 00 00 4B 00 F1 00  Length = 4198208 BitCount = 144 ID = 271360064x
   3.680268 1  10806040x       Rx   d 5 00 00 00 00 19  Length = 3418220 BitCount = 118 ID = 276848704x
   3.683867 1  13FFE040x       Rx   d 0  Length = 2064714 BitCount = 73 ID = 335536192x
   3.696049 1  10264040x       Rx   d 8 04 0E 00 00 00 00 00 00  Length = 4224562 BitCount = 145 ID = 270942272x
   3.706105 1  10210040x       Rx   d 8 00 00 00 00 00 00 00 00  Length = 4288223 BitCount = 147 ID = 270598208x
   3.716159 1  10220040x       Rx   d 8 10 00 00 00 0F FC 00 00  Length = 4348208 BitCount = 149 ID = 270663744x
   3.726062 1  1022E040x       Rx   d 8 20 00 00 00 20 00 00 00  Length = 4288208 BitCount = 147 ID = 270721088x
   3.729001 1  10308060x       Rx   d 3 A9 84 01  Length = 2814638 BitCount = 98 ID = 271614048x
   3.736111 1  10230040x       Rx   d 8 30 00 00 00 30 00 00 00  Length = 4254562 BitCount = 146 ID = 270729280x
   3.756155 1  1022A040x       Rx   d 8 00 B0 00 00 00 00 00 00  Length = 4284562 BitCount = 147 ID = 270704704x
   3.760596 1  1022C040x       Rx   d 6 00 00 00 00 00 00  Length = 3774582 BitCount = 130 ID = 270712896x
   3.766060 1  10240040x       Rx   d 8 83 FF 88 01 00 46 00 00  Length = 4198208 BitCount = 144 ID = 270794816x
   3.768493 1  103D20BCx       Rx   d 1 00  Length = 2308248 BitCount = 81 ID = 272441532x
   3.771942 1  102C0040x       Rx   d 5 44 05 A9 84 03  Length = 3324602 BitCount = 115 ID = 271319104x
   3.781157 1  102CA040x       Rx   d 8 00 00 00 00 4B 00 F1 00  Length = 4198208 BitCount = 144 ID = 271360064x
   3.784636 1  10304058x       Rx   d 3 A9 84 01  Length = 2754642 BitCount = 96 ID = 271597656x
   3.788867 1  102CC040x       Rx   d 8 01 00 CF 00 00 5A 06 8D  Length = 4104581 BitCount = 141 ID = 271368256x
   3.791719 1  10306099x       Rx   d 3 A9 84 01  Length = 2724642 BitCount = 95 ID = 271605913x
   3.796068 1  10264040x       Rx   d 8 04 0E 00 00 00 00 00 00  Length = 4224562 BitCount = 145 ID = 270942272x
   3.801079 1  102CE040x       Rx   d 8 40 00 32 00 00 00 06 C6  Length = 4194577 BitCount = 144 ID = 271376448x
   3.806154 1  10210040x       Rx   d 8 00 00 00 00 00 00 00 00  Length = 4288208 BitCount = 147 ID = 270598208x
   3.811163 1  106B8040x       Rx   d 8 00 00 00 00 00 00 00 00  Length = 4314558 BitCount = 148 ID = 275480640x
   3.816208 1  10220040x       Rx   d 8 10 00 00 00 0F FC 00 00  Length = 4348208 BitCount = 149 ID = 270663744x
   3.826112 1  1022E040x       Rx   d 8 00 00 00 00 00 00 00 00  Length = 4318208 BitCount = 148 ID = 270721088x
   3.831275 1  10780040x       Rx   d 8 00 00 01 00 08 00 00 00  Length = 4318223 BitCount = 148 ID = 276299840x
   3.836284 1  10230040x       Rx   d 8 10 00 00 00 10 00 00 00  Length = 4254562 BitCount = 146 ID = 270729280x
   3.839229 1  10308060x       Rx   d 3 A9 84 01  Length = 2818232 BitCount = 98 ID = 271614048x
   3.843037 1  10800040x       Rx   d 6 00 EC 00 00 00 00  Length = 3684586 BitCount = 127 ID = 276824128x
   3.856060 1  10240040x       Rx   d 8 80 00 88 01 00 46 0F FC  Length = 4194562 BitCount = 144 ID = 270794816x
   3.876103 1  102CA040x       Rx   d 8 00 00 00 00 4B 00 F1 00  Length = 4194562 BitCount = 144 ID = 271360064x
   3.878535 1  103D20BCx       Rx   d 1 00  Length = 2308248 BitCount = 81 ID = 272441532x
   3.888401 1  10734099x       Rx   d 6 10 00 00 7D 00 00  Length = 3624586 BitCount = 125 ID = 275988633x
   3.896081 1  10264040x       Rx   d 8 04 0E 00 00 00 00 00 00  Length = 4224577 BitCount = 145 ID = 270942272x
   3.906167 1  10210040x       Rx   d 8 00 00 00 00 00 00 00 00  Length = 4288223 BitCount = 147 ID = 270598208x
   3.916101 1  10220040x       Rx   d 8 10 00 00 00 0F FB 00 00  Length = 4258208 BitCount = 146 ID = 270663744x
   3.926121 1  1022E040x       Rx   d 8 20 00 00 00 20 00 00 00  Length = 4284562 BitCount = 147 ID = 270721088x
   3.936117 1  10230040x       Rx   d 8 30 00 00 00 30 00 00 00  Length = 4258208 BitCount = 146 ID = 270729280x
   3.941635 1  624             Rx   d 8 00 20 00 00 00 00 00 00  Length = 3624586 BitCount = 125 ID = 1572
   3.945389 1  621             Rx   d 8 00 52 00 00 00 00 00 00  Length = 3598216 BitCount = 124 ID = 1569
   3.949408 1  62C             Rx   d 8 00 40 00 00 00 00 00 00  Length = 3624586 BitCount = 125 ID = 1580
   3.952351 1  10308060x       Rx   d 3 A9 84 01  Length = 2818247 BitCount = 98 ID = 271614048x
   3.956703 1  10240040x       Rx   d 8 83 FF 88 01 00 46 0F FC  Length = 4228208 BitCount = 145 ID = 270794816x
   3.961206 1  106B8040x       Rx   d 8 00 00 00 00 00 00 00 00  Length = 4318208 BitCount = 148 ID = 275480640x
   3.964865 1  108E0080x       Rx   d 6 10 05 11 01 45 7B  Length = 3534590 BitCount = 122 ID = 277741696x
   3.976147 1  102CA040x       Rx   d 8 00 00 00 00 4B 00 F1 00  Length = 4194562 BitCount = 144 ID = 271360064x
   3.986897 1  103D20BCx       Rx   d 1 00  Length = 2308248 BitCount = 81 ID = 272441532x
   3.996107 1  10264040x       Rx   d 8 04 0E 00 00 00 00 00 00  Length = 4224562 BitCount = 145 ID = 270942272x
   4.001635 1  Statistic: D 3 R 0 XD 156 XR 0 E 9 O 0 B 64.74%
   4.001635 2  Statistic: D 0 R 0 XD 0 XR 0 E 0 O 0 B 0.00%
   4.006162 1  10210040x       Rx   d 8 00 00 00 00 00 00 00 00  Length = 4288208 BitCount = 147 ID = 270598208x
   4.009042 1  10424060x       Rx   d 3 04 86 8B  Length = 2754642 BitCount = 96 ID = 272777312x
   4.013450 1  1022A040x       Rx   d 8 00 B0 00 00 00 00 00 00  Length = 4284573 BitCount = 147 ID = 270704704x
   4.021165 1  10220040x       Rx   d 8 10 00 00 00 0F FB 00 00  Length = 4258208 BitCount = 146 ID = 270663744x
   4.025698 1  1022C040x       Rx   d 6 00 00 00 00 00 00  Length = 3778231 BitCount = 130 ID = 270712896x
   4.031187 1  1022E040x       Rx   d 8 00 00 00 00 00 00 00 00  Length = 4314558 BitCount = 148 ID = 270721088x
   4.036112 1  10230040x       Rx   d 8 10 00 00 00 10 00 00 00  Length = 4258208 BitCount = 146 ID = 270729280x
   4.040855 1  10248040x       Rx   d 7 00 00 5F F7 F7 FA 00  Length = 3958227 BitCount = 136 ID = 270827584x
   4.046044 1  102CC040x       Rx   d 8 01 00 CF 00 00 5B 06 8D  Length = 4104566 BitCount = 141 ID = 271368256x
   4.051115 1  102CE040x       Rx   d 8 40 00 32 00 00 00 06 C6  Length = 4194562 BitCount = 144 ID = 271376448x
   4.056098 1  10240040x       Rx   d 8 80 00 88 01 00 46 0F FC  Length = 4194562 BitCount = 144 ID = 270794816x
   4.059043 1  10308060x       Rx   d 3 A9 84 01  Length = 2818247 BitCount = 98 ID = 271614048x
   4.063365 1  102D0040x       Rx   d 8 01 00 01 00 48 00 00 FF  Length = 4198208 BitCount = 144 ID = 271384640x
   4.070175 1  102C0040x       Rx   d 5 44 05 A9 84 03  Length = 3324602 BitCount = 115 ID = 271319104x
   4.076150 1  102CA040x       Rx   d 8 00 00 00 00 4B 00 F1 00  Length = 4198208 BitCount = 144 ID = 271360064x
   4.081309 1  10780040x       Rx   d 8 00 00 01 00 08 00 00 00  Length = 4314558 BitCount = 148 ID = 276299840x
   4.084485 1  10304058x       Rx   d 3 A9 84 01  Length = 2751048 BitCount = 96 ID = 271597656x
   4.088390 1  10788040x       Rx   d 6 08 00 00 00 00 00  Length = 3778231 BitCount = 130 ID = 276332608x
   4.091238 1  10306099x       Rx   d 3 A9 84 01  Length = 2724657 BitCount = 95 ID = 271605913x
   4.096134 1  10264040x       Rx   d 8 04 0E 00 00 00 00 00 00  Length = 4228208 BitCount = 145 ID = 270942272x
   4.098565 1  103D20BCx       Rx   d 1 00  Length = 2308263 BitCount = 81 ID = 272441532x
   4.102377 1  10800040x       Rx   d 6 00 EC 00 00 00 00  Length = 3688216 BitCount = 127 ID = 276824128x
   4.111197 1  10210040x       Rx   d 8 00 00 00 00 00 00 00 00  Length = 4284562 BitCount = 147 ID = 270598208x
   4.116211 1  10220040x       Rx   d 8 10 00 00 00 0F FD 00 00  Length = 4288208 BitCount = 147 ID = 270663744x
   4.120354 1  10806040x       Rx   d 5 00 00 00 00 19  Length = 3418220 BitCount = 118 ID = 276848704x
   4.126144 1  1022E040x       Rx   d 8 20 00 00 00 20 00 00 00  Length = 4284562 BitCount = 147 ID = 270721088x
   4.136257 1  10230040x       Rx   d 8 30 00 00 00 30 00 00 00  Length = 4254562 BitCount = 146 ID = 270729280x
   4.156155 1  10240040x       Rx   d 8 83 FF 88 01 00 46 0F FC  Length = 4228208 BitCount = 145 ID = 270794816x
   4.161224 1  106B8040x       Rx   d 8 00 00 00 00 00 00 00 00  Length = 4314558 BitCount = 148 ID = 275480640x
   4.168605 1  10308060x       Rx   d 3 A9 84 01  Length = 2814638 BitCount = 98 ID = 271614048x
   4.176169 1  102CA040x       Rx   d 8 00 00 00 00 4B 00 F1 00  Length = 4198208 BitCount = 144 ID = 271360064x
   4.190770 1  13FFE0AFx       Rx   d 0  Length = 2064729 BitCount = 73 ID = 335536303x
   4.196141 1  10264040x       Rx   d 8 04 0E 00 00 00 00 00 00  Length = 4224562 BitCount = 145 ID = 270942272x
   4.206227 1  10210040x       Rx   d 8 00 00 00 00 00 00 00 00  Length = 4288208 BitCount = 147 ID = 270598208x
   4.208469 CAN 1 Status:chip status error active  - TxErr: 0 RxErr: 1
   4.208477 1  ErrorFrame	Flags = 0xfffe	CodeExt = 0x2072	Code = 0x81	ID = 0x903d20bc	DLC = 1	Position = 64	Length = 2124390	Data = 0
   4.211081 CAN 1 Status:chip status error active
   4.211299 1  103D20BCx       Rx   d 1 00  Length = 2308263 BitCount = 81 ID = 272441532x
   4.216251 1  10220040x       Rx   d 8 10 00 00 00 0F FC 00 00  Length = 4348208 BitCount = 149 ID = 270663744x
   4.226214 1  1022E040x       Rx   d 8 00 00 00 00 00 00 00 00  Length = 4318208 BitCount = 148 ID = 270721088x
   4.233774 1  13FFE058x       Rx   d 0  Length = 2098256 BitCount = 74 ID = 335536216x
   4.238153 1  10230040x       Rx   d 8 10 00 00 00 10 00 00 00  Length = 4254562 BitCount = 146 ID = 270729280x
   4.256246 1  1022A040x       Rx   d 8 00 B0 00 00 00 00 00 00  Length = 4284573 BitCount = 147 ID = 270704704x
   4.260687 1  1022C040x       Rx   d 6 00 00 00 00 00 00  Length = 3774593 BitCount = 130 ID = 270712896x
   4.265961 CAN 1 Status:chip status error active  - TxErr: 0 RxErr: 1
   4.265968 1  ErrorFrame	Flags = 0xfffe	CodeExt = 0x2072	Code = 0x81	ID = 0x90240040	DLC = 8	Position = 120	Length = 4014375	Data = 0x80  0  0x88  0x1  0  0x46  0  0
   4.270459 CAN 1 Status:chip status error active
   4.270676 1  10240040x       Rx   d 8 80 00 88 01 00 46 00 00  Length = 4194562 BitCount = 144 ID = 270794816x
   4.272840 1  13FFE0BBx       Rx   d 0  Length = 2038260 BitCount = 72 ID = 335536315x
   4.277162 1  102CA040x       Rx   d 8 00 00 00 00 4B 00 F1 00  Length = 4198208 BitCount = 144 ID = 271360064x
   4.280101 1  10308060x       Rx   d 3 A9 84 01  Length = 2814638 BitCount = 98 ID = 271614048x
   4.282294 1  13FFE0BCx       Rx   d 0  Length = 2068260 BitCount = 73 ID = 335536316x
   4.286526 1  102CC040x       Rx   d 8 01 00 CF 00 00 5C 06 8D  Length = 4108212 BitCount = 141 ID = 271368256x
   4.296156 1  10264040x       Rx   d 8 04 0E 00 00 00 00 00 00  Length = 4224562 BitCount = 145 ID = 270942272x
   4.301197 1  102CE040x       Rx   d 8 40 00 32 00 00 00 06 C6  Length = 4194562 BitCount = 144 ID = 271376448x
   4.306242 1  10210040x       Rx   d 8 00 00 00 00 00 00 00 00  Length = 4288208 BitCount = 147 ID = 270598208x
   4.316206 1  10220040x       Rx   d 8 10 00 00 00 0F FB 00 00  Length = 4258208 BitCount = 146 ID = 270663744x
   4.318636 1  103D20BCx       Rx   d 1 00  Length = 2304686 BitCount = 81 ID = 272441532x
   4.326198 1  1022E040x       Rx   d 8 20 00 00 00 20 00 00 00  Length = 4284562 BitCount = 147 ID = 270721088x
   4.331359 1  10780040x       Rx   d 8 00 00 01 00 08 00 00 00  Length = 4314573 BitCount = 148 ID = 276299840x
   4.336164 1  10230040x       Rx   d 8 30 00 00 00 30 00 00 00  Length = 4258223 BitCount = 146 ID = 270729280x
   4.340633 1  10800040x       Rx   d 6 00 EC 00 00 00 00  Length = 3684586 BitCount = 127 ID = 276824128x
   4.356149 1  10240040x       Rx   d 8 80 00 88 01 00 46 00 00  Length = 4198208 BitCount = 144 ID = 270794816x
   4.361279 1  106B8040x       Rx   d 8 00 00 00 00 00 00 00 00  Length = 4314558 BitCount = 148 ID = 275480640x
   4.365243 1  102C0040x       Rx   d 5 44 05 A9 84 03  Length = 3328224 BitCount = 115 ID = 271319104x
   4.374358 1  10304058x       Rx   d 3 A9 84 01  Length = 2754657 BitCount = 96 ID = 271597656x
   4.378676 1  102CA040x       Rx   d 8 00 00 00 00 4B 00 F1 00  Length = 4194562 BitCount = 144 ID = 271360064x
   4.387134 1  10306099x       Rx   d 3 A9 84 01  Length = 2724642 BitCount = 95 ID = 271605913x
   4.390075 1  10308060x       Rx   d 3 A9 84 01  Length = 2818247 BitCount = 98 ID = 271614048x
   4.393823 1  10734099x       Rx   d 6 10 00 00 7D 00 00  Length = 3624586 BitCount = 125 ID = 275988633x
   4.398176 1  10264040x       Rx   d 8 04 0E 00 00 00 00 00 00  Length = 4228223 BitCount = 145 ID = 270942272x
   4.406249 1  10210040x       Rx   d 8 00 00 00 00 00 00 00 00  Length = 4288223 BitCount = 147 ID = 270598208x
   4.416303 1  10220040x       Rx   d 8 10 00 00 00 0F FC 00 00  Length = 4348223 BitCount = 149 ID = 270663744x
   4.426233 1  1022E040x       Rx   d 8 00 00 00 00 00 00 00 00  Length = 4314558 BitCount = 148 ID = 270721088x
   4.428663 1  103D20BCx       Rx   d 1 00  Length = 2304686 BitCount = 81 ID = 272441532x
   4.436259 1  10230040x       Rx   d 8 10 00 00 00 10 00 00 00  Length = 4258208 BitCount = 146 ID = 270729280x
   4.456151 1  10240040x       Rx   d 8 80 00 88 01 00 46 00 00  Length = 4194562 BitCount = 144 ID = 270794816x
   4.476225 1  102CA040x       Rx   d 8 00 00 00 00 4B 00 F1 00  Length = 4194577 BitCount = 144 ID = 271360064x
   4.496208 1  10264040x       Rx   d 8 04 0E 00 00 00 00 00 00  Length = 4224562 BitCount = 145 ID = 270942272x
   4.499154 1  10308060x       Rx   d 3 A9 84 01  Length = 2818232 BitCount = 98 ID = 271614048x
   4.506262 1  10210040x       Rx   d 8 00 00 00 00 00 00 00 00  Length = 4284573 BitCount = 147 ID = 270598208x
   4.511307 1  1022A040x       Rx   d 8 00 B0 00 00 00 00 00 00  Length = 4288223 BitCount = 147 ID = 270704704x
   4.516350 1  10220040x       Rx   d 8 10 00 00 00 0F FC 00 00  Length = 4348208 BitCount = 149 ID = 270663744x
   4.520729 1  1022C040x       Rx   d 6 00 00 00 00 00 00  Length = 3774582 BitCount = 130 ID = 270712896x
   4.526218 1  1022E040x       Rx   d 8 20 00 00 00 20 00 00 00  Length = 4284573 BitCount = 147 ID = 270721088x
   4.528442 1  13FFE060x       Rx   d 0  Length = 2098256 BitCount = 74 ID = 335536224x
   4.532524 1  10248040x       Rx   d 7 00 00 5F F7 F7 FA 00  Length = 3958227 BitCount = 136 ID = 270827584x
   4.534713 1  13FFE080x       Rx   d 0  Length = 2064714 BitCount = 73 ID = 335536256x
   4.536905 1  13FFE099x       Rx   d 0  Length = 2068260 BitCount = 73 ID = 335536281x
   4.541283 1  10230040x       Rx   d 8 30 00 00 00 30 00 00 00  Length = 4254562 BitCount = 146 ID = 270729280x
   4.543717 1  103D20BCx       Rx   d 1 00  Length = 2308248 BitCount = 81 ID = 272441532x
   4.546446 1  10250040x       Rx   d 2 00 00  Length = 2604669 BitCount = 91 ID = 270860352x
   4.551131 1  102CC040x       Rx   d 8 01 00 CF 00 00 5C 06 8D  Length = 4108212 BitCount = 141 ID = 271368256x
   4.556230 1  10240040x       Rx   d 8 80 00 88 01 00 46 00 00  Length = 4194577 BitCount = 144 ID = 270794816x
   4.561245 1  102CE040x       Rx   d 8 40 00 32 00 00 00 06 C6  Length = 4198208 BitCount = 144 ID = 271376448x
   4.566198 1  102D0040x       Rx   d 8 01 00 01 00 48 00 00 FF  Length = 4198208 BitCount = 144 ID = 271384640x
   4.571207 1  102E0040x       Rx   d 8 00 00 CA 00 89 00 5E 73  Length = 4104566 BitCount = 141 ID = 271450176x
   4.576342 1  102CA040x       Rx   d 8 00 00 00 00 4B 00 F1 00  Length = 4198223 BitCount = 144 ID = 271360064x
   4.581351 1  106B8040x       Rx   d 8 00 00 00 00 00 00 00 00  Length = 4314558 BitCount = 148 ID = 275480640x
   4.585436 1  106C0040x       Rx   d 5 00 03 D1 C6 00  Length = 3328224 BitCount = 115 ID = 275513408x
   4.590148 1  1077C040x       Rx   d 4 30 30 01 F4  Length = 3148224 BitCount = 109 ID = 276283456x
   4.596238 1  10264040x       Rx   d 8 04 0E 00 00 00 00 00 00  Length = 4224577 BitCount = 145 ID = 270942272x
   4.601402 1  10780040x       Rx   d 8 00 00 01 00 08 00 00 00  Length = 4318208 BitCount = 148 ID = 276299840x
   4.606295 1  10210040x       Rx   d 8 00 00 00 00 00 00 00 00  Length = 4288208 BitCount = 147 ID = 270598208x
   4.609238 1  10308060x       Rx   d 3 A9 84 01  Length = 2818232 BitCount = 98 ID = 271614048x
   4.613141 1  10788040x       Rx   d 6 08 00 00 00 00 00  Length = 3778216 BitCount = 130 ID = 276332608x
   4.621364 1  10220040x       Rx   d 8 10 00 00 00 0F FC 00 00  Length = 4348208 BitCount = 149 ID = 270663744x
   4.626317 1  1022E040x       Rx   d 8 00 00 00 00 00 00 00 00  Length = 4318208 BitCount = 148 ID = 270721088x
   4.630726 1  10800040x       Rx   d 6 00 EC 00 00 00 00  Length = 3684586 BitCount = 127 ID = 276824128x
   4.636401 1  10230040x       Rx   d 8 10 00 00 00 10 00 00 00  Length = 4258223 BitCount = 146 ID = 270729280x
   4.640424 1  10806040x       Rx   d 5 00 00 00 00 19  Length = 3418220 BitCount = 118 ID = 276848704x
   4.647511 1  103D20BCx       Rx   d 1 00  Length = 2308248 BitCount = 81 ID = 272441532x
   4.656211 1  10240040x       Rx   d 8 80 00 88 01 00 46 00 00  Length = 4194562 BitCount = 144 ID = 270794816x
   4.665277 1  102C0040x       Rx   d 5 44 05 A9 84 03  Length = 3328224 BitCount = 115 ID = 271319104x
   4.674211 1  10304058x       Rx   d 3 A9 84 01  Length = 2754657 BitCount = 96 ID = 271597656x
   4.678532 1  102CA040x       Rx   d 8 00 00 00 00 4B 00 F1 00  Length = 4194562 BitCount = 144 ID = 271360064x
   4.686865 1  10306099x       Rx   d 3 A9 84 01  Length = 2721067 BitCount = 95 ID = 271605913x
   4.696231 1  10264040x       Rx   d 8 04 0E 00 00 00 00 00 00  Length = 4228208 BitCount = 145 ID = 270942272x
   4.706315 1  10210040x       Rx   d 8 00 00 00 00 00 00 00 00  Length = 4288208 BitCount = 147 ID = 270598208x
   4.716369 1  10220040x       Rx   d 8 10 00 00 00 0F FC 00 00  Length = 4348208 BitCount = 149 ID = 270663744x
   4.719311 1  10308060x       Rx   d 3 A9 84 01  Length = 2818232 BitCount = 98 ID = 271614048x
   4.726271 1  1022E040x       Rx   d 8 20 00 00 00 20 00 00 00  Length = 4284562 BitCount = 147 ID = 270721088x
   4.736326 1  10230040x       Rx   d 8 30 00 00 00 30 00 00 00  Length = 4258208 BitCount = 146 ID = 270729280x
   4.756338 1  1022A040x       Rx   d 8 00 B0 00 00 00 00 00 00  Length = 4284562 BitCount = 147 ID = 270704704x
   4.758773 1  103D20BCx       Rx   d 1 00  Length = 2308248 BitCount = 81 ID = 272441532x
   4.762675 1  1022C040x       Rx   d 6 00 00 00 00 00 00  Length = 3778216 BitCount = 130 ID = 270712896x
   4.771229 1  10240040x       Rx   d 8 83 FF 88 01 00 46 00 00  Length = 4198208 BitCount = 144 ID = 270794816x
   4.776358 1  102CA040x       Rx   d 8 00 00 00 00 4B 00 F1 00  Length = 4194562 BitCount = 144 ID = 271360064x
   4.781373 1  106B8040x       Rx   d 8 00 00 00 00 00 00 00 00  Length = 4318223 BitCount = 148 ID = 275480640x
   4.786206 1  102CC040x       Rx   d 8 01 00 CF 00 00 5D 06 8D  Length = 4108212 BitCount = 141 ID = 271368256x
   4.790705 1  106D0080x       Rx   d 2 00 00  Length = 2574658 BitCount = 90 ID = 275579008x
   4.796258 1  10264040x       Rx   d 8 04 0E 00 00 00 00 00 00  Length = 4228223 BitCount = 145 ID = 270942272x
   4.801271 1  102CE040x       Rx   d 8 40 00 32 00 00 00 06 C6  Length = 4198223 BitCount = 144 ID = 271376448x
   4.803460 1  13FFE068x       Rx   d 0  Length = 2064714 BitCount = 73 ID = 335536232x
   4.807868 1  10210040x       Rx   d 8 00 00 00 00 00 00 00 00  Length = 4284562 BitCount = 147 ID = 270598208x
   4.816390 1  10220040x       Rx   d 8 10 00 00 00 0F FC 00 00  Length = 4344573 BitCount = 149 ID = 270663744x
   4.819067 1  13FFE040x       Rx   d 0  Length = 2068260 BitCount = 73 ID = 335536192x
   4.826326 1  1022E040x       Rx   d 8 00 00 00 00 00 00 00 00  Length = 4314573 BitCount = 148 ID = 270721088x
   4.829271 1  10308060x       Rx   d 3 A9 84 01  Length = 2818232 BitCount = 98 ID = 271614048x
   4.833709 1  10780040x       Rx   d 8 00 00 01 00 08 00 00 00  Length = 4314558 BitCount = 148 ID = 276299840x
   4.841275 1  10230040x       Rx   d 8 10 00 00 00 10 00 00 00  Length = 4258223 BitCount = 146 ID = 270729280x
   4.845744 1  10800040x       Rx   d 6 00 EC 00 00 00 00  Length = 3684586 BitCount = 127 ID = 276824128x
   4.856279 1  10240040x       Rx   d 8 83 FF 88 01 00 46 0F FC  Length = 4228208 BitCount = 145 ID = 270794816x
   4.867656 1  103D20BCx       Rx   d 1 00  Length = 2304686 BitCount = 81 ID = 272441532x
   4.876297 1  102CA040x       Rx   d 8 00 00 00 00 4B 00 F1 00  Length = 4194562 BitCount = 144 ID = 271360064x
   4.887602 1  10734099x       Rx   d 6 10 00 00 7D 00 00  Length = 3624586 BitCount = 125 ID = 275988633x
   4.896271 1  10264040x       Rx   d 8 04 0E 00 00 00 00 00 00  Length = 4224562 BitCount = 145 ID = 270942272x
   4.906355 1  10210040x       Rx   d 8 00 00 00 00 00 00 00 00  Length = 4284562 BitCount = 147 ID = 270598208x
   4.916383 1  10220040x       Rx   d 8 10 00 00 00 0F FC 00 00  Length = 4348223 BitCount = 149 ID = 270663744x
   4.926317 1  1022E040x       Rx   d 8 20 00 00 00 20 00 00 00  Length = 4288223 BitCount = 147 ID = 270721088x
   4.936341 1  10230040x       Rx   d 8 30 00 00 00 30 00 00 00  Length = 4258208 BitCount = 146 ID = 270729280x
   4.939280 1  10308060x       Rx   d 3 A9 84 01  Length = 2814638 BitCount = 98 ID = 271614048x
   4.945579 1  621             Rx   d 8 00 52 00 00 00 00 00 00  Length = 3594590 BitCount = 124 ID = 1569
   4.956295 1  10240040x       Rx   d 8 80 00 88 01 00 46 0F FC  Length = 4198208 BitCount = 144 ID = 270794816x
   4.961398 1  106B8040x       Rx   d 8 00 00 00 00 00 00 00 00  Length = 4318208 BitCount = 148 ID = 275480640x
   4.965360 1  102C0040x       Rx   d 5 44 05 A9 84 03  Length = 3328224 BitCount = 115 ID = 271319104x
   4.971719 1  108E0080x       Rx   d 6 10 05 11 01 45 80  Length = 3564590 BitCount = 123 ID = 277741696x
   4.974600 1  10304058x       Rx   d 3 A9 84 01  Length = 2754642 BitCount = 96 ID = 271597656x
   4.978917 1  102CA040x       Rx   d 8 00 00 00 00 4B 00 F1 00  Length = 4194562 BitCount = 144 ID = 271360064x
   4.981351 1  103D20BCx       Rx   d 1 00  Length = 2308248 BitCount = 81 ID = 272441532x
   4.986689 1  10306099x       Rx   d 3 A9 84 01  Length = 2724642 BitCount = 95 ID = 271605913x
   4.996294 1  10264040x       Rx   d 8 04 0E 00 00 00 00 00 00  Length = 4228208 BitCount = 145 ID = 270942272x
   5.001635 1  Statistic: D 1 R 0 XD 155 XR 0 E 2 O 0 B 60.64%
   5.001635 2  Statistic: D 0 R 0 XD 0 XR 0 E 0 O 0 B 0.00%
   5.006378 1  10210040x       Rx   d 8 00 00 00 00 00 00 00 00  Length = 4288208 BitCount = 147 ID = 270598208x
   5.011387 1  1022A040x       Rx   d 8 00 B0 00 00 00 00 00 00  Length = 4284562 BitCount = 147 ID = 270704704x
   5.016342 1  10220040x       Rx   d 8 10 00 00 00 0F FB 00 00  Length = 4258208 BitCount = 146 ID = 270663744x
   5.020841 1  1022C040x       Rx   d 6 00 00 00 00 00 00  Length = 3774582 BitCount = 130 ID = 270712896x
   5.026366 1  1022E040x       Rx   d 8 00 00 00 00 00 00 00 00  Length = 4318208 BitCount = 148 ID = 270721088x
   5.029369 1  10242040x       Rx   d 1 01  Length = 2308248 BitCount = 81 ID = 270803008x
   5.036302 1  10230040x       Rx   d 8 10 00 00 00 10 00 00 00  Length = 4258208 BitCount = 146 ID = 270729280x
   5.041045 1  10248040x       Rx   d 7 00 00 5F F7 F7 FA 00  Length = 3958212 BitCount = 136 ID = 270827584x
   5.046264 1  102CC040x       Rx   d 8 01 00 CF 00 00 5E 06 8D  Length = 4134566 BitCount = 142 ID = 271368256x
   5.049209 1  10308060x       Rx   d 3 A9 84 01  Length = 2818232 BitCount = 98 ID = 271614048x
   5.053531 1  102CE040x       Rx   d 8 40 00 32 00 00 00 06 C6  Length = 4198208 BitCount = 144 ID = 271376448x
   5.061301 1  10240040x       Rx   d 8 83 FF 88 01 00 46 00 00  Length = 4194562 BitCount = 144 ID = 270794816x
   5.066286 1  102D0040x       Rx   d 8 01 00 01 00 48 00 00 FF  Length = 4198208 BitCount = 144 ID = 271384640x
   5.070515 1  10806040x       Rx   d 5 00 00 00 00 19  Length = 3414598 BitCount = 118 ID = 276848704x
   5.076340 1  102CA040x       Rx   d 8 00 00 00 00 4B 00 F1 00  Length = 4198223 BitCount = 144 ID = 271360064x
