date Tue Sep 20 04:14:26.496 pm 2016
base hex  timestamps absolute
internal events logged
// version 9.0.0
Begin Triggerblock Tue Sep 20 04:14:26.496 pm 2016
   0.000000 Start of measurement
   0.002212 Li SleepModeEvent 0 starting up in wake mode
   0.017068 1  10264040x       Rx   d 8 04 06 00 00 00 00 00 3C  Length = 4194562 BitCount = 144 ID = 270942272x
   0.020163 1  106B0040x       Rx   d 1 00  Length = 2308263 BitCount = 81 ID = 275447872x
   0.027217 1  10210040x       Rx   d 8 00 00 00 00 00 00 00 00  Length = 4288208 BitCount = 147 ID = 270598208x
   0.033666 1  10734099x       Rx   d 6 24 43 00 7D 00 00  Length = 3534590 BitCount = 122 ID = 275988633x
   0.038081 1  10220040x       Rx   d 8 10 00 00 00 00 05 00 00  Length = 4288208 BitCount = 147 ID = 270663744x
   0.040335 1  13FFE058x       Rx   d 0  Length = 2098256 BitCount = 74 ID = 335536216x
   0.047147 1  1022E040x       Rx   d 8 20 00 00 00 20 00 00 00  Length = 4288208 BitCount = 147 ID = 270721088x
   0.049552 CAN 1 Status:chip status error active
   0.049552 CAN 2 Status:chip status error active
   0.049552 CAN 3 Status:chip status error active
   0.057142 1  10230040x       Rx   d 8 30 00 00 00 30 00 00 00  Length = 4258208 BitCount = 146 ID = 270729280x
   0.077095 1  1022A040x       Rx   d 8 00 B0 00 12 42 00 00 22  Length = 4134566 BitCount = 142 ID = 270704704x
   0.081570 1  1022C040x       Rx   d 6 00 10 00 20 00 00  Length = 3688216 BitCount = 127 ID = 270712896x
   0.087335 1  10240040x       Rx   d 8 83 FE 88 01 01 2C 0F FC  Length = 4258208 BitCount = 146 ID = 270794816x
   0.092229 1  106B8040x       Rx   d 8 00 00 00 00 00 00 00 00  Length = 4318208 BitCount = 148 ID = 275480640x
   0.096816 1  10248040x       Rx   d 7 00 00 6C D2 CC 1F 00  Length = 3894589 BitCount = 134 ID = 270827584x
   0.102131 1  102CA040x       Rx   d 8 00 40 0C BA 2C 00 F1 00  Length = 4168208 BitCount = 143 ID = 271360064x
   0.107026 1  102CC040x       Rx   d 8 00 09 CF 67 00 87 06 AD  Length = 4048212 BitCount = 139 ID = 271368256x
   0.117111 1  10264040x       Rx   d 8 04 06 00 00 00 00 00 28  Length = 4198208 BitCount = 144 ID = 270942272x
   0.122092 1  102CE040x       Rx   d 8 90 00 66 7F 00 00 26 AE  Length = 4138208 BitCount = 142 ID = 271376448x
   0.127251 1  10210040x       Rx   d 8 00 00 00 00 00 00 00 00  Length = 4284573 BitCount = 147 ID = 270598208x
   0.137248 1  10220040x       Rx   d 8 10 00 00 00 00 08 00 00  Length = 4318208 BitCount = 148 ID = 270663744x
   0.140191 1  106B0040x       Rx   d 1 00  Length = 2308248 BitCount = 81 ID = 275447872x
   0.147216 1  1022E040x       Rx   d 8 00 00 00 00 00 00 00 00  Length = 4318208 BitCount = 148 ID = 270721088x
   0.152257 1  10780040x       Rx   d 8 00 00 01 04 08 00 00 22  Length = 4284562 BitCount = 147 ID = 276299840x
   0.156549 1  C800040x        Rx   d 6 08 CB 00 00 8C E3  Length = 3594590 BitCount = 124 ID = 209715264x
   0.162163 1  10230040x       Rx   d 8 10 00 00 00 10 00 00 00  Length = 4258208 BitCount = 146 ID = 270729280x
   0.172422 1  13FFE0AFx       Rx   d 0  Length = 2064714 BitCount = 73 ID = 335536303x
   0.177195 1  10240040x       Rx   d 8 83 FE 88 01 01 2C 0F FC  Length = 4258223 BitCount = 146 ID = 270794816x
   0.186260 1  102C0040x       Rx   d 5 AE EF 44 59 03  Length = 3298239 BitCount = 114 ID = 271319104x
   0.193728 1  10734099x       Rx   d 6 24 44 00 7D 00 00  Length = 3594590 BitCount = 124 ID = 275988633x
   0.198019 1  102CA040x       Rx   d 8 00 40 0C BB 2C 00 F1 00  Length = 4164566 BitCount = 143 ID = 271360064x
   0.210977 1  10304058x       Rx   d 3 44 59 01  Length = 2724642 BitCount = 95 ID = 271597656x
   0.213892 1  10308060x       Rx   d 3 44 59 01  Length = 2788236 BitCount = 97 ID = 271614048x
   0.218211 1  10264040x       Rx   d 8 04 06 00 00 00 00 00 3C  Length = 4194577 BitCount = 144 ID = 270942272x
   0.221396 1  10448060x       Rx   d 4 00 00 45 00  Length = 3058228 BitCount = 106 ID = 272924768x
   0.227366 1  10210040x       Rx   d 8 00 00 00 00 00 00 00 00  Length = 4284573 BitCount = 147 ID = 270598208x
   0.232231 1  1043A040x       Rx   d 8 00 00 36 00 00 00 00 00  Length = 4288208 BitCount = 147 ID = 272867392x
   0.235109 1  10306099x       Rx   d 3 44 59 01  Length = 2754642 BitCount = 96 ID = 271605913x
   0.239549 1  10220040x       Rx   d 8 10 00 00 00 00 04 00 00  Length = 4314558 BitCount = 148 ID = 270663744x
   0.247201 1  1022E040x       Rx   d 8 20 00 00 00 20 00 00 00  Length = 4284562 BitCount = 147 ID = 270721088x
   0.257167 1  10230040x       Rx   d 8 30 00 00 00 30 00 00 00  Length = 4258208 BitCount = 146 ID = 270729280x
   0.260556 1  106B0040x       Rx   d 1 00  Length = 2304686 BitCount = 81 ID = 275447872x
   0.277150 1  10240040x       Rx   d 8 83 FF 88 01 01 2C 0F FC  Length = 4194562 BitCount = 144 ID = 270794816x
   0.282281 1  106B8040x       Rx   d 8 00 00 00 00 00 00 00 00  Length = 4314558 BitCount = 148 ID = 275480640x
   0.297169 1  102CA040x       Rx   d 8 00 40 0C C6 2C 00 F1 00  Length = 4168208 BitCount = 143 ID = 271360064x
   0.303648 1  10734099x       Rx   d 6 24 43 00 7D 00 00  Length = 3534590 BitCount = 122 ID = 275988633x
   0.317215 1  10264040x       Rx   d 8 04 06 00 00 00 00 00 3E  Length = 4228208 BitCount = 145 ID = 270942272x
   0.327328 1  10210040x       Rx   d 8 00 00 00 00 00 00 00 00  Length = 4288208 BitCount = 147 ID = 270598208x
   0.332131 1  1022A040x       Rx   d 8 00 B0 00 12 42 00 00 22  Length = 4138208 BitCount = 142 ID = 270704704x
   0.337321 1  10220040x       Rx   d 8 10 00 00 00 00 03 00 00  Length = 4314558 BitCount = 148 ID = 270663744x
   0.341642 1  1022C040x       Rx   d 6 00 10 00 20 00 00  Length = 3684597 BitCount = 127 ID = 270712896x
   0.347287 1  1022E040x       Rx   d 8 00 00 00 00 00 00 00 00  Length = 4318208 BitCount = 148 ID = 270721088x
   0.357221 1  10230040x       Rx   d 8 10 00 00 00 10 00 00 00  Length = 4258208 BitCount = 146 ID = 270729280x
   0.362054 1  102CC040x       Rx   d 8 00 09 CF 67 00 87 06 AD  Length = 4048212 BitCount = 139 ID = 271368256x
   0.367247 1  102CE040x       Rx   d 8 90 00 66 7F 00 00 26 AD  Length = 4078212 BitCount = 140 ID = 271376448x
   0.372109 1  102D0040x       Rx   d 8 01 69 01 ED 7C 9A 00 FF  Length = 4108212 BitCount = 141 ID = 271384640x
   0.377272 1  10240040x       Rx   d 8 83 FE 88 01 01 2C 0F FC  Length = 4258223 BitCount = 146 ID = 270794816x
   0.380273 1  106B0040x       Rx   d 1 00  Length = 2308263 BitCount = 81 ID = 275447872x
   0.386518 1  10806040x       Rx   d 5 00 00 00 00 19  Length = 3418220 BitCount = 118 ID = 276848704x
   0.397169 1  102CA040x       Rx   d 8 00 40 0C AC 2C 00 F1 00  Length = 4134566 BitCount = 142 ID = 271360064x
   0.402360 1  10780040x       Rx   d 8 00 00 01 04 08 00 00 22  Length = 4284562 BitCount = 147 ID = 276299840x
   0.406652 1  C800040x        Rx   d 6 08 CB 00 00 8C E6  Length = 3594590 BitCount = 124 ID = 209715264x
   0.411753 1  10788040x       Rx   d 6 08 00 00 00 00 00  Length = 3774593 BitCount = 130 ID = 276332608x
   0.417218 1  10264040x       Rx   d 8 04 06 00 00 00 00 00 29  Length = 4228208 BitCount = 145 ID = 270942272x
   0.427274 1  10210040x       Rx   d 8 00 00 00 00 00 00 00 00  Length = 4288208 BitCount = 147 ID = 270598208x
   0.432702 1  13FFE060x       Rx   d 0  Length = 2094710 BitCount = 74 ID = 335536224x
   0.437297 1  10220040x       Rx   d 8 10 00 00 00 00 05 00 00  Length = 4288208 BitCount = 147 ID = 270663744x
   0.441797 1  13FFE080x       Rx   d 0  Length = 2064714 BitCount = 73 ID = 335536256x
   0.447261 1  1022E040x       Rx   d 8 20 00 00 00 20 00 00 00  Length = 4288208 BitCount = 147 ID = 270721088x
   0.457227 1  10230040x       Rx   d 8 30 00 00 00 30 00 00 00  Length = 4258208 BitCount = 146 ID = 270729280x
   0.462209 1  13FFE099x       Rx   d 0  Length = 2068260 BitCount = 73 ID = 335536281x
   0.467402 1  1043A040x       Rx   d 8 00 00 38 00 00 00 00 00  Length = 4348208 BitCount = 149 ID = 272867392x
   0.473672 1  10734099x       Rx   d 6 24 43 00 7D 00 00  Length = 3538231 BitCount = 122 ID = 275988633x
   0.478054 1  10240040x       Rx   d 8 83 FE 88 01 01 2C 0F FC  Length = 4258208 BitCount = 146 ID = 270794816x
   0.486431 1  102C0040x       Rx   d 5 AE EF 44 59 03  Length = 3298224 BitCount = 114 ID = 271319104x
   0.492340 1  106B8040x       Rx   d 8 00 00 00 00 00 00 00 00  Length = 4314558 BitCount = 148 ID = 275480640x
   0.497295 1  102CA040x       Rx   d 8 00 40 0C AC 2C 00 F1 00  Length = 4138208 BitCount = 142 ID = 271360064x
   0.500388 1  106B0040x       Rx   d 1 00  Length = 2308248 BitCount = 81 ID = 275447872x
   0.510793 1  10304058x       Rx   d 3 44 59 01  Length = 2724642 BitCount = 95 ID = 271597656x
   0.517218 1  10264040x       Rx   d 8 04 06 00 00 00 00 00 3E  Length = 4228223 BitCount = 145 ID = 270942272x
   0.527363 1  10210040x       Rx   d 8 00 00 00 00 00 00 00 00  Length = 4288208 BitCount = 147 ID = 270598208x
   0.532852 1  10306099x       Rx   d 3 44 59 01  Length = 2754657 BitCount = 96 ID = 271605913x
   0.535766 1  10308060x       Rx   d 3 44 59 01  Length = 2788236 BitCount = 97 ID = 271614048x
   0.539988 CAN 1 Status:chip status error active  - TxErr: 0 RxErr: 1
   0.539996 1  ErrorFrame	Flags = 0xfffe	CodeExt = 0x2072	Code = 0x81	ID = 0x90220040	DLC = 8	Position = 120	Length = 4104375	Data = 0x10  0  0  0  0  0x6  0  0
   0.544578 CAN 1 Status:chip status error active
   0.544795 1  10220040x       Rx   d 8 10 00 00 00 00 06 00 00  Length = 4284562 BitCount = 147 ID = 270663744x
   0.552357 1  1022E040x       Rx   d 8 00 00 00 00 00 00 00 00  Length = 4314573 BitCount = 148 ID = 270721088x
   0.557252 1  10230040x       Rx   d 8 10 00 00 00 10 00 00 00  Length = 4258208 BitCount = 146 ID = 270729280x
   0.563194 1  10814099x       Rx   d 4 20 44 2E 00  Length = 3058228 BitCount = 106 ID = 276906137x
   0.566916 1  621             Rx   d 8 00 52 00 00 00 00 00 00  Length = 3598216 BitCount = 124 ID = 1569
   0.577183 1  1022A040x       Rx   d 8 00 B0 00 12 42 00 00 22  Length = 4138223 BitCount = 142 ID = 270704704x
   0.581714 1  1022C040x       Rx   d 6 00 10 00 20 00 00  Length = 3688216 BitCount = 127 ID = 270712896x
   0.587359 1  10240040x       Rx   d 8 83 FE 88 01 01 2C 0F FC  Length = 4258208 BitCount = 146 ID = 270794816x
   0.596900 1  10248040x       Rx   d 7 00 00 6C D2 CC 1E 00  Length = 3894589 BitCount = 134 ID = 270827584x
   0.602275 1  102CA040x       Rx   d 8 00 40 0C D2 2C 00 F1 00  Length = 4168208 BitCount = 143 ID = 271360064x
   0.607110 1  102CC040x       Rx   d 8 00 09 CF 67 00 87 06 AE  Length = 4048212 BitCount = 139 ID = 271368256x
   0.617255 1  10264040x       Rx   d 8 04 06 00 00 00 00 00 3E  Length = 4228208 BitCount = 145 ID = 270942272x
   0.622178 1  102CE040x       Rx   d 8 90 00 66 7F 00 00 26 AC  Length = 4078212 BitCount = 140 ID = 271376448x
   0.627369 1  10210040x       Rx   d 8 00 00 00 00 00 00 00 00  Length = 4288208 BitCount = 147 ID = 270598208x
   0.630310 1  106B0040x       Rx   d 1 00  Length = 2308248 BitCount = 81 ID = 275447872x
   0.637332 1  10220040x       Rx   d 8 10 00 00 00 00 06 00 00  Length = 4284562 BitCount = 147 ID = 270663744x
   0.647296 1  1022E040x       Rx   d 8 20 00 00 00 20 00 00 00  Length = 4288208 BitCount = 147 ID = 270721088x
   0.652397 1  10780040x       Rx   d 8 00 00 01 04 08 00 00 22  Length = 4284562 BitCount = 147 ID = 276299840x
   0.656689 1  C800040x        Rx   d 6 08 CB 00 00 8C EA  Length = 3594590 BitCount = 124 ID = 209715264x
   0.662274 1  10230040x       Rx   d 8 30 00 00 00 30 00 00 00  Length = 4258223 BitCount = 146 ID = 270729280x
   0.677339 1  10240040x       Rx   d 8 83 FE 88 01 01 2C 0F FC  Length = 4258223 BitCount = 146 ID = 270794816x
   0.682381 1  106B8040x       Rx   d 8 00 00 00 00 00 00 00 00  Length = 4314558 BitCount = 148 ID = 275480640x
   0.697238 1  102CA040x       Rx   d 8 00 40 0C CF 2C 00 F1 00  Length = 4138223 BitCount = 142 ID = 271360064x
   0.717287 1  10264040x       Rx   d 8 04 06 00 00 00 00 00 29  Length = 4228208 BitCount = 145 ID = 270942272x
   0.722418 1  1043A040x       Rx   d 8 00 00 38 00 00 00 00 00  Length = 4344558 BitCount = 149 ID = 272867392x
   0.727373 1  10210040x       Rx   d 8 00 00 00 00 00 00 00 00  Length = 4288223 BitCount = 147 ID = 270598208x
   0.732087 1  1080A040x       Rx   d 7 00 00 00 00 00 00 00  Length = 4018212 BitCount = 138 ID = 276865088x
   0.737426 1  10220040x       Rx   d 8 10 00 00 00 00 07 00 00  Length = 4314558 BitCount = 148 ID = 270663744x
   0.747332 1  1022E040x       Rx   d 8 00 00 00 00 00 00 00 00  Length = 4318208 BitCount = 148 ID = 270721088x
   0.750335 1  106B0040x       Rx   d 1 00  Length = 2308263 BitCount = 81 ID = 275447872x
   0.757355 1  10230040x       Rx   d 8 10 00 00 00 10 00 00 00  Length = 4254562 BitCount = 146 ID = 270729280x
   0.777344 1  10240040x       Rx   d 8 83 FE 88 01 01 2C 0F FC  Length = 4258223 BitCount = 146 ID = 270794816x
   0.786470 1  102C0040x       Rx   d 5 AE EF 44 59 03  Length = 3298224 BitCount = 114 ID = 271319104x
   0.793313 1  108E0080x       Rx   d 6 0E 01 17 02 0D 7B  Length = 3628216 BitCount = 125 ID = 277741696x
   0.797575 1  102CA040x       Rx   d 8 00 40 0C BD 2C 00 F1 00  Length = 4138223 BitCount = 142 ID = 271360064x
   0.801293 1  10734099x       Rx   d 6 24 44 00 7D 00 00  Length = 3594590 BitCount = 124 ID = 275988633x
   0.808945 1  13FFE068x       Rx   d 0  Length = 2068275 BitCount = 73 ID = 335536232x
   0.811795 1  10304058x       Rx   d 3 44 59 01  Length = 2724657 BitCount = 95 ID = 271597656x
   0.814708 1  10308060x       Rx   d 3 44 59 01  Length = 2788236 BitCount = 97 ID = 271614048x
   0.819060 1  10264040x       Rx   d 8 04 06 00 00 00 00 00 3E  Length = 4228208 BitCount = 145 ID = 270942272x
   0.822242 1  106D0080x       Rx   d 2 00 00  Length = 2578240 BitCount = 90 ID = 275579008x
   0.827434 1  10210040x       Rx   d 8 00 00 00 00 00 00 00 00  Length = 4288208 BitCount = 147 ID = 270598208x
   0.832265 1  1022A040x       Rx   d 8 00 B0 00 12 42 00 00 22  Length = 4138208 BitCount = 142 ID = 270704704x
   0.835144 1  10306099x       Rx   d 3 44 59 01  Length = 2754642 BitCount = 96 ID = 271605913x
   0.839589 1  10220040x       Rx   d 8 10 00 00 00 00 08 00 00  Length = 4318208 BitCount = 148 ID = 270663744x
   0.846795 1  1022C040x       Rx   d 6 00 10 00 20 00 00  Length = 3688231 BitCount = 127 ID = 270712896x
   0.852348 1  1022E040x       Rx   d 8 20 00 00 00 20 00 00 00  Length = 4288208 BitCount = 147 ID = 270721088x
   0.857333 1  10230040x       Rx   d 8 30 00 00 00 30 00 00 00  Length = 4258208 BitCount = 146 ID = 270729280x
   0.860694 1  10250040x       Rx   d 2 00 03  Length = 2608240 BitCount = 91 ID = 270860352x
   0.867267 1  102CC040x       Rx   d 8 00 09 CF 67 00 87 06 AD  Length = 4048212 BitCount = 139 ID = 271368256x
   0.872219 1  102CE040x       Rx   d 8 90 00 66 7F 00 00 26 AD  Length = 4078212 BitCount = 140 ID = 271376448x
   0.877382 1  10240040x       Rx   d 8 83 FE 88 01 01 2C 0F FC  Length = 4258208 BitCount = 146 ID = 270794816x
   0.882213 1  102D0040x       Rx   d 8 01 69 01 ED 7C 99 00 FF  Length = 4108212 BitCount = 141 ID = 271384640x
   0.887433 1  102E0040x       Rx   d 8 00 33 CA 72 8A 00 62 81  Length = 4134566 BitCount = 142 ID = 271450176x
   0.891548 1  10466040x       Rx   d 5 00 00 00 00 00  Length = 3448220 BitCount = 119 ID = 273047616x
   0.897311 1  102CA040x       Rx   d 8 00 40 0C BD 2C 00 F1 00  Length = 4138208 BitCount = 142 ID = 271360064x
   0.900372 1  106B0040x       Rx   d 1 00  Length = 2308263 BitCount = 81 ID = 275447872x
   0.906737 1  C800040x        Rx   d 6 08 CB 00 00 8C EC  Length = 3598216 BitCount = 124 ID = 209715264x
   0.912441 1  106B8040x       Rx   d 8 00 00 00 00 00 00 00 00  Length = 4318208 BitCount = 148 ID = 275480640x
   0.916101 1  10734099x       Rx   d 6 24 43 00 7D 00 00  Length = 3534590 BitCount = 122 ID = 275988633x
   0.920455 1  10264040x       Rx   d 8 04 06 00 00 00 00 00 3E  Length = 4228208 BitCount = 145 ID = 270942272x
   0.927446 1  10210040x       Rx   d 8 00 00 00 00 00 00 00 00  Length = 4284562 BitCount = 147 ID = 270598208x
   0.931531 1  106C0040x       Rx   d 5 00 06 0F 07 00  Length = 3448220 BitCount = 119 ID = 275513408x
   0.937413 1  10220040x       Rx   d 8 10 00 00 00 00 05 00 00  Length = 4288208 BitCount = 147 ID = 270663744x
   0.941226 1  1077C040x       Rx   d 4 30 30 01 F4  Length = 3148224 BitCount = 109 ID = 276283456x
   0.947405 1  1022E040x       Rx   d 8 00 00 00 00 00 00 00 00  Length = 4314558 BitCount = 148 ID = 270721088x
   0.952480 1  10780040x       Rx   d 8 00 00 01 04 08 00 00 22  Length = 4288208 BitCount = 147 ID = 276299840x
   0.957371 1  10230040x       Rx   d 8 10 00 00 00 10 00 00 00  Length = 4258208 BitCount = 146 ID = 270729280x
   0.961935 1  10788040x       Rx   d 6 08 00 00 00 00 00  Length = 3778216 BitCount = 130 ID = 276332608x
   0.967490 1  1043A040x       Rx   d 8 00 00 36 00 00 00 00 00  Length = 4288208 BitCount = 147 ID = 272867392x
   0.971543 1  10806040x       Rx   d 5 00 00 00 00 19  Length = 3418220 BitCount = 118 ID = 276848704x
   0.977366 1  10240040x       Rx   d 8 83 FF 88 01 01 2C 0F FC  Length = 4198208 BitCount = 144 ID = 270794816x
   0.980160 1  13FFE040x       Rx   d 0  Length = 2068275 BitCount = 73 ID = 335536192x
   0.997385 1  102CA040x       Rx   d 8 00 40 0C C2 2C 00 F1 00  Length = 4198208 BitCount = 144 ID = 271360064x
   1.017342 1  10264040x       Rx   d 8 04 06 00 00 00 00 00 3E  Length = 4228208 BitCount = 145 ID = 270942272x
   1.020407 1  106B0040x       Rx   d 1 00  Length = 2308248 BitCount = 81 ID = 275447872x
   1.024067 1  10734099x       Rx   d 6 24 43 00 7D 00 00  Length = 3534605 BitCount = 122 ID = 275988633x
   1.028475 1  10210040x       Rx   d 8 00 00 00 00 00 00 00 00  Length = 4284562 BitCount = 147 ID = 270598208x
   1.037481 1  10220040x       Rx   d 8 10 00 00 00 00 04 00 00  Length = 4318208 BitCount = 148 ID = 270663744x
   1.047415 1  1022E040x       Rx   d 8 20 00 00 00 20 00 00 00  Length = 4288208 BitCount = 147 ID = 270721088x
   1.049552 1  Statistic: D 1 R 0 XD 160 XR 0 E 1 O 0 B 60.54%
   1.049552 2  Statistic: D 0 R 0 XD 0 XR 0 E 0 O 0 B 0.00%
   1.049552 3  Statistic: D 0 R 0 XD 0 XR 0 E 0 O 0 B 0.00%
   1.057382 1  10230040x       Rx   d 8 30 00 00 00 30 00 00 00  Length = 4258208 BitCount = 146 ID = 270729280x
   1.066465 1  13FFE0BBx       Rx   d 0  Length = 2034718 BitCount = 72 ID = 335536315x
   1.077421 1  1022A040x       Rx   d 8 00 B0 00 12 42 00 00 22  Length = 4138208 BitCount = 142 ID = 270704704x
   1.081834 1  1022C040x       Rx   d 6 00 10 00 20 00 00  Length = 3688216 BitCount = 127 ID = 270712896x
   1.087449 1  10240040x       Rx   d 8 83 FF 88 01 01 2C 0F FC  Length = 4198208 BitCount = 144 ID = 270794816x
   1.091412 1  102C0040x       Rx   d 5 AE EF 44 59 03  Length = 3298224 BitCount = 114 ID = 271319104x
   1.097056 1  10248040x       Rx   d 7 00 00 6C D2 CC 1E 00  Length = 3898212 BitCount = 134 ID = 270827584x
   1.102395 1  102CA040x       Rx   d 8 00 40 0C BB 2C 00 F1 00  Length = 4164566 BitCount = 143 ID = 271360064x
   1.107260 1  102CC040x       Rx   d 8 00 09 CF 67 00 87 06 AD  Length = 4048212 BitCount = 139 ID = 271368256x
   1.112480 1  106B8040x       Rx   d 8 00 00 00 00 00 00 00 00  Length = 4314558 BitCount = 148 ID = 275480640x
   1.117405 1  10264040x       Rx   d 8 04 06 00 00 00 00 00 29  Length = 4228223 BitCount = 145 ID = 270942272x
   1.120676 1  10304058x       Rx   d 3 44 59 01  Length = 2728251 BitCount = 95 ID = 271597656x
   1.124938 1  102CE040x       Rx   d 8 90 00 66 7F 00 00 26 AE  Length = 4138223 BitCount = 142 ID = 271376448x
   1.132470 1  10210040x       Rx   d 8 00 00 00 00 00 00 00 00  Length = 4288208 BitCount = 147 ID = 270598208x
   1.135349 1  10306099x       Rx   d 3 44 59 01  Length = 2754642 BitCount = 96 ID = 271605913x
   1.139758 1  10220040x       Rx   d 8 10 00 00 00 00 06 00 00  Length = 4284573 BitCount = 147 ID = 270663744x
   1.142673 1  10308060x       Rx   d 3 44 59 01  Length = 2788236 BitCount = 97 ID = 271614048x
   1.147476 1  1022E040x       Rx   d 8 00 00 00 00 00 00 00 00  Length = 4318208 BitCount = 148 ID = 270721088x
   1.150449 1  106B0040x       Rx   d 1 00  Length = 2308248 BitCount = 81 ID = 275447872x
   1.156874 1  C800040x        Rx   d 6 08 CB 00 00 8C F0  Length = 3598231 BitCount = 124 ID = 209715264x
   1.162397 1  10230040x       Rx   d 8 10 00 00 00 10 00 00 00  Length = 4258208 BitCount = 146 ID = 270729280x
   1.167619 1  10780040x       Rx   d 8 00 00 01 04 08 00 00 22  Length = 4284562 BitCount = 147 ID = 276299840x
   1.177433 1  10240040x       Rx   d 8 83 FE 88 01 01 2C 0F FC  Length = 4258208 BitCount = 146 ID = 270794816x
   1.197358 1  102CA040x       Rx   d 8 00 40 0C AC 2C 00 F1 00  Length = 4134566 BitCount = 142 ID = 271360064x
   1.213623 1  10448060x       Rx   d 4 00 00 45 00  Length = 3058228 BitCount = 106 ID = 272924768x
   1.217947 1  10264040x       Rx   d 8 04 06 00 00 00 00 00 3D  Length = 4198208 BitCount = 144 ID = 270942272x
   1.222538 1  1043A040x       Rx   d 8 00 00 38 00 00 00 00 00  Length = 4348223 BitCount = 149 ID = 272867392x
   1.227553 1  10210040x       Rx   d 8 00 00 00 00 00 00 00 00  Length = 4288208 BitCount = 147 ID = 270598208x
   1.237456 1  10220040x       Rx   d 8 10 00 00 00 00 05 00 00  Length = 4288223 BitCount = 147 ID = 270663744x
   1.241565 1  10324058x       Rx   d 6 00 00 03 FF 00 00  Length = 3684586 BitCount = 127 ID = 271728728x
   1.243966 1  13FFE058x       Rx   d 0  Length = 2098256 BitCount = 74 ID = 335536216x
   1.248375 1  1022E040x       Rx   d 8 20 00 00 00 20 00 00 00  Length = 4284562 BitCount = 147 ID = 270721088x
   1.257471 1  10230040x       Rx   d 8 30 00 00 00 30 00 00 00  Length = 4258208 BitCount = 146 ID = 270729280x
   1.265515 1  106B0040x       Rx   d 1 00  Length = 2308263 BitCount = 81 ID = 275447872x
   1.277402 1  10240040x       Rx   d 8 83 FF 88 01 01 2C 0F FC  Length = 4198208 BitCount = 144 ID = 270794816x
   1.282531 1  106B8040x       Rx   d 8 00 00 00 00 00 00 00 00  Length = 4314573 BitCount = 148 ID = 275480640x
   1.297418 1  102CA040x       Rx   d 8 00 40 0C BA 2C 00 F1 00  Length = 4168223 BitCount = 143 ID = 271360064x
   1.317407 1  10264040x       Rx   d 8 04 06 00 00 00 00 00 3C  Length = 4198223 BitCount = 144 ID = 270942272x
   1.327494 1  10210040x       Rx   d 8 00 00 00 00 00 00 00 00  Length = 4288223 BitCount = 147 ID = 270598208x
   1.332385 1  1022A040x       Rx   d 8 00 B0 00 12 42 00 00 22  Length = 4138208 BitCount = 142 ID = 270704704x
   1.337518 1  10220040x       Rx   d 8 10 00 00 00 00 06 00 00  Length = 4288208 BitCount = 147 ID = 270663744x
   1.341899 1  1022C040x       Rx   d 6 00 10 00 20 00 00  Length = 3688216 BitCount = 127 ID = 270712896x
   1.347511 1  1022E040x       Rx   d 8 00 00 00 00 00 00 00 00  Length = 4318208 BitCount = 148 ID = 270721088x
   1.357445 1  10230040x       Rx   d 8 10 00 00 00 10 00 00 00  Length = 4258208 BitCount = 146 ID = 270729280x
   1.362310 1  102CC040x       Rx   d 8 00 09 CF 67 00 87 06 AE  Length = 4048212 BitCount = 139 ID = 271368256x
   1.367470 1  102CE040x       Rx   d 8 90 00 66 7F 00 00 26 AE  Length = 4134566 BitCount = 142 ID = 271376448x
   1.372335 1  102D0040x       Rx   d 8 01 69 01 ED 7C 99 00 FF  Length = 4108212 BitCount = 141 ID = 271384640x
   1.374526 1  13FFE0AFx       Rx   d 0  Length = 2068260 BitCount = 73 ID = 335536303x
   1.378908 1  10240040x       Rx   d 8 83 FE 88 01 01 2C 0F FC  Length = 4258223 BitCount = 146 ID = 270794816x
   1.386620 1  102C0040x       Rx   d 5 AE EF 44 59 03  Length = 3298224 BitCount = 114 ID = 271319104x
   1.390494 1  106B0040x       Rx   d 1 00  Length = 2308263 BitCount = 81 ID = 275447872x
   1.397453 1  102CA040x       Rx   d 8 00 40 0C A8 2D 00 F1 00  Length = 4104566 BitCount = 141 ID = 271360064x
   1.402644 1  10780040x       Rx   d 8 00 00 01 04 08 00 00 22  Length = 4284562 BitCount = 147 ID = 276299840x
   1.406875 1  C800040x        Rx   d 6 08 CB 00 00 8C F3  Length = 3624586 BitCount = 125 ID = 209715264x
   1.410565 1  10304058x       Rx   d 3 44 59 01  Length = 2724642 BitCount = 95 ID = 271597656x
   1.413479 1  10308060x       Rx   d 3 44 59 01  Length = 2788236 BitCount = 97 ID = 271614048x
   1.417384 1  10788040x       Rx   d 6 08 00 00 00 00 00  Length = 3778216 BitCount = 130 ID = 276332608x
   1.422427 1  10264040x       Rx   d 8 04 06 00 00 00 00 00 3C  Length = 4198208 BitCount = 144 ID = 270942272x
   1.427558 1  10210040x       Rx   d 8 00 00 00 00 00 00 00 00  Length = 4288208 BitCount = 147 ID = 270598208x
   1.431668 1  10806040x       Rx   d 5 00 00 00 00 19  Length = 3414598 BitCount = 118 ID = 276848704x
   1.434553 1  10306099x       Rx   d 3 44 59 01  Length = 2758236 BitCount = 96 ID = 271605913x
   1.438995 1  10220040x       Rx   d 8 10 00 00 00 00 07 00 00  Length = 4318208 BitCount = 148 ID = 270663744x
   1.447517 1  1022E040x       Rx   d 8 20 00 00 00 20 00 00 00  Length = 4288208 BitCount = 147 ID = 270721088x
   1.453160 1  624             Rx   d 8 00 20 00 00 00 00 00 00  Length = 3628216 BitCount = 125 ID = 1572
   1.457540 1  10230040x       Rx   d 8 30 00 00 00 30 00 00 00  Length = 4254562 BitCount = 146 ID = 270729280x
   1.467686 1  1043A040x       Rx   d 8 00 00 39 00 00 00 00 00  Length = 4288208 BitCount = 147 ID = 272867392x
   1.473658 1  10734099x       Rx   d 6 24 43 00 7D 00 00  Length = 3538220 BitCount = 122 ID = 275988633x
   1.477789 CAN 1 Status:chip status error active  - TxErr: 0 RxErr: 1
   1.477797 1  ErrorFrame	Flags = 0xfffe	CodeExt = 0x2072	Code = 0x81	ID = 0x90240040	DLC = 8	Position = 120	Length = 4014390	Data = 0x83  0xff  0x88  0x1  0x1  0x2c  0xf  0xfc
   1.482294 CAN 1 Status:chip status error active
   1.482512 1  10240040x       Rx   d 8 83 FF 88 01 01 2C 0F FC  Length = 4198223 BitCount = 144 ID = 270794816x
   1.487585 1  106B8040x       Rx   d 8 00 00 00 00 00 00 00 00  Length = 4318208 BitCount = 148 ID = 275480640x
   1.497429 1  102CA040x       Rx   d 8 00 40 0C B9 2C 00 F1 00  Length = 4138208 BitCount = 142 ID = 271360064x
   1.505534 1  106B0040x       Rx   d 1 00  Length = 2308248 BitCount = 81 ID = 275447872x
   1.517450 1  10264040x       Rx   d 8 04 06 00 00 00 00 00 28  Length = 4198208 BitCount = 144 ID = 270942272x
   1.527562 1  10210040x       Rx   d 8 00 00 00 00 00 00 00 00  Length = 4288208 BitCount = 147 ID = 270598208x
   1.537587 1  10220040x       Rx   d 8 10 00 00 00 00 08 00 00  Length = 4318208 BitCount = 148 ID = 270663744x
   1.547581 1  1022E040x       Rx   d 8 00 00 00 00 00 00 00 00  Length = 4318208 BitCount = 148 ID = 270721088x
   1.557486 1  10230040x       Rx   d 8 10 00 00 00 10 00 00 00  Length = 4258208 BitCount = 146 ID = 270729280x
   1.566820 1  621             Rx   d 8 00 52 00 00 00 00 00 00  Length = 3598216 BitCount = 124 ID = 1569
   1.577415 1  1022A040x       Rx   d 8 00 B0 00 12 42 00 00 22  Length = 4138208 BitCount = 142 ID = 270704704x
   1.581944 1  1022C040x       Rx   d 6 00 10 00 20 00 00  Length = 3684597 BitCount = 127 ID = 270712896x
   1.585664 1  10734099x       Rx   d 6 24 44 00 7D 00 00  Length = 3594590 BitCount = 124 ID = 275988633x
   1.590044 1  10240040x       Rx   d 8 83 FE 88 01 01 2C 0F FC  Length = 4254577 BitCount = 146 ID = 270794816x
   1.597190 1  10248040x       Rx   d 7 00 00 6C D2 CC 1F 00  Length = 3898212 BitCount = 134 ID = 270827584x
   1.602595 1  102CA040x       Rx   d 8 00 40 0C B6 2C 00 F1 00  Length = 4138208 BitCount = 142 ID = 271360064x
   1.607490 1  102CC040x       Rx   d 8 00 09 CF 67 00 87 06 AF  Length = 4078227 BitCount = 140 ID = 271368256x
   1.617482 1  10264040x       Rx   d 8 04 06 00 00 00 00 00 3C  Length = 4198223 BitCount = 144 ID = 270942272x
   1.622466 1  102CE040x       Rx   d 8 90 00 66 7F 00 00 26 AE  Length = 4138208 BitCount = 142 ID = 271376448x
   1.627599 1  10210040x       Rx   d 8 00 00 00 00 00 00 00 00  Length = 4288208 BitCount = 147 ID = 270598208x
   1.630570 1  106B0040x       Rx   d 1 00  Length = 2308248 BitCount = 81 ID = 275447872x
   1.632794 1  13FFE060x       Rx   d 0  Length = 2098256 BitCount = 74 ID = 335536224x
   1.637597 1  10220040x       Rx   d 8 10 00 00 00 00 06 00 00  Length = 4288208 BitCount = 147 ID = 270663744x
   1.641800 1  13FFE080x       Rx   d 0  Length = 2068260 BitCount = 73 ID = 335536256x
   1.647532 1  1022E040x       Rx   d 8 20 00 00 00 20 00 00 00  Length = 4288208 BitCount = 147 ID = 270721088x
   1.652635 1  10780040x       Rx   d 8 00 00 01 04 08 00 00 22  Length = 4288208 BitCount = 147 ID = 276299840x
   1.656896 1  C800040x        Rx   d 6 08 CB 00 00 8C F6  Length = 3598216 BitCount = 124 ID = 209715264x
   1.662597 1  10230040x       Rx   d 8 30 00 00 00 30 00 00 00  Length = 4258223 BitCount = 146 ID = 270729280x
   1.664790 1  13FFE099x       Rx   d 0  Length = 2068260 BitCount = 73 ID = 335536281x
   1.677575 1  10240040x       Rx   d 8 83 FE 88 01 01 2C 0F FC  Length = 4258223 BitCount = 146 ID = 270794816x
   1.682618 1  106B8040x       Rx   d 8 00 00 00 00 00 00 00 00  Length = 4318208 BitCount = 148 ID = 275480640x
   1.686610 1  102C0040x       Rx   d 5 AE EF 44 59 03  Length = 3298224 BitCount = 114 ID = 271319104x
   1.697564 1  102CA040x       Rx   d 8 00 40 0C BA 2C 00 F1 00  Length = 4168208 BitCount = 143 ID = 271360064x
   1.710490 1  10304058x       Rx   d 3 44 59 01  Length = 2724657 BitCount = 95 ID = 271597656x
   1.717487 1  10264040x       Rx   d 8 04 06 00 00 00 00 00 3C  Length = 4198208 BitCount = 144 ID = 270942272x
   1.722588 1  1043A040x       Rx   d 8 00 00 36 00 00 00 00 00  Length = 4284573 BitCount = 147 ID = 272867392x
   1.727750 1  10210040x       Rx   d 8 00 00 00 00 00 00 00 00  Length = 4284562 BitCount = 147 ID = 270598208x
   1.732315 1  1080A040x       Rx   d 7 00 00 00 00 00 00 00  Length = 4018212 BitCount = 138 ID = 276865088x
   1.735199 1  10306099x       Rx   d 3 44 59 01  Length = 2758251 BitCount = 96 ID = 271605913x
   1.739612 1  10220040x       Rx   d 8 10 00 00 00 00 05 00 00  Length = 4288208 BitCount = 147 ID = 270663744x
   1.742524 1  10308060x       Rx   d 3 44 59 01  Length = 2788236 BitCount = 97 ID = 271614048x
   1.747596 1  1022E040x       Rx   d 8 00 00 00 00 00 00 00 00  Length = 4318208 BitCount = 148 ID = 270721088x
   1.750599 1  106B0040x       Rx   d 1 00  Length = 2308248 BitCount = 81 ID = 275447872x
   1.754288 1  631             Rx   d 8 00 40 00 00 00 00 00 00  Length = 3564590 BitCount = 123 ID = 1585
   1.758673 1  10230040x       Rx   d 8 10 00 00 00 10 00 00 00  Length = 4258208 BitCount = 146 ID = 270729280x
   1.764133 1  62C             Rx   d 8 00 40 00 00 00 00 00 00  Length = 3624586 BitCount = 125 ID = 1580
   1.777609 1  10240040x       Rx   d 8 83 FF 88 01 01 2C 0F FC  Length = 4198208 BitCount = 144 ID = 270794816x
   1.793661 1  10734099x       Rx   d 6 24 43 00 7D 00 00  Length = 3538220 BitCount = 122 ID = 275988633x
   1.797921 1  102CA040x       Rx   d 8 00 40 0C D4 2C 00 F1 00  Length = 4134566 BitCount = 142 ID = 271360064x
   1.803292 1  108E0080x       Rx   d 6 0E 01 17 02 0D 80  Length = 3624586 BitCount = 125 ID = 277741696x
   1.817577 1  10264040x       Rx   d 8 04 06 00 00 00 00 00 28  Length = 4198208 BitCount = 144 ID = 270942272x
   1.827752 1  10210040x       Rx   d 8 00 00 00 00 00 00 00 00  Length = 4288208 BitCount = 147 ID = 270598208x
   1.832495 1  1022A040x       Rx   d 8 00 B0 00 12 42 00 00 22  Length = 4138208 BitCount = 142 ID = 270704704x
   1.837628 1  10220040x       Rx   d 8 10 00 00 00 00 05 00 00  Length = 4288208 BitCount = 147 ID = 270663744x
   1.842005 1  1022C040x       Rx   d 6 00 10 00 20 00 00  Length = 3684586 BitCount = 127 ID = 270712896x
   1.847591 1  1022E040x       Rx   d 8 20 00 00 00 20 00 00 00  Length = 4288223 BitCount = 147 ID = 270721088x
   1.850924 1  10250040x       Rx   d 2 00 03  Length = 2608240 BitCount = 91 ID = 270860352x
   1.857587 1  10230040x       Rx   d 8 30 00 00 00 30 00 00 00  Length = 4258208 BitCount = 146 ID = 270729280x
   1.862538 1  102CC040x       Rx   d 8 00 09 CF 67 00 87 06 AC  Length = 4078212 BitCount = 140 ID = 271368256x
   1.867581 1  102CE040x       Rx   d 8 90 00 66 7F 00 00 26 AD  Length = 4078212 BitCount = 140 ID = 271376448x
   1.872475 1  102D0040x       Rx   d 8 01 69 01 ED 7C 9A 00 FF  Length = 4108212 BitCount = 141 ID = 271384640x
   1.877576 1  10240040x       Rx   d 8 83 FF 88 01 01 2C 0F FC  Length = 4198208 BitCount = 144 ID = 270794816x
   1.882559 1  102E0040x       Rx   d 8 00 33 CA 72 8A 00 62 81  Length = 4138208 BitCount = 142 ID = 271450176x
   1.885770 1  106B0040x       Rx   d 1 00  Length = 2308263 BitCount = 81 ID = 275447872x
   1.892670 1  106B8040x       Rx   d 8 00 00 00 00 00 00 00 00  Length = 4314573 BitCount = 148 ID = 275480640x
   1.897595 1  102CA040x       Rx   d 8 00 40 0C C4 2C 00 F1 00  Length = 4168208 BitCount = 143 ID = 271360064x
   1.901764 1  106C0040x       Rx   d 5 00 06 0F 07 00  Length = 3444609 BitCount = 119 ID = 275513408x
   1.907015 1  C800040x        Rx   d 6 08 CB 00 00 8C F9  Length = 3624586 BitCount = 125 ID = 209715264x
   1.911460 1  1077C040x       Rx   d 4 30 30 01 F4  Length = 3148239 BitCount = 109 ID = 276283456x
   1.917612 1  10264040x       Rx   d 8 04 06 00 00 00 00 00 3F  Length = 4254562 BitCount = 146 ID = 270942272x
   1.922713 1  10780040x       Rx   d 8 00 00 01 04 08 00 00 22  Length = 4284562 BitCount = 147 ID = 276299840x
   1.927698 1  10210040x       Rx   d 8 00 00 00 00 00 00 00 00  Length = 4288208 BitCount = 147 ID = 270598208x
   1.932135 1  10788040x       Rx   d 6 08 00 00 00 00 00  Length = 3774582 BitCount = 130 ID = 276332608x
   1.937660 1  10220040x       Rx   d 8 10 00 00 00 00 06 00 00  Length = 4288208 BitCount = 147 ID = 270663744x
   1.941772 1  10806040x       Rx   d 5 00 00 00 00 19  Length = 3414613 BitCount = 118 ID = 276848704x
   1.947657 1  1022E040x       Rx   d 8 00 00 00 00 00 00 00 00  Length = 4318223 BitCount = 148 ID = 270721088x
   1.957591 1  10230040x       Rx   d 8 10 00 00 00 10 00 00 00  Length = 4258208 BitCount = 146 ID = 270729280x
   1.967706 1  1043A040x       Rx   d 8 00 00 36 00 00 00 00 00  Length = 4288223 BitCount = 147 ID = 272867392x
   1.973648 1  10734099x       Rx   d 6 24 43 00 7D 00 00  Length = 3538220 BitCount = 122 ID = 275988633x
   1.978030 1  10240040x       Rx   d 8 83 FE 88 01 01 2C 0F FC  Length = 4258208 BitCount = 146 ID = 270794816x
   1.986643 1  102C0040x       Rx   d 5 AE EF 44 59 03  Length = 3294617 BitCount = 114 ID = 271319104x
   1.997599 1  102CA040x       Rx   d 8 00 40 0C CF 2C 00 F1 00  Length = 4138208 BitCount = 142 ID = 271360064x
   2.000692 1  106B0040x       Rx   d 1 00  Length = 2308248 BitCount = 81 ID = 275447872x
   2.008946 1  13FFE068x       Rx   d 0  Length = 2068260 BitCount = 73 ID = 335536232x
   2.011795 1  10304058x       Rx   d 3 44 59 01  Length = 2724642 BitCount = 95 ID = 271597656x
   2.014704 1  10308060x       Rx   d 3 44 59 01  Length = 2784653 BitCount = 97 ID = 271614048x
   2.019086 1  10264040x       Rx   d 8 04 06 00 00 00 00 00 3F  Length = 4258208 BitCount = 146 ID = 270942272x
   2.022209 1  106D0080x       Rx   d 2 00 00  Length = 2578240 BitCount = 90 ID = 275579008x
   2.027791 1  10210040x       Rx   d 8 00 00 00 00 00 00 00 00  Length = 4288208 BitCount = 147 ID = 270598208x
   2.032864 1  10306099x       Rx   d 3 44 59 01  Length = 2758251 BitCount = 96 ID = 271605913x
   2.037667 1  10220040x       Rx   d 8 10 00 00 00 00 05 00 00  Length = 4288208 BitCount = 147 ID = 270663744x
   2.047691 1  1022E040x       Rx   d 8 20 00 00 00 20 00 00 00  Length = 4288223 BitCount = 147 ID = 270721088x
   2.049552 1  Statistic: D 4 R 0 XD 155 XR 0 E 1 O 0 B 62.38%
   2.049552 2  Statistic: D 0 R 0 XD 0 XR 0 E 0 O 0 B 0.00%
   2.049552 3  Statistic: D 0 R 0 XD 0 XR 0 E 0 O 0 B 0.00%
   2.057626 1  10230040x       Rx   d 8 30 00 00 00 30 00 00 00  Length = 4258208 BitCount = 146 ID = 270729280x
   2.077579 1  1022A040x       Rx   d 8 00 B0 00 12 42 00 00 22  Length = 4134566 BitCount = 142 ID = 270704704x
   2.082084 1  1022C040x       Rx   d 6 00 10 00 20 00 00  Length = 3688216 BitCount = 127 ID = 270712896x
   2.085804 1  10734099x       Rx   d 6 24 44 00 7D 00 00  Length = 3594590 BitCount = 124 ID = 275988633x
   2.090124 1  10240040x       Rx   d 8 83 FF 88 01 01 2C 0F FC  Length = 4194562 BitCount = 144 ID = 270794816x
   2.097360 1  10248040x       Rx   d 7 00 00 6C D2 CC 1F 00  Length = 3898227 BitCount = 134 ID = 270827584x
   2.102759 1  102CA040x       Rx   d 8 00 40 0C D0 2C 00 F1 00  Length = 4194562 BitCount = 144 ID = 271360064x
   2.107474 1  102CC040x       Rx   d 8 00 09 CF 67 00 87 06 AB  Length = 4048227 BitCount = 139 ID = 271368256x
   2.112723 1  106B8040x       Rx   d 8 00 00 00 00 00 00 00 00  Length = 4314558 BitCount = 148 ID = 275480640x
   2.117648 1  10264040x       Rx   d 8 04 06 00 00 00 00 00 3E  Length = 4228208 BitCount = 145 ID = 270942272x
   2.122542 1  102CE040x       Rx   d 8 90 00 66 7F 00 00 26 AC  Length = 4078212 BitCount = 140 ID = 271376448x
   2.127795 1  10210040x       Rx   d 8 00 00 00 00 00 00 00 00  Length = 4288208 BitCount = 147 ID = 270598208x
   2.130680 1  106B0040x       Rx   d 1 00  Length = 2308248 BitCount = 81 ID = 275447872x
   2.137760 1  10220040x       Rx   d 8 10 00 00 00 00 07 00 00  Length = 4314558 BitCount = 148 ID = 270663744x
   2.140431 1  13FFE040x       Rx   d 0  Length = 2064714 BitCount = 73 ID = 335536192x
   2.147726 1  1022E040x       Rx   d 8 00 00 00 00 00 00 00 00  Length = 4318208 BitCount = 148 ID = 270721088x
   2.152769 1  10780040x       Rx   d 8 00 00 01 04 08 00 00 22  Length = 4288208 BitCount = 147 ID = 276299840x
   2.157090 1  C800040x        Rx   d 6 08 CB 00 00 8C FD  Length = 3658216 BitCount = 126 ID = 209715264x
   2.162671 1  10230040x       Rx   d 8 10 00 00 00 10 00 00 00  Length = 4258208 BitCount = 146 ID = 270729280x
   2.177619 1  10240040x       Rx   d 8 83 FF 88 01 01 2C 0F FC  Length = 4198208 BitCount = 144 ID = 270794816x
   2.193642 1  10734099x       Rx   d 6 24 43 00 7D 00 00  Length = 3538220 BitCount = 122 ID = 275988633x
   2.197934 1  102CA040x       Rx   d 8 00 40 0C C6 2C 00 F1 00  Length = 4168208 BitCount = 143 ID = 271360064x
   2.213596 1  10448060x       Rx   d 4 00 00 45 00  Length = 3058228 BitCount = 106 ID = 272924768x
   2.217945 1  10264040x       Rx   d 8 04 06 00 00 00 00 00 29  Length = 4224562 BitCount = 145 ID = 270942272x
   2.222720 1  1043A040x       Rx   d 8 00 00 39 00 00 00 00 00  Length = 4288208 BitCount = 147 ID = 272867392x
   2.227763 1  10210040x       Rx   d 8 00 00 00 00 00 00 00 00  Length = 4288223 BitCount = 147 ID = 270598208x
   2.237726 1  10220040x       Rx   d 8 10 00 00 00 00 06 00 00  Length = 4288223 BitCount = 147 ID = 270663744x
   2.247690 1  1022E040x       Rx   d 8 20 00 00 00 20 00 00 00  Length = 4288208 BitCount = 147 ID = 270721088x
   2.250723 1  106B0040x       Rx   d 1 00  Length = 2308248 BitCount = 81 ID = 275447872x
   2.257685 1  10230040x       Rx   d 8 30 00 00 00 30 00 00 00  Length = 4254562 BitCount = 146 ID = 270729280x
   2.269412 1  13FFE0BBx       Rx   d 0  Length = 2038260 BitCount = 72 ID = 335536315x
   2.277696 1  10240040x       Rx   d 8 83 FE 88 01 01 2C 0F FC  Length = 4258208 BitCount = 146 ID = 270794816x
   2.282765 1  106B8040x       Rx   d 8 00 00 00 00 00 00 00 00  Length = 4314558 BitCount = 148 ID = 275480640x
   2.286700 1  102C0040x       Rx   d 5 AE EF 44 59 03  Length = 3298239 BitCount = 114 ID = 271319104x
   2.297684 1  102CA040x       Rx   d 8 00 40 0C BA 2C 00 F1 00  Length = 4168223 BitCount = 143 ID = 271360064x
   2.303716 1  10734099x       Rx   d 6 24 44 00 7D 00 00  Length = 3598216 BitCount = 124 ID = 275988633x
   2.310318 1  10304058x       Rx   d 3 44 59 01  Length = 2728236 BitCount = 95 ID = 271597656x
   2.317701 1  10264040x       Rx   d 8 04 06 00 00 00 00 00 3E  Length = 4228223 BitCount = 145 ID = 270942272x
   2.327787 1  10210040x       Rx   d 8 00 00 00 00 00 00 00 00  Length = 4288208 BitCount = 147 ID = 270598208x
   2.332621 1  1022A040x       Rx   d 8 00 B0 00 12 42 00 00 22  Length = 4138223 BitCount = 142 ID = 270704704x
   2.335498 1  10306099x       Rx   d 3 44 59 01  Length = 2754642 BitCount = 96 ID = 271605913x
   2.339942 1  10220040x       Rx   d 8 10 00 00 00 00 04 00 00  Length = 4318223 BitCount = 148 ID = 270663744x
   2.342852 1  10308060x       Rx   d 3 44 59 01  Length = 2784638 BitCount = 97 ID = 271614048x
   2.347143 1  1022C040x       Rx   d 6 00 10 00 20 00 00  Length = 3684586 BitCount = 127 ID = 270712896x
   2.352758 1  1022E040x       Rx   d 8 00 00 00 00 00 00 00 00  Length = 4318208 BitCount = 148 ID = 270721088x
   2.357711 1  10230040x       Rx   d 8 10 00 00 00 10 00 00 00  Length = 4258208 BitCount = 146 ID = 270729280x
   2.362634 1  102CC040x       Rx   d 8 00 09 CF 67 00 87 06 AE  Length = 4048212 BitCount = 139 ID = 271368256x
   2.367614 1  102CE040x       Rx   d 8 90 00 66 7F 00 00 26 AD  Length = 4074566 BitCount = 140 ID = 271376448x
   2.372629 1  102D0040x       Rx   d 8 01 69 01 ED 7C 9A 00 FF  Length = 4108212 BitCount = 141 ID = 271384640x
   2.377668 1  10240040x       Rx   d 8 83 FF 88 01 01 2C 0F FC  Length = 4194562 BitCount = 144 ID = 270794816x
   2.380793 1  106B0040x       Rx   d 1 00  Length = 2308248 BitCount = 81 ID = 275447872x
   2.386883 1  10806040x       Rx   d 5 00 00 00 00 19  Length = 3414598 BitCount = 118 ID = 276848704x
   2.397719 1  102CA040x       Rx   d 8 00 40 0C C6 2C 00 F1 00  Length = 4168223 BitCount = 143 ID = 271360064x
   2.402848 1  10780040x       Rx   d 8 00 00 01 04 08 00 00 22  Length = 4284562 BitCount = 147 ID = 276299840x
   2.407113 1  C800040x        Rx   d 6 08 CB 00 00 8C FF  Length = 3628216 BitCount = 125 ID = 209715264x
   2.412421 1  10788040x       Rx   d 6 08 00 00 00 00 00  Length = 3774593 BitCount = 130 ID = 276332608x
   2.417735 1  10264040x       Rx   d 8 04 06 00 00 00 00 00 3E  Length = 4228208 BitCount = 145 ID = 270942272x
   2.427762 1  10210040x       Rx   d 8 00 00 00 00 00 00 00 00  Length = 4288223 BitCount = 147 ID = 270598208x
   2.437786 1  10220040x       Rx   d 8 10 00 00 00 00 06 00 00  Length = 4288208 BitCount = 147 ID = 270663744x
   2.440009 1  13FFE058x       Rx   d 0  Length = 2098256 BitCount = 74 ID = 335536216x
   2.447723 1  1022E040x       Rx   d 8 20 00 00 00 20 00 00 00  Length = 4288208 BitCount = 147 ID = 270721088x
   2.457715 1  10230040x       Rx   d 8 30 00 00 00 30 00 00 00  Length = 4258223 BitCount = 146 ID = 270729280x
   2.467830 1  1043A040x       Rx   d 8 00 00 38 00 00 00 00 00  Length = 4348208 BitCount = 149 ID = 272867392x
   2.473712 1  10734099x       Rx   d 6 24 44 00 7D 00 00  Length = 3598216 BitCount = 124 ID = 275988633x
   2.478094 1  10240040x       Rx   d 8 83 FE 88 01 01 2C 0F FC  Length = 4258208 BitCount = 146 ID = 270794816x
   2.482895 1  106B8040x       Rx   d 8 00 00 00 00 00 00 00 00  Length = 4318208 BitCount = 148 ID = 275480640x
   2.497687 1  102CA040x       Rx   d 8 00 40 0C CE 2C 00 F1 00  Length = 4134581 BitCount = 142 ID = 271360064x
   2.500812 1  106B0040x       Rx   d 1 00  Length = 2308248 BitCount = 81 ID = 275447872x
   2.517738 1  10264040x       Rx   d 8 04 06 00 00 00 00 00 29  Length = 4228223 BitCount = 145 ID = 270942272x
   2.527822 1  10210040x       Rx   d 8 00 00 00 00 00 00 00 00  Length = 4288223 BitCount = 147 ID = 270598208x
   2.537817 1  10220040x       Rx   d 8 10 00 00 00 00 05 00 00  Length = 4288208 BitCount = 147 ID = 270663744x
   2.547781 1  1022E040x       Rx   d 8 00 00 00 00 00 00 00 00  Length = 4318223 BitCount = 148 ID = 270721088x
   2.557716 1  10230040x       Rx   d 8 10 00 00 00 10 00 00 00  Length = 4258208 BitCount = 146 ID = 270729280x
   2.567050 1  621             Rx   d 8 00 52 00 00 00 00 00 00  Length = 3598216 BitCount = 124 ID = 1569
   2.571971 1  13FFE0AFx       Rx   d 0  Length = 2068260 BitCount = 73 ID = 335536303x
   2.577675 1  1022A040x       Rx   d 8 00 B0 00 12 42 00 00 22  Length = 4138208 BitCount = 142 ID = 270704704x
   2.582208 1  1022C040x       Rx   d 6 00 10 00 20 00 00  Length = 3688216 BitCount = 127 ID = 270712896x
   2.585868 1  10734099x       Rx   d 6 24 43 00 7D 00 00  Length = 3534605 BitCount = 122 ID = 275988633x
   2.590252 1  10240040x       Rx   d 8 83 FE 88 01 01 2C 0F FC  Length = 4258208 BitCount = 146 ID = 270794816x
   2.597423 1  10248040x       Rx   d 7 00 00 6C D2 CC 1E 00  Length = 3898212 BitCount = 134 ID = 270827584x
   2.601865 1  102C0040x       Rx   d 5 AE EF 44 59 03  Length = 3294606 BitCount = 114 ID = 271319104x
   2.607750 1  102CA040x       Rx   d 8 00 40 0C A4 2C 00 F1 00  Length = 4138208 BitCount = 142 ID = 271360064x
   2.612791 1  102CC040x       Rx   d 8 00 09 CF 67 00 87 06 AD  Length = 4048212 BitCount = 139 ID = 271368256x
   2.615703 1  10308060x       Rx   d 3 44 59 01  Length = 2788236 BitCount = 97 ID = 271614048x
   2.620053 1  10264040x       Rx   d 8 04 06 00 00 00 00 00 3E  Length = 4224562 BitCount = 145 ID = 270942272x
   2.627855 1  10210040x       Rx   d 8 00 00 00 00 00 00 00 00  Length = 4284573 BitCount = 147 ID = 270598208x
   2.630705 1  10304058x       Rx   d 3 44 59 01  Length = 2724642 BitCount = 95 ID = 271597656x
   2.634908 1  102CE040x       Rx   d 8 90 00 66 7F 00 00 26 AD  Length = 4078212 BitCount = 140 ID = 271376448x
   2.637786 1  10306099x       Rx   d 3 44 59 01  Length = 2754657 BitCount = 96 ID = 271605913x
   2.642857 1  10220040x       Rx   d 8 10 00 00 00 00 07 00 00  Length = 4314558 BitCount = 148 ID = 270663744x
   2.647782 1  1022E040x       Rx   d 8 20 00 00 00 20 00 00 00  Length = 4288208 BitCount = 147 ID = 270721088x
   2.650815 1  106B0040x       Rx   d 1 00  Length = 2308248 BitCount = 81 ID = 275447872x
   2.657178 1  C800040x        Rx   d 6 08 CB 00 00 8D 03  Length = 3628231 BitCount = 125 ID = 209715264x
   2.662821 1  10230040x       Rx   d 8 30 00 00 00 30 00 00 00  Length = 4258208 BitCount = 146 ID = 270729280x
   2.667893 1  10780040x       Rx   d 8 00 00 01 04 08 00 00 22  Length = 4284562 BitCount = 147 ID = 276299840x
   2.677799 1  10240040x       Rx   d 8 83 FE 88 01 01 2C 0F FC  Length = 4258208 BitCount = 146 ID = 270794816x
   2.682962 1  106B8040x       Rx   d 8 00 00 00 00 00 00 00 00  Length = 4318208 BitCount = 148 ID = 275480640x
   2.697722 1  102CA040x       Rx   d 8 00 40 0C 9E 2C 00 F1 00  Length = 4134566 BitCount = 142 ID = 271360064x
   2.717771 1  10264040x       Rx   d 8 04 06 00 00 00 00 00 3E  Length = 4228208 BitCount = 145 ID = 270942272x
   2.722846 1  1043A040x       Rx   d 8 00 00 36 00 00 00 00 00  Length = 4288208 BitCount = 147 ID = 272867392x
   2.727887 1  10210040x       Rx   d 8 00 00 00 00 00 00 00 00  Length = 4288223 BitCount = 147 ID = 270598208x
   2.732570 1  1080A040x       Rx   d 7 00 00 00 00 00 00 00  Length = 4018212 BitCount = 138 ID = 276865088x
   2.737880 1  10220040x       Rx   d 8 10 00 00 00 00 07 00 00  Length = 4314573 BitCount = 148 ID = 270663744x
   2.747816 1  1022E040x       Rx   d 8 00 00 00 00 00 00 00 00  Length = 4318208 BitCount = 148 ID = 270721088x
   2.757781 1  10230040x       Rx   d 8 10 00 00 00 10 00 00 00  Length = 4258208 BitCount = 146 ID = 270729280x
   2.765825 1  106B0040x       Rx   d 1 00  Length = 2308248 BitCount = 81 ID = 275447872x
   2.777768 1  10240040x       Rx   d 8 83 FF 88 01 01 2C 0F FC  Length = 4194562 BitCount = 144 ID = 270794816x
   2.797752 1  102CA040x       Rx   d 8 00 40 0C AC 2C 00 F1 00  Length = 4134566 BitCount = 142 ID = 271360064x
   2.803277 1  108E0080x       Rx   d 6 0E 01 17 02 0D 81  Length = 3628216 BitCount = 125 ID = 277741696x
   2.817773 1  10264040x       Rx   d 8 04 06 00 00 00 00 00 3C  Length = 4198223 BitCount = 144 ID = 270942272x
   2.827858 1  10210040x       Rx   d 8 00 00 00 00 00 00 00 00  Length = 4288208 BitCount = 147 ID = 270598208x
   2.832751 1  1022A040x       Rx   d 8 00 B0 00 12 42 00 00 22  Length = 4138208 BitCount = 142 ID = 270704704x
   2.834973 1  13FFE060x       Rx   d 0  Length = 2098256 BitCount = 74 ID = 335536224x
   2.839384 1  10220040x       Rx   d 8 10 00 00 00 00 06 00 00  Length = 4288223 BitCount = 147 ID = 270663744x
   2.841783 1  13FFE080x       Rx   d 0  Length = 2064729 BitCount = 73 ID = 335536256x
   2.847248 1  1022C040x       Rx   d 6 00 10 00 20 00 00  Length = 3688216 BitCount = 127 ID = 270712896x
   2.852862 1  1022E040x       Rx   d 8 20 00 00 00 20 00 00 00  Length = 4288223 BitCount = 147 ID = 270721088x
   2.857817 1  10230040x       Rx   d 8 30 00 00 00 30 00 00 00  Length = 4258208 BitCount = 146 ID = 270729280x
   2.861234 1  10250040x       Rx   d 2 00 03  Length = 2604654 BitCount = 91 ID = 270860352x
   2.863430 1  13FFE099x       Rx   d 0  Length = 2068260 BitCount = 73 ID = 335536281x
   2.867690 1  102CC040x       Rx   d 8 00 09 CF 67 00 87 06 AF  Length = 4074581 BitCount = 140 ID = 271368256x
   2.872791 1  102CE040x       Rx   d 8 90 00 66 7F 00 00 26 AE  Length = 4134581 BitCount = 142 ID = 271376448x
   2.877806 1  10240040x       Rx   d 8 83 FF 88 01 01 2C 0F FC  Length = 4198208 BitCount = 144 ID = 270794816x
   2.882757 1  102D0040x       Rx   d 8 01 69 01 ED 7C 9A 00 FF  Length = 4108212 BitCount = 141 ID = 271384640x
   2.886870 1  102C0040x       Rx   d 5 AE EF 44 59 03  Length = 3298224 BitCount = 114 ID = 271319104x
   2.892810 1  102E0040x       Rx   d 8 00 33 CA 72 8A 00 62 81  Length = 4134566 BitCount = 142 ID = 271450176x
   2.897855 1  102CA040x       Rx   d 8 00 40 0C A9 2C 00 F1 00  Length = 4168208 BitCount = 143 ID = 271360064x
   2.902056 1  10466040x       Rx   d 5 00 00 00 00 00  Length = 3448220 BitCount = 119 ID = 273047616x
   2.907245 1  C800040x        Rx   d 6 08 CB 00 00 8D 06  Length = 3624586 BitCount = 125 ID = 209715264x
   2.910155 1  10304058x       Rx   d 3 44 59 01  Length = 2724642 BitCount = 95 ID = 271597656x
   2.912585 1  106B0040x       Rx   d 1 00  Length = 2304686 BitCount = 81 ID = 275447872x
   2.917806 1  10264040x       Rx   d 8 04 06 00 00 00 00 00 28  Length = 4194562 BitCount = 144 ID = 270942272x
   2.922997 1  106B8040x       Rx   d 8 00 00 00 00 00 00 00 00  Length = 4314558 BitCount = 148 ID = 275480640x
   2.927922 1  10210040x       Rx   d 8 00 00 00 00 00 00 00 00  Length = 4288208 BitCount = 147 ID = 270598208x
   2.932005 1  106C0040x       Rx   d 5 00 06 0F 07 00  Length = 3448220 BitCount = 119 ID = 275513408x
   2.934887 1  10306099x       Rx   d 3 44 59 01  Length = 2758236 BitCount = 96 ID = 271605913x
   2.939327 1  10220040x       Rx   d 8 10 00 00 00 00 04 00 00  Length = 4314573 BitCount = 148 ID = 270663744x
   2.942242 1  10308060x       Rx   d 3 44 59 01  Length = 2788236 BitCount = 97 ID = 271614048x
   2.947885 1  1022E040x       Rx   d 8 00 00 00 00 00 00 00 00  Length = 4318208 BitCount = 148 ID = 270721088x
   2.951728 1  1077C040x       Rx   d 4 30 30 01 F4  Length = 3148224 BitCount = 109 ID = 276283456x
   2.957849 1  10230040x       Rx   d 8 10 00 00 00 10 00 00 00  Length = 4254562 BitCount = 146 ID = 270729280x
   2.962981 1  10780040x       Rx   d 8 00 00 01 04 08 00 00 22  Length = 4284562 BitCount = 147 ID = 276299840x
   2.967936 1  1043A040x       Rx   d 8 00 00 37 00 00 00 00 00  Length = 4318208 BitCount = 148 ID = 272867392x
   2.972373 1  10788040x       Rx   d 6 08 00 00 00 00 00  Length = 3774582 BitCount = 130 ID = 276332608x
   2.976034 1  10734099x       Rx   d 6 24 43 00 7D 00 00  Length = 3534590 BitCount = 122 ID = 275988633x
   2.980357 1  10240040x       Rx   d 8 83 FF 88 01 01 2C 0F FC  Length = 4198223 BitCount = 144 ID = 270794816x
   2.987049 1  10806040x       Rx   d 5 00 00 00 00 19  Length = 3418220 BitCount = 118 ID = 276848704x
   2.997853 1  102CA040x       Rx   d 8 00 40 0C B0 2C 00 F1 00  Length = 4168223 BitCount = 143 ID = 271360064x
   3.017806 1  10264040x       Rx   d 8 04 06 00 00 00 00 00 3C  Length = 4194562 BitCount = 144 ID = 270942272x
   3.027922 1  10210040x       Rx   d 8 00 00 00 00 00 00 00 00  Length = 4288208 BitCount = 147 ID = 270598208x
   3.030895 1  106B0040x       Rx   d 1 00  Length = 2308248 BitCount = 81 ID = 275447872x
   3.033328 1  10244060x       Rx   d 1 02  Length = 2308263 BitCount = 81 ID = 270811232x
   3.037979 1  10220040x       Rx   d 8 10 00 00 00 00 04 00 00  Length = 4318208 BitCount = 148 ID = 270663744x
   3.047885 1  1022E040x       Rx   d 8 20 00 00 00 20 00 00 00  Length = 4288223 BitCount = 147 ID = 270721088x
   3.049553 1  Statistic: D 1 R 0 XD 153 XR 0 E 0 O 0 B 60.32%
   3.049553 2  Statistic: D 0 R 0 XD 0 XR 0 E 0 O 0 B 0.00%
   3.049553 3  Statistic: D 0 R 0 XD 0 XR 0 E 0 O 0 B 0.00%
   3.057880 1  10230040x       Rx   d 8 30 00 00 00 30 00 00 00  Length = 4258223 BitCount = 146 ID = 270729280x
   3.063160 1  10814099x       Rx   d 4 20 44 2E 00  Length = 3054618 BitCount = 106 ID = 276906137x
   3.077803 1  1022A040x       Rx   d 8 00 B0 00 12 42 00 00 22  Length = 4134566 BitCount = 142 ID = 270704704x
   3.082398 1  1022C040x       Rx   d 6 00 10 00 20 00 00  Length = 3688231 BitCount = 127 ID = 270712896x
   3.087863 1  10240040x       Rx   d 8 83 FF 88 01 01 2C 0F FC  Length = 4198208 BitCount = 144 ID = 270794816x
   3.092966 1  106B8040x       Rx   d 8 00 00 00 00 00 00 00 00  Length = 4318208 BitCount = 148 ID = 275480640x
   3.097559 1  10248040x       Rx   d 7 00 00 6C D2 CC 1E 00  Length = 3898212 BitCount = 134 ID = 270827584x
   3.102929 1  102CA040x       Rx   d 8 00 40 0C AF 2C 00 F1 00  Length = 4134566 BitCount = 142 ID = 271360064x
   3.107764 1  102CC040x       Rx   d 8 00 09 CF 67 00 87 06 AE  Length = 4048212 BitCount = 139 ID = 271368256x
   3.117848 1  10264040x       Rx   d 8 04 06 00 00 00 00 00 3C  Length = 4198208 BitCount = 144 ID = 270942272x
   3.122828 1  102CE040x       Rx   d 8 90 00 66 7F 00 00 26 AE  Length = 4134566 BitCount = 142 ID = 271376448x
   3.127963 1  10210040x       Rx   d 8 00 00 00 00 00 00 00 00  Length = 4288208 BitCount = 147 ID = 270598208x
   3.137925 1  10220040x       Rx   d 8 10 00 00 00 00 05 00 00  Length = 4288208 BitCount = 147 ID = 270663744x
   3.147920 1  1022E040x       Rx   d 8 00 00 00 00 00 00 00 00  Length = 4318208 BitCount = 148 ID = 270721088x
   3.150923 1  106B0040x       Rx   d 1 00  Length = 2308248 BitCount = 81 ID = 275447872x
   3.157318 1  C800040x        Rx   d 6 08 CB 00 00 8D 09  Length = 3598216 BitCount = 124 ID = 209715264x
   3.162931 1  10230040x       Rx   d 8 10 00 00 00 10 00 00 00  Length = 4258208 BitCount = 146 ID = 270729280x
   3.168035 1  10780040x       Rx   d 8 00 00 01 04 08 00 00 22  Length = 4288208 BitCount = 147 ID = 276299840x
   3.177879 1  10240040x       Rx   d 8 83 FF 88 01 01 2C 0F FC  Length = 4198208 BitCount = 144 ID = 270794816x
   3.182592 1  10EC4040x       Rx   d 8 4C 41 5A 41 36 39 53 44  Length = 3958212 BitCount = 136 ID = 283918400x
   3.186947 1  102C0040x       Rx   d 5 AE EF 44 59 03  Length = 3298224 BitCount = 114 ID = 271319104x
   3.192533 1  10EC8040x       Rx   d 8 48 42 37 30 31 34 39 36  Length = 3898212 BitCount = 134 ID = 283934784x
   3.197932 1  102CA040x       Rx   d 8 00 40 0C B5 2C 00 F1 00  Length = 4194562 BitCount = 144 ID = 271360064x
   3.208916 1  13FFE068x       Rx   d 0  Length = 2068260 BitCount = 73 ID = 335536232x
   3.211765 1  10304058x       Rx   d 3 44 59 01  Length = 2724642 BitCount = 95 ID = 271597656x
   3.214680 1  10308060x       Rx   d 3 44 59 01  Length = 2788236 BitCount = 97 ID = 271614048x
   3.219003 1  10264040x       Rx   d 8 04 06 00 00 00 00 00 28  Length = 4198208 BitCount = 144 ID = 270942272x
   3.222184 1  10448060x       Rx   d 4 00 00 45 00  Length = 3058228 BitCount = 106 ID = 272924768x
   3.224888 1  106D0080x       Rx   d 2 00 00  Length = 2578240 BitCount = 90 ID = 275579008x
   3.229298 1  10210040x       Rx   d 8 00 00 00 00 00 00 00 00  Length = 4284562 BitCount = 147 ID = 270598208x
   3.232838 1  10306099x       Rx   d 3 44 59 01  Length = 2754642 BitCount = 96 ID = 271605913x
   3.237970 1  10220040x       Rx   d 8 10 00 00 00 00 06 00 00  Length = 4284562 BitCount = 147 ID = 270663744x
   3.241780 1  10324058x       Rx   d 6 00 00 03 FF 00 00  Length = 3684586 BitCount = 127 ID = 271728728x
   3.246194 1  1043A040x       Rx   d 8 00 00 39 00 00 00 00 00  Length = 4288208 BitCount = 147 ID = 272867392x
   3.252949 1  1022E040x       Rx   d 8 20 00 00 00 20 00 00 00  Length = 4288208 BitCount = 147 ID = 270721088x
   3.257960 1  10230040x       Rx   d 8 30 00 00 00 30 00 00 00  Length = 4258208 BitCount = 146 ID = 270729280x
   3.266005 1  106B0040x       Rx   d 1 00  Length = 2308248 BitCount = 81 ID = 275447872x
   3.277979 1  10240040x       Rx   d 8 83 FE 88 01 01 2C 0F FC  Length = 4258223 BitCount = 146 ID = 270794816x
   3.283023 1  106B8040x       Rx   d 8 00 00 00 00 00 00 00 00  Length = 4318208 BitCount = 148 ID = 275480640x
   3.285874 1  13FFE040x       Rx   d 0  Length = 2068275 BitCount = 73 ID = 335536192x
   3.297906 1  102CA040x       Rx   d 8 00 40 0C AE 2D 00 F1 00  Length = 4074566 BitCount = 140 ID = 271360064x
   3.317891 1  10264040x       Rx   d 8 04 06 00 00 00 00 00 3C  Length = 4194562 BitCount = 144 ID = 270942272x
   3.328008 1  10210040x       Rx   d 8 00 00 00 00 00 00 00 00  Length = 4288208 BitCount = 147 ID = 270598208x
   3.332869 1  1022A040x       Rx   d 8 00 B0 00 12 42 00 00 22  Length = 4138208 BitCount = 142 ID = 270704704x
   3.338002 1  10220040x       Rx   d 8 10 00 00 00 00 06 00 00  Length = 4288208 BitCount = 147 ID = 270663744x
   3.342383 1  1022C040x       Rx   d 6 00 10 00 20 00 00  Length = 3688216 BitCount = 127 ID = 270712896x
   3.347994 1  1022E040x       Rx   d 8 00 00 00 00 00 00 00 00  Length = 4318208 BitCount = 148 ID = 270721088x
   3.357929 1  10230040x       Rx   d 8 10 00 00 00 10 00 00 00  Length = 4258208 BitCount = 146 ID = 270729280x
   3.362884 1  102CC040x       Rx   d 8 00 09 CF 67 00 87 06 AF  Length = 4078212 BitCount = 140 ID = 271368256x
   3.367925 1  102CE040x       Rx   d 8 90 00 66 7F 00 00 26 AD  Length = 4078212 BitCount = 140 ID = 271376448x
   3.372819 1  102D0040x       Rx   d 8 01 69 01 ED 7C 9A 00 FF  Length = 4108212 BitCount = 141 ID = 271384640x
   3.377918 1  10240040x       Rx   d 8 83 FF 88 01 01 2C 0F FC  Length = 4194562 BitCount = 144 ID = 270794816x
   3.380983 1  106B0040x       Rx   d 1 00  Length = 2308248 BitCount = 81 ID = 275447872x
   3.387286 1  10806040x       Rx   d 5 00 00 00 00 19  Length = 3418235 BitCount = 118 ID = 276848704x
   3.397883 1  102CA040x       Rx   d 8 00 40 0C C3 2D 00 F1 00  Length = 4108212 BitCount = 141 ID = 271360064x
   3.403076 1  10780040x       Rx   d 8 00 00 01 04 08 00 00 22  Length = 4288208 BitCount = 147 ID = 276299840x
   3.407337 1  C800040x        Rx   d 6 08 CB 00 00 8D 0C  Length = 3598216 BitCount = 124 ID = 209715264x
   3.412496 1  10788040x       Rx   d 6 08 00 00 00 00 00  Length = 3774582 BitCount = 130 ID = 276332608x
   3.417931 1  10264040x       Rx   d 8 04 06 00 00 00 00 00 3D  Length = 4198208 BitCount = 144 ID = 270942272x
   3.428016 1  10210040x       Rx   d 8 00 00 00 00 00 00 00 00  Length = 4288208 BitCount = 147 ID = 270598208x
   3.438070 1  10220040x       Rx   d 8 10 00 00 00 00 07 00 00  Length = 4318223 BitCount = 148 ID = 270663744x
   3.447975 1  1022E040x       Rx   d 8 20 00 00 00 20 00 00 00  Length = 4288223 BitCount = 147 ID = 270721088x
   3.457939 1  10230040x       Rx   d 8 30 00 00 00 30 00 00 00  Length = 4258208 BitCount = 146 ID = 270729280x
   3.468084 1  1043A040x       Rx   d 8 00 00 37 00 00 00 00 00  Length = 4318223 BitCount = 148 ID = 272867392x
   3.473632 1  10734099x       Rx   d 6 24 43 00 7D 00 00  Length = 3534590 BitCount = 122 ID = 275988633x
   3.477955 1  10240040x       Rx   d 8 83 FF 88 01 01 2C 0F FC  Length = 4198208 BitCount = 144 ID = 270794816x
   3.480113 1  13FFE0BBx       Rx   d 0  Length = 2034733 BitCount = 72 ID = 335536315x
   3.484556 1  106B8040x       Rx   d 8 00 00 00 00 00 00 00 00  Length = 4318208 BitCount = 148 ID = 275480640x
   3.492002 1  102C0040x       Rx   d 5 AE EF 44 59 03  Length = 3298239 BitCount = 114 ID = 271319104x
   3.498031 1  102CA040x       Rx   d 8 00 40 0C CD 2C 00 F1 00  Length = 4134581 BitCount = 142 ID = 271360064x
   3.501126 1  106B0040x       Rx   d 1 00  Length = 2308248 BitCount = 81 ID = 275447872x
   3.517992 1  10264040x       Rx   d 8 04 06 00 00 00 00 00 3F  Length = 4258208 BitCount = 146 ID = 270942272x
   3.520842 1  10304058x       Rx   d 3 44 59 01  Length = 2724657 BitCount = 95 ID = 271597656x
   3.528041 1  10210040x       Rx   d 8 00 00 00 00 00 00 00 00  Length = 4284562 BitCount = 147 ID = 270598208x
   3.532844 1  10306099x       Rx   d 3 44 59 01  Length = 2758236 BitCount = 96 ID = 271605913x
   3.535753 1  10308060x       Rx   d 3 44 59 01  Length = 2784653 BitCount = 97 ID = 271614048x
   3.540006 CAN 1 Status:chip status error active  - TxErr: 0 RxErr: 1
   3.540013 1  ErrorFrame	Flags = 0xfffe	CodeExt = 0x2072	Code = 0x81	ID = 0x90220040	DLC = 8	Position = 120	Length = 4134390	Data = 0x10  0  0  0  0  0x3  0  0
   3.544625 CAN 1 Status:chip status error active
   3.544655 CAN 1 Status:chip status error active  - TxErr: 0 RxErr: 1
   3.544663 1  ErrorFrame	Flags = 0xfffe	CodeExt = 0x2072	Code = 0x81	ID = 0x90220040	DLC = 8	Position = 120	Length = 4134375	Data = 0x10  0  0  0  0  0x3  0  0
   3.549274 CAN 1 Status:chip status error active
   3.549304 CAN 1 Status:chip status error active  - TxErr: 0 RxErr: 1
   3.549312 1  ErrorFrame	Flags = 0xfffe	CodeExt = 0x2072	Code = 0x81	ID = 0x90220040	DLC = 8	Position = 120	Length = 4134375	Data = 0x10  0  0  0  0  0x3  0  0
   3.553923 CAN 1 Status:chip status error active
   3.553953 CAN 1 Status:chip status error active  - TxErr: 0 RxErr: 1
   3.553961 1  ErrorFrame	Flags = 0xfffe	CodeExt = 0x2072	Code = 0x81	ID = 0x90220040	DLC = 8	Position = 120	Length = 4134375	Data = 0x10  0  0  0  0  0x3  0  0
   3.558572 CAN 1 Status:chip status error active
   3.558790 1  10220040x       Rx   d 8 10 00 00 00 00 03 00 00  Length = 4314558 BitCount = 148 ID = 270663744x
   3.568004 1  1022E040x       Rx   d 8 20 00 00 00 20 00 00 00  Length = 4288208 BitCount = 147 ID = 270721088x
   3.572987 1  10230040x       Rx   d 8 20 00 00 00 20 00 00 00  Length = 4258208 BitCount = 146 ID = 270729280x
   3.577940 1  1022A040x       Rx   d 8 00 B0 00 12 42 00 00 22  Length = 4138208 BitCount = 142 ID = 270704704x
   3.582438 1  1022C040x       Rx   d 6 00 10 00 20 00 00  Length = 3684586 BitCount = 127 ID = 270712896x
   3.588143 1  10240040x       Rx   d 8 83 FF 88 01 01 2C 0F FC  Length = 4198208 BitCount = 144 ID = 270794816x
   3.592316 1  621             Rx   d 8 00 52 00 00 00 00 00 00  Length = 3598216 BitCount = 124 ID = 1569
   3.596034 1  10242040x       Rx   d 1 02  Length = 2304686 BitCount = 81 ID = 270803008x
   3.602667 1  10248040x       Rx   d 7 00 00 6C D2 CC 1E 00  Length = 3898212 BitCount = 134 ID = 270827584x
   3.608006 1  102CA040x       Rx   d 8 00 40 0C B3 2C 00 F1 00  Length = 4164566 BitCount = 143 ID = 271360064x
   3.612841 1  102CC040x       Rx   d 8 00 09 CF 67 00 87 06 AD  Length = 4048227 BitCount = 139 ID = 271368256x
   3.617970 1  10264040x       Rx   d 8 04 06 00 00 00 00 00 2A  Length = 4194577 BitCount = 144 ID = 270942272x
   3.622955 1  102CE040x       Rx   d 8 90 00 66 7F 00 00 26 AE  Length = 4138208 BitCount = 142 ID = 271376448x
   3.628145 1  10210040x       Rx   d 8 00 00 00 00 00 00 00 00  Length = 4284562 BitCount = 147 ID = 270598208x
   3.631058 1  106B0040x       Rx   d 1 00  Length = 2308248 BitCount = 81 ID = 275447872x
   3.638109 1  10220040x       Rx   d 8 10 00 00 00 00 02 00 00  Length = 4314558 BitCount = 148 ID = 270663744x
   3.640334 1  13FFE058x       Rx   d 0  Length = 2098256 BitCount = 74 ID = 335536216x
   3.648044 1  1022E040x       Rx   d 8 20 00 00 00 20 00 00 00  Length = 4284562 BitCount = 147 ID = 270721088x
   3.653119 1  10780040x       Rx   d 8 00 00 01 04 08 00 00 22  Length = 4288208 BitCount = 147 ID = 276299840x
   3.657436 1  C800040x        Rx   d 6 08 CB 00 00 8D 10  Length = 3624586 BitCount = 125 ID = 209715264x
   3.663021 1  10230040x       Rx   d 8 30 00 00 00 30 00 00 00  Length = 4258208 BitCount = 146 ID = 270729280x
   3.677866 CAN 1 Status:chip status error active  - TxErr: 0 RxErr: 1
   3.677873 1  ErrorFrame	Flags = 0xfffe	CodeExt = 0x2072	Code = 0x81	ID = 0x90240040	DLC = 8	Position = 120	Length = 4014375	Data = 0x83  0xff  0x88  0x1  0x1  0x2c  0xf  0xfc
   3.682365 CAN 1 Status:chip status error active
   3.682582 1  10240040x       Rx   d 8 83 FF 88 01 01 2C 0F FC  Length = 4194562 BitCount = 144 ID = 270794816x
   3.688287 1  106B8040x       Rx   d 8 00 00 00 00 00 00 00 00  Length = 4318223 BitCount = 148 ID = 275480640x
   3.698012 1  102CA040x       Rx   d 8 00 40 0C D2 2C 00 F1 00  Length = 4168208 BitCount = 143 ID = 271360064x
   3.718031 1  10264040x       Rx   d 8 04 06 00 00 00 00 00 3F  Length = 4258208 BitCount = 146 ID = 270942272x
   3.723072 1  1043A040x       Rx   d 8 00 00 36 00 00 00 00 00  Length = 4284562 BitCount = 147 ID = 272867392x
   3.728147 1  10210040x       Rx   d 8 00 00 00 00 00 00 00 00  Length = 4288208 BitCount = 147 ID = 270598208x
   3.732828 1  1080A040x       Rx   d 7 00 00 00 00 00 00 00  Length = 4018227 BitCount = 138 ID = 276865088x
   3.738110 1  10220040x       Rx   d 8 10 00 00 00 00 06 00 00  Length = 4284562 BitCount = 147 ID = 270663744x
   3.748074 1  1022E040x       Rx   d 8 00 00 00 00 00 00 00 00  Length = 4318223 BitCount = 148 ID = 270721088x
   3.751079 1  106B0040x       Rx   d 1 00  Length = 2308248 BitCount = 81 ID = 275447872x
   3.758039 1  10230040x       Rx   d 8 10 00 00 00 10 00 00 00  Length = 4254562 BitCount = 146 ID = 270729280x
   3.771720 1  13FFE0AFx       Rx   d 0  Length = 2068260 BitCount = 73 ID = 335536303x
   3.778083 1  10240040x       Rx   d 8 83 FF 88 01 01 2C 0F FC  Length = 4198208 BitCount = 144 ID = 270794816x
   3.787058 1  102C0040x       Rx   d 5 AE EF 44 59 03  Length = 3298224 BitCount = 114 ID = 271319104x
   3.793299 1  108E0080x       Rx   d 6 0E 01 17 02 0D 82  Length = 3654586 BitCount = 126 ID = 277741696x
   3.798042 1  102CA040x       Rx   d 8 00 40 0C D5 2C 00 F1 00  Length = 4168208 BitCount = 143 ID = 271360064x
   3.809923 1  10304058x       Rx   d 3 44 59 01  Length = 2728236 BitCount = 95 ID = 271597656x
   3.813282 1  10308060x       Rx   d 3 44 59 01  Length = 2784638 BitCount = 97 ID = 271614048x
   3.818087 1  10264040x       Rx   d 8 04 06 00 00 00 00 00 3E  Length = 4228208 BitCount = 145 ID = 270942272x
   3.828231 1  10210040x       Rx   d 8 00 00 00 00 00 00 00 00  Length = 4288223 BitCount = 147 ID = 270598208x
   3.833003 1  1022A040x       Rx   d 8 00 B0 00 12 42 00 00 22  Length = 4138208 BitCount = 142 ID = 270704704x
   3.835882 1  10306099x       Rx   d 3 44 59 01  Length = 2754642 BitCount = 96 ID = 271605913x
   3.840293 1  10220040x       Rx   d 8 10 00 00 00 00 05 00 00  Length = 4284573 BitCount = 147 ID = 270663744x
   3.847493 1  1022C040x       Rx   d 6 00 10 00 20 00 00  Length = 3684586 BitCount = 127 ID = 270712896x
   3.853078 1  1022E040x       Rx   d 8 20 00 00 00 20 00 00 00  Length = 4288223 BitCount = 147 ID = 270721088x
   3.858061 1  10230040x       Rx   d 8 30 00 00 00 30 00 00 00  Length = 4258208 BitCount = 146 ID = 270729280x
   3.861480 1  10250040x       Rx   d 2 00 03  Length = 2604669 BitCount = 91 ID = 270860352x
   3.868025 1  102CC040x       Rx   d 8 00 09 CF 67 00 87 06 AB  Length = 4048227 BitCount = 139 ID = 271368256x
   3.872948 1  102CE040x       Rx   d 8 90 00 66 7F 00 00 26 AB  Length = 4078212 BitCount = 140 ID = 271376448x
   3.878140 1  10240040x       Rx   d 8 83 FE 88 01 01 2C 0F FC  Length = 4258208 BitCount = 146 ID = 270794816x
   3.882971 1  102D0040x       Rx   d 8 01 69 01 ED 7C 9A 00 FF  Length = 4108212 BitCount = 141 ID = 271384640x
   3.888044 1  102E0040x       Rx   d 8 00 33 CA 72 8A 00 62 81  Length = 4138208 BitCount = 142 ID = 271450176x
   3.891107 1  106B0040x       Rx   d 1 00  Length = 2308248 BitCount = 81 ID = 275447872x
   3.898037 1  102CA040x       Rx   d 8 00 40 0C C5 2C 00 F1 00  Length = 4134566 BitCount = 142 ID = 271360064x
   3.903168 1  106B8040x       Rx   d 8 00 00 00 00 00 00 00 00  Length = 4314558 BitCount = 148 ID = 275480640x
   3.907459 1  C800040x        Rx   d 6 08 CB 00 00 8D 12  Length = 3594601 BitCount = 124 ID = 209715264x
   3.912264 1  106C0040x       Rx   d 5 00 06 0F 07 00  Length = 3448220 BitCount = 119 ID = 275513408x
   3.918087 1  10264040x       Rx   d 8 04 06 00 00 00 00 00 29  Length = 4228208 BitCount = 145 ID = 270942272x
   3.921961 1  1077C040x       Rx   d 4 30 30 01 F4  Length = 3148224 BitCount = 109 ID = 276283456x
   3.928140 1  10210040x       Rx   d 8 00 00 00 00 00 00 00 00  Length = 4284573 BitCount = 147 ID = 270598208x
   3.933181 1  10780040x       Rx   d 8 00 00 01 04 08 00 00 22  Length = 4284573 BitCount = 147 ID = 276299840x
   3.938166 1  10220040x       Rx   d 8 10 00 00 00 00 06 00 00  Length = 4288208 BitCount = 147 ID = 270663744x
   3.942639 1  10788040x       Rx   d 6 08 00 00 00 00 00  Length = 3778231 BitCount = 130 ID = 276332608x
   3.948165 1  1022E040x       Rx   d 8 00 00 00 00 00 00 00 00  Length = 4318208 BitCount = 148 ID = 270721088x
   3.952278 1  10806040x       Rx   d 5 00 00 00 00 19  Length = 3418220 BitCount = 118 ID = 276848704x
   3.958071 1  10230040x       Rx   d 8 10 00 00 00 10 00 00 00  Length = 4258223 BitCount = 146 ID = 270729280x
   3.968184 1  1043A040x       Rx   d 8 00 00 39 00 00 00 00 00  Length = 4288208 BitCount = 147 ID = 272867392x
   3.973643 1  10734099x       Rx   d 6 24 43 00 7D 00 00  Length = 3534590 BitCount = 122 ID = 275988633x
   3.978082 1  10240040x       Rx   d 8 83 FF 88 01 01 2C 0F FC  Length = 4194562 BitCount = 144 ID = 270794816x
   3.998041 1  102CA040x       Rx   d 8 00 40 0C CA 2C 00 F1 00  Length = 4138208 BitCount = 142 ID = 271360064x
   4.002801 Li SleepModeEvent 0 entering sleep mode due to bus idle timeout
   4.006117 1  106B0040x       Rx   d 1 00  Length = 2308263 BitCount = 81 ID = 275447872x
   4.018090 1  10264040x       Rx   d 8 04 06 00 00 00 00 00 3E  Length = 4224562 BitCount = 145 ID = 270942272x
   4.028176 1  10210040x       Rx   d 8 00 00 00 00 00 00 00 00  Length = 4288208 BitCount = 147 ID = 270598208x
   4.032646 1  13FFE060x       Rx   d 0  Length = 2094710 BitCount = 74 ID = 335536224x
   4.038169 1  10220040x       Rx   d 8 10 00 00 00 00 08 00 00  Length = 4318208 BitCount = 148 ID = 270663744x
   4.041769 1  13FFE080x       Rx   d 0  Length = 2064729 BitCount = 73 ID = 335536256x
   4.048133 1  1022E040x       Rx   d 8 20 00 00 00 20 00 00 00  Length = 4288223 BitCount = 147 ID = 270721088x
   4.049553 1  Statistic: D 1 R 0 XD 153 XR 0 E 5 O 0 B 62.52%
   4.049553 2  Statistic: D 0 R 0 XD 0 XR 0 E 0 O 0 B 0.00%
   4.049553 3  Statistic: D 0 R 0 XD 0 XR 0 E 0 O 0 B 0.00%
   4.058130 1  10230040x       Rx   d 8 30 00 00 00 30 00 00 00  Length = 4258208 BitCount = 146 ID = 270729280x
   4.062182 1  13FFE099x       Rx   d 0  Length = 2068260 BitCount = 73 ID = 335536281x
   4.078028 1  1022A040x       Rx   d 8 00 B0 00 12 42 00 00 22  Length = 4138208 BitCount = 142 ID = 270704704x
   4.082558 1  1022C040x       Rx   d 6 00 10 00 20 00 00  Length = 3684597 BitCount = 127 ID = 270712896x
   4.088203 1  10240040x       Rx   d 8 83 FE 88 01 01 2C 0F FC  Length = 4258208 BitCount = 146 ID = 270794816x
   4.092166 1  102C0040x       Rx   d 5 AE EF 44 59 03  Length = 3298224 BitCount = 114 ID = 271319104x
   4.095886 1  10734099x       Rx   d 6 24 44 00 7D 00 00  Length = 3594601 BitCount = 124 ID = 275988633x
   4.099908 1  10248040x       Rx   d 7 00 00 6C D2 CC 1F 00  Length = 3898212 BitCount = 134 ID = 270827584x
   4.108102 1  102CA040x       Rx   d 8 00 40 0C B6 2C 00 F1 00  Length = 4138208 BitCount = 142 ID = 271360064x
   4.112965 1  102CC040x       Rx   d 8 00 09 CF 67 00 87 06 AE  Length = 4048227 BitCount = 139 ID = 271368256x
   4.118128 1  10264040x       Rx   d 8 04 06 00 00 00 00 00 3E  Length = 4228208 BitCount = 145 ID = 270942272x
   4.120980 1  10304058x       Rx   d 3 44 59 01  Length = 2728236 BitCount = 95 ID = 271597656x
   4.125182 1  102CE040x       Rx   d 8 90 00 67 7F 00 00 26 AD  Length = 4078212 BitCount = 140 ID = 271376448x
   4.133192 1  10210040x       Rx   d 8 00 00 00 00 00 00 00 00  Length = 4284562 BitCount = 147 ID = 270598208x
   4.136076 1  10306099x       Rx   d 3 44 59 01  Length = 2758236 BitCount = 96 ID = 271605913x
   4.140519 1  10220040x       Rx   d 8 10 00 00 00 00 03 00 00  Length = 4318208 BitCount = 148 ID = 270663744x
   4.143427 1  10308060x       Rx   d 3 44 59 01  Length = 2784638 BitCount = 97 ID = 271614048x
   4.148199 1  1022E040x       Rx   d 8 00 00 00 00 00 00 00 00  Length = 4318208 BitCount = 148 ID = 270721088x
   4.151173 1  106B0040x       Rx   d 1 00  Length = 2308248 BitCount = 81 ID = 275447872x
   4.157598 1  C800040x        Rx   d 6 08 CB 00 00 8D 16  Length = 3598216 BitCount = 124 ID = 209715264x
   4.163121 1  10230040x       Rx   d 8 10 00 00 00 10 00 00 00  Length = 4258208 BitCount = 146 ID = 270729280x
   4.168344 1  106B8040x       Rx   d 8 00 00 00 00 00 00 00 00  Length = 4318208 BitCount = 148 ID = 275480640x
   4.173266 1  10780040x       Rx   d 8 00 00 01 04 08 00 00 22  Length = 4288223 BitCount = 147 ID = 276299840x
   4.178159 1  10240040x       Rx   d 8 83 FF 88 01 01 2C 0F FC  Length = 4198208 BitCount = 144 ID = 270794816x
   4.198082 1  102CA040x       Rx   d 8 00 40 0C B9 2C 00 F1 00  Length = 4134566 BitCount = 142 ID = 271360064x
   4.203632 1  10734099x       Rx   d 6 24 43 00 7D 00 00  Length = 3534590 BitCount = 122 ID = 275988633x
   4.213561 1  10448060x       Rx   d 4 00 00 45 00  Length = 3054618 BitCount = 106 ID = 272924768x
   4.218185 1  10264040x       Rx   d 8 04 06 00 00 00 00 00 3E  Length = 4228208 BitCount = 145 ID = 270942272x
   4.223200 1  1043A040x       Rx   d 8 00 00 36 00 00 00 00 00  Length = 4288208 BitCount = 147 ID = 272867392x
   4.228241 1  10210040x       Rx   d 8 00 00 00 00 00 00 00 00  Length = 4288208 BitCount = 147 ID = 270598208x
   4.238265 1  10220040x       Rx   d 8 10 00 00 00 00 04 00 00  Length = 4318208 BitCount = 148 ID = 270663744x
   4.248170 1  1022E040x       Rx   d 8 20 00 00 00 20 00 00 00  Length = 4288208 BitCount = 147 ID = 270721088x
   4.258164 1  10230040x       Rx   d 8 30 00 00 00 30 00 00 00  Length = 4258208 BitCount = 146 ID = 270729280x
   4.266269 1  106B0040x       Rx   d 1 00  Length = 2308263 BitCount = 81 ID = 275447872x
   4.278155 1  10240040x       Rx   d 8 83 FF 88 01 01 2C 0F FC  Length = 4198208 BitCount = 144 ID = 270794816x
   4.283256 1  106B8040x       Rx   d 8 00 00 00 00 00 00 00 00  Length = 4318208 BitCount = 148 ID = 275480640x
   4.298226 1  102CA040x       Rx   d 8 00 40 0C BB 2C 00 F1 00  Length = 4164566 BitCount = 143 ID = 271360064x
   4.318155 1  10264040x       Rx   d 8 04 06 00 00 00 00 00 29  Length = 4228223 BitCount = 145 ID = 270942272x
   4.328241 1  10210040x       Rx   d 8 00 00 00 00 00 00 00 00  Length = 4288208 BitCount = 147 ID = 270598208x
   4.333105 1  1022A040x       Rx   d 8 00 B0 00 12 42 00 00 22  Length = 4138208 BitCount = 142 ID = 270704704x
   4.338234 1  10220040x       Rx   d 8 10 00 00 00 00 06 00 00  Length = 4284573 BitCount = 147 ID = 270663744x
   4.342619 1  1022C040x       Rx   d 6 00 10 00 20 00 00  Length = 3688216 BitCount = 127 ID = 270712896x
   4.348234 1  1022E040x       Rx   d 8 00 00 00 00 00 00 00 00  Length = 4318208 BitCount = 148 ID = 270721088x
   4.358169 1  10230040x       Rx   d 8 10 00 00 00 10 00 00 00  Length = 4258208 BitCount = 146 ID = 270729280x
   4.363092 1  102CC040x       Rx   d 8 00 09 CF 67 00 87 06 AD  Length = 4048212 BitCount = 139 ID = 271368256x
   4.368135 1  102CE040x       Rx   d 8 90 00 66 7F 00 00 26 AD  Length = 4078212 BitCount = 140 ID = 271376448x
   4.373088 1  102D0040x       Rx   d 8 01 69 01 ED 7C 99 00 FF  Length = 4108212 BitCount = 141 ID = 271384640x
   4.378250 1  10240040x       Rx   d 8 83 FE 88 01 01 2C 0F FC  Length = 4258208 BitCount = 146 ID = 270794816x
   4.381221 1  106B0040x       Rx   d 1 00  Length = 2308248 BitCount = 81 ID = 275447872x
   4.387222 1  102C0040x       Rx   d 5 AE EF 44 59 03  Length = 3294606 BitCount = 114 ID = 271319104x
   4.392383 1  10806040x       Rx   d 5 00 00 00 00 19  Length = 3414598 BitCount = 118 ID = 276848704x
   4.396104 1  10734099x       Rx   d 6 24 44 00 7D 00 00  Length = 3594601 BitCount = 124 ID = 275988633x
   4.400423 1  102CA040x       Rx   d 8 00 40 0C BF 2C 00 F1 00  Length = 4194562 BitCount = 144 ID = 271360064x
   4.407629 1  C800040x        Rx   d 6 08 CB 00 00 8D 19  Length = 3598216 BitCount = 124 ID = 209715264x
   4.410479 1  10304058x       Rx   d 3 44 59 01  Length = 2724642 BitCount = 95 ID = 271597656x
   4.413393 1  10308060x       Rx   d 3 44 59 01  Length = 2788247 BitCount = 97 ID = 271614048x
   4.417805 1  10780040x       Rx   d 8 00 00 01 04 08 00 00 22  Length = 4288208 BitCount = 147 ID = 276299840x
   4.419997 1  13FFE068x       Rx   d 0  Length = 2068260 BitCount = 73 ID = 335536232x
   4.424319 1  10264040x       Rx   d 8 04 06 00 00 00 00 00 3D  Length = 4198208 BitCount = 144 ID = 270942272x
   4.427016 1  106D0080x       Rx   d 2 00 00  Length = 2574658 BitCount = 90 ID = 275579008x
   4.433070 CAN 1 Status:chip status error active  - TxErr: 0 RxErr: 1
   4.433077 1  ErrorFrame	Flags = 0xfffe	CodeExt = 0x2072	Code = 0x81	ID = 0x90210040	DLC = 8	Position = 120	Length = 4104375	Data = 0  0  0  0  0  0  0  0
   4.437659 CAN 1 Status:chip status error active
   4.437876 1  10210040x       Rx   d 8 00 00 00 00 00 00 00 00  Length = 4284573 BitCount = 147 ID = 270598208x
   4.440761 1  10306099x       Rx   d 3 44 59 01  Length = 2758236 BitCount = 96 ID = 271605913x
   4.445170 1  10220040x       Rx   d 8 10 00 00 00 00 06 00 00  Length = 4284562 BitCount = 147 ID = 270663744x
   4.453246 1  1022E040x       Rx   d 8 20 00 00 00 20 00 00 00  Length = 4288223 BitCount = 147 ID = 270721088x
   4.456996 1  624             Rx   d 8 00 20 00 00 00 00 00 00  Length = 3624601 BitCount = 125 ID = 1572
   4.461376 1  10230040x       Rx   d 8 30 00 00 00 30 00 00 00  Length = 4254562 BitCount = 146 ID = 270729280x
   4.468370 1  1043A040x       Rx   d 8 00 00 36 00 00 00 00 00  Length = 4288208 BitCount = 147 ID = 272867392x
   4.472747 1  10788040x       Rx   d 6 08 00 00 00 00 00  Length = 3774582 BitCount = 130 ID = 276332608x
   4.478208 1  10240040x       Rx   d 8 83 FF 88 01 01 2C 0F FC  Length = 4194562 BitCount = 144 ID = 270794816x
   4.483311 1  106B8040x       Rx   d 8 00 00 00 00 00 00 00 00  Length = 4318208 BitCount = 148 ID = 275480640x
   4.486039 1  13FFE040x       Rx   d 0  Length = 2064729 BitCount = 73 ID = 335536192x
   4.498221 1  102CA040x       Rx   d 8 00 40 0C A3 2C 00 F1 00  Length = 4164566 BitCount = 143 ID = 271360064x
   4.501256 1  106B0040x       Rx   d 1 00  Length = 2308263 BitCount = 81 ID = 275447872x
   4.504914 1  10734099x       Rx   d 6 24 43 00 7D 00 00  Length = 3534590 BitCount = 122 ID = 275988633x
   4.518240 1  10264040x       Rx   d 8 04 06 00 00 00 00 00 3B  Length = 4228223 BitCount = 145 ID = 270942272x
   4.528386 1  10210040x       Rx   d 8 00 00 00 00 00 00 00 00  Length = 4288208 BitCount = 147 ID = 270598208x
   4.538319 1  10220040x       Rx   d 8 10 00 00 00 00 06 00 00  Length = 4288208 BitCount = 147 ID = 270663744x
   4.548285 1  1022E040x       Rx   d 8 00 00 00 00 00 00 00 00  Length = 4318208 BitCount = 148 ID = 270721088x
   4.558250 1  10230040x       Rx   d 8 10 00 00 00 10 00 00 00  Length = 4258223 BitCount = 146 ID = 270729280x
   4.578203 1  1022A040x       Rx   d 8 00 B0 00 12 42 00 00 22  Length = 4134566 BitCount = 142 ID = 270704704x
   4.582678 1  1022C040x       Rx   d 6 00 10 00 20 00 00  Length = 3688216 BitCount = 127 ID = 270712896x
   4.588293 1  10240040x       Rx   d 8 83 FE 88 01 01 2C 0F FC  Length = 4258208 BitCount = 146 ID = 270794816x
   4.597897 1  10248040x       Rx   d 7 00 00 6C D2 CC 1F 00  Length = 3898212 BitCount = 134 ID = 270827584x
   4.603209 1  102CA040x       Rx   d 8 00 40 0C AB 2C 00 F1 00  Length = 4134566 BitCount = 142 ID = 271360064x
   4.608104 1  102CC040x       Rx   d 8 00 09 CF 67 00 87 06 AE  Length = 4048212 BitCount = 139 ID = 271368256x
   4.612577 1  621             Rx   d 8 00 52 00 00 00 00 00 00  Length = 3598231 BitCount = 124 ID = 1569
   4.618222 1  10264040x       Rx   d 8 04 06 00 00 00 00 00 3C  Length = 4198208 BitCount = 144 ID = 270942272x
   4.623145 1  102CE040x       Rx   d 8 90 00 66 7F 00 00 26 AD  Length = 4078212 BitCount = 140 ID = 271376448x
   4.628366 1  10210040x       Rx   d 8 00 00 00 00 00 00 00 00  Length = 4288208 BitCount = 147 ID = 270598208x
   4.631308 1  106B0040x       Rx   d 1 00  Length = 2308248 BitCount = 81 ID = 275447872x
   4.638363 1  10220040x       Rx   d 8 10 00 00 00 00 07 00 00  Length = 4318208 BitCount = 148 ID = 270663744x
   4.648269 1  1022E040x       Rx   d 8 20 00 00 00 20 00 00 00  Length = 4288208 BitCount = 147 ID = 270721088x
   4.653373 1  10780040x       Rx   d 8 00 00 01 04 08 00 00 22  Length = 4288208 BitCount = 147 ID = 276299840x
   4.657664 1  C800040x        Rx   d 6 08 CB 00 00 8D 1D  Length = 3628216 BitCount = 125 ID = 209715264x
   4.663275 1  10230040x       Rx   d 8 30 00 00 00 30 00 00 00  Length = 4258208 BitCount = 146 ID = 270729280x
   4.675328 1  13FFE0BBx       Rx   d 0  Length = 2034718 BitCount = 72 ID = 335536315x
   4.679649 1  10240040x       Rx   d 8 83 FF 88 01 01 2C 0F FC  Length = 4194562 BitCount = 144 ID = 270794816x
   4.687302 1  102C0040x       Rx   d 5 AE EF 44 59 03  Length = 3294617 BitCount = 114 ID = 271319104x
   4.693363 1  106B8040x       Rx   d 8 00 00 00 00 00 00 00 00  Length = 4314558 BitCount = 148 ID = 275480640x
   4.697084 1  10734099x       Rx   d 6 24 44 00 7D 00 00  Length = 3594601 BitCount = 124 ID = 275988633x
   4.701406 1  102CA040x       Rx   d 8 00 40 0C B5 2C 00 F1 00  Length = 4198208 BitCount = 144 ID = 271360064x
   4.709683 1  10304058x       Rx   d 3 44 59 01  Length = 2724642 BitCount = 95 ID = 271597656x
   4.718235 1  10264040x       Rx   d 8 04 06 00 00 00 00 00 28  Length = 4194562 BitCount = 144 ID = 270942272x
   4.723340 1  1043A040x       Rx   d 8 00 00 39 00 00 00 00 00  Length = 4288208 BitCount = 147 ID = 272867392x
   4.728501 1  10210040x       Rx   d 8 00 00 00 00 00 00 00 00  Length = 4288208 BitCount = 147 ID = 270598208x
   4.733062 1  1080A040x       Rx   d 7 00 00 00 00 00 00 00  Length = 4018212 BitCount = 138 ID = 276865088x
   4.735942 1  10306099x       Rx   d 3 44 59 01  Length = 2754642 BitCount = 96 ID = 271605913x
   4.740382 1  10220040x       Rx   d 8 10 00 00 00 00 07 00 00  Length = 4314558 BitCount = 148 ID = 270663744x
   4.743292 1  10308060x       Rx   d 3 44 59 01  Length = 2784638 BitCount = 97 ID = 271614048x
   4.748366 1  1022E040x       Rx   d 8 00 00 00 00 00 00 00 00  Length = 4318208 BitCount = 148 ID = 270721088x
   4.751337 1  106B0040x       Rx   d 1 00  Length = 2308248 BitCount = 81 ID = 275447872x
   4.755026 1  631             Rx   d 8 00 40 00 00 00 00 00 00  Length = 3564590 BitCount = 123 ID = 1585
   4.759407 1  10230040x       Rx   d 8 10 00 00 00 10 00 00 00  Length = 4254562 BitCount = 146 ID = 270729280x
   4.764092 1  62C             Rx   d 8 00 40 00 00 00 00 00 00  Length = 3628216 BitCount = 125 ID = 1580
   4.778317 1  10240040x       Rx   d 8 83 FF 88 01 01 2C 0F FC  Length = 4198223 BitCount = 144 ID = 270794816x
   4.798274 1  102CA040x       Rx   d 8 00 40 0C AB 2C 00 F1 00  Length = 4138223 BitCount = 142 ID = 271360064x
   4.803255 1  108E0080x       Rx   d 6 0E 01 17 02 0D 83  Length = 3628216 BitCount = 125 ID = 277741696x
   4.818351 1  10264040x       Rx   d 8 04 06 00 00 00 00 00 3C  Length = 4198208 BitCount = 144 ID = 270942272x
   4.828345 1  10210040x       Rx   d 8 00 00 00 00 00 00 00 00  Length = 4288208 BitCount = 147 ID = 270598208x
   4.833238 1  1022A040x       Rx   d 8 00 B0 00 12 42 00 00 22  Length = 4138208 BitCount = 142 ID = 270704704x
   4.838398 1  10220040x       Rx   d 8 10 00 00 00 00 04 00 00  Length = 4314573 BitCount = 148 ID = 270663744x
   4.840622 1  13FFE058x       Rx   d 0  Length = 2098256 BitCount = 74 ID = 335536216x
   4.844435 1  1022C040x       Rx   d 6 00 10 00 20 00 00  Length = 3688216 BitCount = 127 ID = 270712896x
   4.853316 1  1022E040x       Rx   d 8 20 00 00 00 20 00 00 00  Length = 4284562 BitCount = 147 ID = 270721088x
   4.858331 1  10230040x       Rx   d 8 30 00 00 00 30 00 00 00  Length = 4258223 BitCount = 146 ID = 270729280x
   4.861748 1  10250040x       Rx   d 2 00 03  Length = 2604654 BitCount = 91 ID = 270860352x
   4.868263 1  102CC040x       Rx   d 8 00 09 CF 67 00 87 06 AF  Length = 4078227 BitCount = 140 ID = 271368256x
   4.873246 1  102CE040x       Rx   d 8 90 00 66 7F 00 00 26 AE  Length = 4138208 BitCount = 142 ID = 271376448x
   4.878290 1  10240040x       Rx   d 8 83 FF 88 01 01 2C 0F FC  Length = 4198208 BitCount = 144 ID = 270794816x
   4.883211 1  102D0040x       Rx   d 8 01 69 01 ED 7C 99 00 FF  Length = 4108212 BitCount = 141 ID = 271384640x
   4.888284 1  102E0040x       Rx   d 8 00 33 CA 72 8A 00 62 81  Length = 4138208 BitCount = 142 ID = 271450176x
   4.892515 1  10466040x       Rx   d 5 00 00 00 00 00  Length = 3448220 BitCount = 119 ID = 273047616x
   4.898339 1  102CA040x       Rx   d 8 00 40 0C B8 2C 00 F1 00  Length = 4198223 BitCount = 144 ID = 271360064x
   4.901370 1  106B0040x       Rx   d 1 00  Length = 2308248 BitCount = 81 ID = 275447872x
   4.907735 1  C800040x        Rx   d 6 08 CB 00 00 8D 1F  Length = 3628216 BitCount = 125 ID = 209715264x
   4.913408 1  106B8040x       Rx   d 8 00 00 00 00 00 00 00 00  Length = 4318208 BitCount = 148 ID = 275480640x
   4.918301 1  10264040x       Rx   d 8 04 06 00 00 00 00 00 3C  Length = 4198208 BitCount = 144 ID = 270942272x
   4.922505 1  106C0040x       Rx   d 5 00 06 0F 07 00  Length = 3448235 BitCount = 119 ID = 275513408x
   4.928386 1  10210040x       Rx   d 8 00 00 00 00 00 00 00 00  Length = 4288208 BitCount = 147 ID = 270598208x
   4.932199 1  1077C040x       Rx   d 4 30 30 01 F4  Length = 3148239 BitCount = 109 ID = 276283456x
   4.938408 1  10220040x       Rx   d 8 10 00 00 00 00 04 00 00  Length = 4314558 BitCount = 148 ID = 270663744x
   4.943423 1  10780040x       Rx   d 8 00 00 01 04 08 00 00 22  Length = 4288208 BitCount = 147 ID = 276299840x
   4.948375 1  1022E040x       Rx   d 8 00 00 00 00 00 00 00 00  Length = 4318208 BitCount = 148 ID = 270721088x
   4.952878 1  10788040x       Rx   d 6 08 00 00 00 00 00  Length = 3778216 BitCount = 130 ID = 276332608x
   4.958313 1  10230040x       Rx   d 8 10 00 00 00 10 00 00 00  Length = 4258208 BitCount = 146 ID = 270729280x
   4.962545 1  10806040x       Rx   d 5 00 00 00 00 19  Length = 3414598 BitCount = 118 ID = 276848704x
   4.968490 1  1043A040x       Rx   d 8 00 00 39 00 00 00 00 00  Length = 4288208 BitCount = 147 ID = 272867392x
   4.971521 1  13FFE0AFx       Rx   d 0  Length = 2068260 BitCount = 73 ID = 335536303x
   4.975240 1  10734099x       Rx   d 6 24 44 00 7D 00 00  Length = 3594590 BitCount = 124 ID = 275988633x
   4.979560 1  10240040x       Rx   d 8 83 FF 88 01 01 2C 0F FC  Length = 4194577 BitCount = 144 ID = 270794816x
   4.987396 1  102C0040x       Rx   d 5 AE EF 44 59 03  Length = 3298224 BitCount = 114 ID = 271319104x
   4.998353 1  102CA040x       Rx   d 8 00 40 0C C0 2C 00 F1 00  Length = 4198208 BitCount = 144 ID = 271360064x
   5.009628 1  10304058x       Rx   d 3 44 59 01  Length = 2724642 BitCount = 95 ID = 271597656x
   5.013260 1  10308060x       Rx   d 3 44 59 01  Length = 2784638 BitCount = 97 ID = 271614048x
   5.018332 1  10264040x       Rx   d 8 04 06 00 00 00 00 00 29  Length = 4228208 BitCount = 145 ID = 270942272x
   5.021395 1  106B0040x       Rx   d 1 00  Length = 2308248 BitCount = 81 ID = 275447872x
   5.028568 1  10210040x       Rx   d 8 00 00 00 00 00 00 00 00  Length = 4288208 BitCount = 147 ID = 270598208x
   5.032832 1  10306099x       Rx   d 3 44 59 01  Length = 2758236 BitCount = 96 ID = 271605913x
   5.038475 1  10220040x       Rx   d 8 10 00 00 00 00 04 00 00  Length = 4318208 BitCount = 148 ID = 270663744x
   5.048379 1  1022E040x       Rx   d 8 20 00 00 00 20 00 00 00  Length = 4288208 BitCount = 147 ID = 270721088x
   5.049553 1  Statistic: D 4 R 0 XD 156 XR 0 E 1 O 0 B 62.89%
   5.049553 2  Statistic: D 0 R 0 XD 0 XR 0 E 0 O 0 B 0.00%
   5.049553 3  Statistic: D 0 R 0 XD 0 XR 0 E 0 O 0 B 0.00%
   5.058343 1  10230040x       Rx   d 8 30 00 00 00 30 00 00 00  Length = 4258208 BitCount = 146 ID = 270729280x
   5.078270 1  1022A040x       Rx   d 8 00 B0 00 12 42 00 00 22  Length = 4138223 BitCount = 142 ID = 270704704x
   5.082802 1  1022C040x       Rx   d 6 00 10 00 20 00 00  Length = 3688216 BitCount = 127 ID = 270712896x
   5.088357 1  10240040x       Rx   d 8 83 FF 88 01 01 2C 0F FC  Length = 4198208 BitCount = 144 ID = 270794816x
   5.093460 1  106B8040x       Rx   d 8 00 00 00 00 00 00 00 00  Length = 4318208 BitCount = 148 ID = 275480640x
   5.098023 1  10248040x       Rx   d 7 00 00 6C D2 CC 1D 00  Length = 3868212 BitCount = 133 ID = 270827584x
   5.103393 1  102CA040x       Rx   d 8 00 40 0C BF 2C 00 F1 00  Length = 4194562 BitCount = 144 ID = 271360064x
   5.108228 1  102CC040x       Rx   d 8 00 09 CF 67 00 87 06 AD  Length = 4048212 BitCount = 139 ID = 271368256x
   5.118372 1  10264040x       Rx   d 8 04 06 00 00 00 00 00 3F  Length = 4258208 BitCount = 146 ID = 270942272x
   5.123323 1  102CE040x       Rx   d 8 90 00 66 7F 00 00 26 AE  Length = 4138208 BitCount = 142 ID = 271376448x
   5.128513 1  10210040x       Rx   d 8 00 00 00 00 00 00 00 00  Length = 4284573 BitCount = 147 ID = 270598208x
   5.138479 1  10220040x       Rx   d 8 10 00 00 00 00 06 00 00  Length = 4288208 BitCount = 147 ID = 270663744x
   5.141422 1  106B0040x       Rx   d 1 00  Length = 2308248 BitCount = 81 ID = 275447872x
   5.148256 CAN 1 Status:chip status error active  - TxErr: 0 RxErr: 1
   5.148264 1  ErrorFrame	Flags = 0xfffe	CodeExt = 0x2072	Code = 0x81	ID = 0x9022e040	DLC = 8	Position = 120	Length = 4134390	Data = 0  0  0  0  0  0  0  0
   5.152875 CAN 1 Status:chip status error active
   5.153093 1  1022E040x       Rx   d 8 00 00 00 00 00 00 00 00  Length = 4314558 BitCount = 148 ID = 270721088x
   5.157776 1  C800040x        Rx   d 6 08 CB 00 00 8D 23  Length = 3598216 BitCount = 124 ID = 209715264x
   5.163481 1  10230040x       Rx   d 8 10 00 00 00 10 00 00 00  Length = 4258223 BitCount = 146 ID = 270729280x
   5.168581 1  10780040x       Rx   d 8 00 00 01 04 08 00 00 22  Length = 4284573 BitCount = 147 ID = 276299840x
   5.178367 1  10240040x       Rx   d 8 83 FF 88 01 01 2C 0F FC  Length = 4198208 BitCount = 144 ID = 270794816x
   5.193607 1  10734099x       Rx   d 6 24 43 00 7D 00 00  Length = 3534590 BitCount = 122 ID = 275988633x
   5.198381 1  102CA040x       Rx   d 8 00 40 0C BA 2C 00 F1 00  Length = 4168208 BitCount = 143 ID = 271360064x
   5.213562 1  10448060x       Rx   d 4 00 00 45 00  Length = 3054633 BitCount = 106 ID = 272924768x
   5.218456 1  10264040x       Rx   d 8 04 06 00 00 00 00 00 3F  Length = 4258208 BitCount = 146 ID = 270942272x
   5.223440 1  1043A040x       Rx   d 8 00 00 36 00 00 00 00 00  Length = 4288223 BitCount = 147 ID = 272867392x
   5.228481 1  10210040x       Rx   d 8 00 00 00 00 00 00 00 00  Length = 4288208 BitCount = 147 ID = 270598208x
   5.232623 1  13FFE060x       Rx   d 0  Length = 2098271 BitCount = 74 ID = 335536224x
   5.238445 1  10220040x       Rx   d 8 10 00 00 00 00 06 00 00  Length = 4288223 BitCount = 147 ID = 270663744x
   5.242253 1  10324058x       Rx   d 6 00 00 03 FF 00 00  Length = 3684586 BitCount = 127 ID = 271728728x
   5.244446 1  13FFE080x       Rx   d 0  Length = 2068260 BitCount = 73 ID = 335536256x
   5.248860 1  1022E040x       Rx   d 8 20 00 00 00 20 00 00 00  Length = 4288208 BitCount = 147 ID = 270721088x
   5.258372 1  10230040x       Rx   d 8 30 00 00 00 30 00 00 00  Length = 4254562 BitCount = 146 ID = 270729280x
   5.261734 1  106B0040x       Rx   d 1 00  Length = 2304686 BitCount = 81 ID = 275447872x
   5.263929 1  13FFE099x       Rx   d 0  Length = 2068260 BitCount = 73 ID = 335536281x
   5.278453 1  10240040x       Rx   d 8 83 FE 88 01 01 2C 0F FC  Length = 4258208 BitCount = 146 ID = 270794816x
   5.283496 1  106B8040x       Rx   d 8 00 00 00 00 00 00 00 00  Length = 4318208 BitCount = 148 ID = 275480640x
   5.287487 1  102C0040x       Rx   d 5 AE EF 44 59 03  Length = 3298239 BitCount = 114 ID = 271319104x
   5.298442 1  102CA040x       Rx   d 8 00 40 0C BD 2C 00 F1 00  Length = 4138208 BitCount = 142 ID = 271360064x
   5.309538 1  10304058x       Rx   d 3 44 59 01  Length = 2724642 BitCount = 95 ID = 271597656x
   5.318395 1  10264040x       Rx   d 8 04 06 00 00 00 00 00 29  Length = 4228208 BitCount = 145 ID = 270942272x
   5.328541 1  10210040x       Rx   d 8 00 00 00 00 00 00 00 00  Length = 4288208 BitCount = 147 ID = 270598208x
   5.333343 1  1022A040x       Rx   d 8 00 B0 00 12 42 00 00 22  Length = 4138208 BitCount = 142 ID = 270704704x
   5.336226 1  10306099x       Rx   d 3 44 59 01  Length = 2758251 BitCount = 96 ID = 271605913x
   5.340668 1  10220040x       Rx   d 8 10 00 00 00 00 07 00 00  Length = 4318208 BitCount = 148 ID = 270663744x
   5.343577 1  10308060x       Rx   d 3 44 59 01  Length = 2784638 BitCount = 97 ID = 271614048x
   5.347866 1  1022C040x       Rx   d 6 00 10 00 20 00 00  Length = 3684586 BitCount = 127 ID = 270712896x
   5.353481 1  1022E040x       Rx   d 8 00 00 00 00 00 00 00 00  Length = 4318223 BitCount = 148 ID = 270721088x
   5.358435 1  10230040x       Rx   d 8 10 00 00 00 10 00 00 00  Length = 4258208 BitCount = 146 ID = 270729280x
   5.363298 1  102CC040x       Rx   d 8 00 09 CF 67 00 87 06 AE  Length = 4048212 BitCount = 139 ID = 271368256x
   5.368427 1  102CE040x       Rx   d 8 90 00 66 7F 00 00 26 AD  Length = 4074566 BitCount = 140 ID = 271376448x
   5.373322 1  102D0040x       Rx   d 8 01 69 01 ED 7C 9A 00 FF  Length = 4108223 BitCount = 141 ID = 271384640x
   5.378422 1  10240040x       Rx   d 8 83 FF 88 01 01 2C 0F FC  Length = 4194562 BitCount = 144 ID = 270794816x
   5.381487 1  106B0040x       Rx   d 1 00  Length = 2308263 BitCount = 81 ID = 275447872x
   5.387636 1  10806040x       Rx   d 5 00 00 00 00 19  Length = 3414598 BitCount = 118 ID = 276848704x
   5.398382 1  102CA040x       Rx   d 8 00 40 0C BD 2C 00 F1 00  Length = 4138223 BitCount = 142 ID = 271360064x
   5.403542 1  10780040x       Rx   d 8 00 00 01 04 08 00 00 22  Length = 4284573 BitCount = 147 ID = 276299840x
   5.407893 1  C800040x        Rx   d 6 08 CB 00 00 8D 25  Length = 3654586 BitCount = 126 ID = 209715264x
   5.412994 1  10788040x       Rx   d 6 08 00 00 00 00 00  Length = 3774582 BitCount = 130 ID = 276332608x
   5.418459 1  10264040x       Rx   d 8 04 06 00 00 00 00 00 3E  Length = 4228208 BitCount = 145 ID = 270942272x
   5.428516 1  10210040x       Rx   d 8 00 00 00 00 00 00 00 00  Length = 4288208 BitCount = 147 ID = 270598208x
   5.438540 1  10220040x       Rx   d 8 10 00 00 00 00 04 00 00  Length = 4318208 BitCount = 148 ID = 270663744x
   5.448474 1  1022E040x       Rx   d 8 20 00 00 00 20 00 00 00  Length = 4288208 BitCount = 147 ID = 270721088x
   5.458439 1  10230040x       Rx   d 8 30 00 00 00 30 00 00 00  Length = 4258208 BitCount = 146 ID = 270729280x
   5.468553 1  1043A040x       Rx   d 8 00 00 36 00 00 00 00 00  Length = 4288208 BitCount = 147 ID = 272867392x
   5.473626 1  10734099x       Rx   d 6 24 43 00 7D 00 00  Length = 3538220 BitCount = 122 ID = 275988633x
   5.478548 1  10240040x       Rx   d 8 83 FE 88 01 01 2C 0F FC  Length = 4258208 BitCount = 146 ID = 270794816x
   5.483561 1  106B8040x       Rx   d 8 00 00 00 00 00 00 00 00  Length = 4318208 BitCount = 148 ID = 275480640x
   5.498475 1  102CA040x       Rx   d 8 00 40 0C BF 2C 00 F1 00  Length = 4198208 BitCount = 144 ID = 271360064x
   5.501510 1  106B0040x       Rx   d 1 00  Length = 2308248 BitCount = 81 ID = 275447872x
   5.518496 1  10264040x       Rx   d 8 04 06 00 00 00 00 00 3F  Length = 4258208 BitCount = 146 ID = 270942272x
   5.528520 1  10210040x       Rx   d 8 00 00 00 00 00 00 00 00  Length = 4288208 BitCount = 147 ID = 270598208x
   5.538604 1  10220040x       Rx   d 8 10 00 00 00 00 04 00 00  Length = 4318223 BitCount = 148 ID = 270663744x
   5.548539 1  1022E040x       Rx   d 8 00 00 00 00 00 00 00 00  Length = 4318208 BitCount = 148 ID = 270721088x
   5.558473 1  10230040x       Rx   d 8 10 00 00 00 10 00 00 00  Length = 4258208 BitCount = 146 ID = 270729280x
   5.563122 1  10814099x       Rx   d 4 20 44 2E 00  Length = 3054618 BitCount = 106 ID = 276906137x
   5.578428 1  1022A040x       Rx   d 8 00 B0 00 12 42 00 00 22  Length = 4138208 BitCount = 142 ID = 270704704x
   5.582931 1  1022C040x       Rx   d 6 00 10 00 20 00 00  Length = 3688231 BitCount = 127 ID = 270712896x
   5.588547 1  10240040x       Rx   d 8 83 FE 88 01 01 2C 0F FC  Length = 4258208 BitCount = 146 ID = 270794816x
   5.592510 1  102C0040x       Rx   d 5 AE EF 44 59 03  Length = 3298224 BitCount = 114 ID = 271319104x
   5.598153 1  10248040x       Rx   d 7 00 00 6C D2 CC 1E 00  Length = 3898212 BitCount = 134 ID = 270827584x
   5.603493 1  102CA040x       Rx   d 8 00 40 0C C8 2C 00 F1 00  Length = 4164566 BitCount = 143 ID = 271360064x
   5.608327 1  102CC040x       Rx   d 8 00 09 CF 67 00 87 06 AD  Length = 4048212 BitCount = 139 ID = 271368256x
   5.610521 1  13FFE068x       Rx   d 0  Length = 2068260 BitCount = 73 ID = 335536232x
   5.613434 1  10308060x       Rx   d 3 44 59 01  Length = 2788236 BitCount = 97 ID = 271614048x
   5.618474 1  10264040x       Rx   d 8 04 06 00 00 00 00 00 3E  Length = 4224562 BitCount = 145 ID = 270942272x
   5.621325 1  10304058x       Rx   d 3 44 59 01  Length = 2724642 BitCount = 95 ID = 271597656x
   5.625528 1  102CE040x       Rx   d 8 90 00 66 7F 00 00 26 AD  Length = 4078212 BitCount = 140 ID = 271376448x
   5.628231 1  106D0080x       Rx   d 2 00 00  Length = 2578240 BitCount = 90 ID = 275579008x
   5.633574 1  10210040x       Rx   d 8 00 00 00 00 00 00 00 00  Length = 4288208 BitCount = 147 ID = 270598208x
   5.636451 1  10306099x       Rx   d 3 44 59 01  Length = 2754642 BitCount = 96 ID = 271605913x
   5.640860 1  10220040x       Rx   d 8 10 00 00 00 00 06 00 00  Length = 4284562 BitCount = 147 ID = 270663744x
   5.648515 1  1022E040x       Rx   d 8 20 00 00 00 20 00 00 00  Length = 4288208 BitCount = 147 ID = 270721088x
   5.651546 1  106B0040x       Rx   d 1 00  Length = 2308248 BitCount = 81 ID = 275447872x
   5.657912 1  C800040x        Rx   d 6 08 CB 00 00 8D 29  Length = 3598216 BitCount = 124 ID = 209715264x
   5.663555 1  10230040x       Rx   d 8 30 00 00 00 30 00 00 00  Length = 4258208 BitCount = 146 ID = 270729280x
   5.668688 1  10780040x       Rx   d 8 00 00 01 04 08 00 00 22  Length = 4288208 BitCount = 147 ID = 276299840x
   5.672829 1  621             Rx   d 8 00 52 00 00 00 00 00 00  Length = 3598231 BitCount = 124 ID = 1569
   5.678503 1  10240040x       Rx   d 8 83 FF 88 01 01 2C 0F FC  Length = 4198223 BitCount = 144 ID = 270794816x
   5.683606 1  106B8040x       Rx   d 8 00 00 00 00 00 00 00 00  Length = 4318208 BitCount = 148 ID = 275480640x
   5.686303 1  13FFE040x       Rx   d 0  Length = 2064714 BitCount = 73 ID = 335536192x
   5.698520 1  102CA040x       Rx   d 8 00 40 0C D2 2C 00 F1 00  Length = 4168223 BitCount = 143 ID = 271360064x
   5.718535 1  10264040x       Rx   d 8 04 06 00 00 00 00 00 29  Length = 4224562 BitCount = 145 ID = 270942272x
