date Tue Sep 20 03:53:27.917 pm 2016
base hex  timestamps absolute
internal events logged
// version 9.0.0
Begin Triggerblock Tue Sep 20 03:53:27.917 pm 2016
   0.000000 Start of measurement
   0.002192 Li SleepModeEvent 0 starting up in wake mode
   0.008425 1  62C             Rx   d 8 00 40 00 00 00 00 00 00  Length = 3628216 BitCount = 125 ID = 1580
   0.011398 CAN 1 Status:chip status error active
   0.011398 CAN 2 Status:chip status error active
   0.011398 CAN 3 Status:chip status error active
   0.014700 1  10230040x       Rx   d 8 20 00 00 00 20 00 00 00  Length = 4258208 BitCount = 146 ID = 270729280x
   0.018390 1  631             Rx   d 8 00 40 00 00 00 00 00 00  Length = 3564590 BitCount = 123 ID = 1585
   0.020824 1  106B0040x       Rx   d 1 00  Length = 2308248 BitCount = 81 ID = 275447872x
   0.034687 1  10240040x       Rx   d 8 83 FF 88 01 00 D1 0F FC  Length = 4198223 BitCount = 144 ID = 270794816x
   0.047617 1  10734099x       Rx   d 6 24 41 00 7D 00 00  Length = 3598231 BitCount = 124 ID = 275988633x
   0.054608 1  102CA040x       Rx   d 8 00 40 0C C4 2B 00 F1 00  Length = 4074566 BitCount = 140 ID = 271360064x
   0.074746 1  10264040x       Rx   d 8 04 06 00 00 00 00 00 3B  Length = 4228208 BitCount = 145 ID = 270942272x
   0.084803 1  10210040x       Rx   d 8 00 00 00 00 00 00 00 00  Length = 4288208 BitCount = 147 ID = 270598208x
   0.089666 1  1022A040x       Rx   d 8 00 B0 00 12 42 00 00 22  Length = 4138223 BitCount = 142 ID = 270704704x
   0.094795 1  10220040x       Rx   d 8 10 00 00 00 00 06 00 00  Length = 4284562 BitCount = 147 ID = 270663744x
   0.099180 1  1022C040x       Rx   d 6 00 10 00 20 00 00  Length = 3688231 BitCount = 127 ID = 270712896x
   0.104795 1  1022E040x       Rx   d 8 30 00 00 00 30 00 00 00  Length = 4288223 BitCount = 147 ID = 270721088x
   0.108099 1  10250040x       Rx   d 2 00 03  Length = 2608240 BitCount = 91 ID = 270860352x
   0.114792 1  10230040x       Rx   d 8 00 00 00 00 00 00 00 00  Length = 4288208 BitCount = 147 ID = 270729280x
   0.119653 1  102CC040x       Rx   d 8 00 09 CF 6A 00 87 06 A8  Length = 4108223 BitCount = 141 ID = 271368256x
   0.124666 1  102CE040x       Rx   d 8 90 00 67 7F 00 00 26 A9  Length = 4108212 BitCount = 141 ID = 271376448x
   0.129589 1  102D0040x       Rx   d 8 01 69 01 ED 7C 8A 00 FF  Length = 4078212 BitCount = 140 ID = 271384640x
   0.133398 1  10324058x       Rx   d 6 00 00 03 FF 00 00  Length = 3684586 BitCount = 127 ID = 271728728x
   0.137689 1  10240040x       Rx   d 8 83 FE 88 01 00 D3 0F FC  Length = 4168208 BitCount = 143 ID = 270794816x
   0.139911 1  13FFE058x       Rx   d 0  Length = 2098256 BitCount = 74 ID = 335536216x
   0.142070 1  13FFE0BBx       Rx   d 0  Length = 2034718 BitCount = 72 ID = 335536315x
   0.146301 1  102E0040x       Rx   d 8 00 33 CA 70 8A 00 62 81  Length = 4108212 BitCount = 141 ID = 271450176x
   0.154735 1  102CA040x       Rx   d 8 00 40 0C CD 2A 00 F1 00  Length = 4138223 BitCount = 142 ID = 271360064x
   0.158363 1  10424040x       Rx   d 3 04 8A 90  Length = 2814638 BitCount = 98 ID = 272777280x
   0.164188 1  C800040x        Rx   d 6 08 CB 00 00 53 B5  Length = 3598216 BitCount = 124 ID = 209715264x
   0.167785 1  106B0040x       Rx   d 1 00  Length = 2304686 BitCount = 81 ID = 275447872x
   0.174716 1  10264040x       Rx   d 8 04 06 00 00 00 00 00 28  Length = 4194562 BitCount = 144 ID = 270942272x
   0.179848 1  106B8040x       Rx   d 8 00 00 00 00 00 00 00 00  Length = 4314558 BitCount = 148 ID = 275480640x
   0.182312 1  13FFE0AFx       Rx   d 0  Length = 2068260 BitCount = 73 ID = 335536303x
   0.186719 1  10210040x       Rx   d 8 00 00 00 00 00 00 00 00  Length = 4284562 BitCount = 147 ID = 270598208x
   0.194825 1  10220040x       Rx   d 8 10 00 00 00 00 05 00 00  Length = 4288208 BitCount = 147 ID = 270663744x
   0.198937 1  106C0040x       Rx   d 5 00 06 0F 07 00  Length = 3444609 BitCount = 119 ID = 275513408x
   0.204761 1  1022E040x       Rx   d 8 10 00 00 00 10 00 00 00  Length = 4258208 BitCount = 146 ID = 270721088x
   0.208635 1  1077C040x       Rx   d 4 30 30 01 F4  Length = 3148224 BitCount = 109 ID = 276283456x
   0.214784 1  10230040x       Rx   d 8 20 00 00 00 20 00 00 00  Length = 4254562 BitCount = 146 ID = 270729280x
   0.217009 1  13FFE060x       Rx   d 0  Length = 2098256 BitCount = 74 ID = 335536224x
   0.221417 1  10780040x       Rx   d 8 00 00 01 04 08 00 00 22  Length = 4284562 BitCount = 147 ID = 276299840x
   0.223613 1  13FFE080x       Rx   d 0  Length = 2068275 BitCount = 73 ID = 335536256x
   0.229826 1  1043A040x       Rx   d 8 00 00 36 00 00 00 00 00  Length = 4288208 BitCount = 147 ID = 272867392x
   0.234751 1  10240040x       Rx   d 8 83 FF 88 01 00 D3 0F FC  Length = 4198208 BitCount = 144 ID = 270794816x
   0.236942 1  13FFE099x       Rx   d 0  Length = 2068260 BitCount = 73 ID = 335536281x
   0.240844 1  10788040x       Rx   d 6 08 00 00 00 00 00  Length = 3778216 BitCount = 130 ID = 276332608x
   0.248800 1  102C0040x       Rx   d 5 AE EF 44 59 03  Length = 3298239 BitCount = 114 ID = 271319104x
   0.254716 1  102CA040x       Rx   d 8 00 40 0C C1 2A 00 F1 00  Length = 4108212 BitCount = 141 ID = 271360064x
   0.258947 1  10806040x       Rx   d 5 00 00 00 00 19  Length = 3418220 BitCount = 118 ID = 276848704x
   0.269807 1  10304058x       Rx   d 3 44 59 01  Length = 2728251 BitCount = 95 ID = 271597656x
   0.274728 1  10264040x       Rx   d 8 04 06 00 00 00 00 00 3C  Length = 4198208 BitCount = 144 ID = 270942272x
   0.277641 1  10308060x       Rx   d 3 44 59 01  Length = 2788236 BitCount = 97 ID = 271614048x
   0.284654 CAN 1 Status:chip status error active  - TxErr: 0 RxErr: 1
   0.284661 1  ErrorFrame	Flags = 0xfffe	CodeExt = 0x2072	Code = 0x81	ID = 0x90210040	DLC = 8	Position = 120	Length = 4104375	Data = 0  0  0  0  0  0  0  0
   0.289243 CAN 1 Status:chip status error active
   0.289460 1  10210040x       Rx   d 8 00 00 00 00 00 00 00 00  Length = 4284562 BitCount = 147 ID = 270598208x
   0.294865 1  10220040x       Rx   d 8 10 00 00 00 00 05 00 00  Length = 4288208 BitCount = 147 ID = 270663744x
   0.298590 1  102C6060x       Rx   d 6 00 14 C5 00 32 BF  Length = 3598216 BitCount = 124 ID = 271343712x
   0.301023 1  106B0040x       Rx   d 1 00  Length = 2308248 BitCount = 81 ID = 275447872x
   0.306755 1  10306099x       Rx   d 3 44 59 01  Length = 2758236 BitCount = 96 ID = 271605913x
   0.311167 1  1022E040x       Rx   d 8 30 00 00 00 30 00 00 00  Length = 4288208 BitCount = 147 ID = 270721088x
   0.319839 1  10230040x       Rx   d 8 00 00 00 00 00 00 00 00  Length = 4288208 BitCount = 147 ID = 270729280x
   0.324217 1  621             Rx   d 8 00 52 00 00 00 00 00 00  Length = 3594590 BitCount = 124 ID = 1569
   0.334689 1  1022A040x       Rx   d 8 00 B0 00 12 42 00 00 22  Length = 4134566 BitCount = 142 ID = 270704704x
   0.339224 1  1022C040x       Rx   d 6 00 10 00 20 00 00  Length = 3688216 BitCount = 127 ID = 270712896x
   0.344779 1  10240040x       Rx   d 8 83 FF 88 01 00 D3 0F FC  Length = 4198208 BitCount = 144 ID = 270794816x
   0.349882 1  106B8040x       Rx   d 8 00 00 00 00 00 00 00 00  Length = 4318223 BitCount = 148 ID = 275480640x
   0.354444 1  10248040x       Rx   d 7 00 00 6D D4 CC 06 00  Length = 3898227 BitCount = 134 ID = 270827584x
   0.359695 1  102CA040x       Rx   d 8 00 40 0C C2 2A 00 F1 00  Length = 4074566 BitCount = 140 ID = 271360064x
   0.364680 1  102CC040x       Rx   d 8 00 09 CF 6A 00 87 06 A7  Length = 4048212 BitCount = 139 ID = 271368256x
   0.367591 1  13FFE040x       Rx   d 0  Length = 2068260 BitCount = 73 ID = 335536192x
   0.374766 1  10264040x       Rx   d 8 04 06 00 00 00 00 00 3C  Length = 4198208 BitCount = 144 ID = 270942272x
   0.378521 1  108E0080x       Rx   d 6 0E 01 17 02 08 3B  Length = 3628216 BitCount = 125 ID = 277741696x
   0.382754 1  102CE040x       Rx   d 8 90 00 66 7F 00 00 26 A9  Length = 4108223 BitCount = 141 ID = 271376448x
   0.389868 1  10210040x       Rx   d 8 00 00 00 00 00 00 00 00  Length = 4288208 BitCount = 147 ID = 270598208x
   0.394911 1  10220040x       Rx   d 8 10 00 00 00 00 08 00 00  Length = 4318208 BitCount = 148 ID = 270663744x
   0.398301 1  10424040x       Rx   d 3 04 8A 91  Length = 2754642 BitCount = 96 ID = 272777280x
   0.404786 1  1022E040x       Rx   d 8 10 00 00 00 10 00 00 00  Length = 4258208 BitCount = 146 ID = 270721088x
   0.409919 1  10780040x       Rx   d 8 00 00 01 04 08 00 00 22  Length = 4288208 BitCount = 147 ID = 276299840x
   0.414210 1  C800040x        Rx   d 6 08 CB 00 00 53 B7  Length = 3628216 BitCount = 125 ID = 209715264x
   0.419791 1  10230040x       Rx   d 8 20 00 00 00 20 00 00 00  Length = 4258208 BitCount = 146 ID = 270729280x
   0.422856 1  106B0040x       Rx   d 1 00  Length = 2308248 BitCount = 81 ID = 275447872x
   0.434831 1  10240040x       Rx   d 8 83 FE 88 01 00 D3 0F FC  Length = 4168208 BitCount = 143 ID = 270794816x
   0.454696 1  102CA040x       Rx   d 8 00 40 0C D3 2A 00 F1 00  Length = 4078212 BitCount = 140 ID = 271360064x
   0.457157 1  10438060x       Rx   d 1 03  Length = 2338248 BitCount = 82 ID = 272859232x
   0.474773 1  10264040x       Rx   d 8 04 06 00 00 00 00 00 3C  Length = 4198208 BitCount = 144 ID = 270942272x
   0.479876 1  1043A040x       Rx   d 8 00 00 35 00 00 00 00 00  Length = 4288208 BitCount = 147 ID = 272867392x
   0.484947 1  10210040x       Rx   d 8 00 00 00 00 00 00 00 00  Length = 4288223 BitCount = 147 ID = 270598208x
   0.494911 1  10220040x       Rx   d 8 10 00 00 00 00 08 00 00  Length = 4318223 BitCount = 148 ID = 270663744x
   0.504846 1  1022E040x       Rx   d 8 30 00 00 00 30 00 00 00  Length = 4288208 BitCount = 147 ID = 270721088x
   0.514870 1  10230040x       Rx   d 8 00 00 00 00 00 00 00 00  Length = 4288208 BitCount = 147 ID = 270729280x
   0.534823 1  10240040x       Rx   d 8 83 FF 88 01 00 D6 0F FC  Length = 4194562 BitCount = 144 ID = 270794816x
   0.537888 1  106B0040x       Rx   d 1 00  Length = 2308263 BitCount = 81 ID = 275447872x
   0.543888 1  102C0040x       Rx   d 5 AE EF 44 59 03  Length = 3294606 BitCount = 114 ID = 271319104x
   0.547638 1  10734099x       Rx   d 6 24 41 00 7D 00 00  Length = 3594590 BitCount = 124 ID = 275988633x
   0.552077 1  106B8040x       Rx   d 8 00 00 00 00 00 00 00 00  Length = 4314558 BitCount = 148 ID = 275480640x
   0.555202 1  10308060x       Rx   d 3 44 59 01  Length = 2788247 BitCount = 97 ID = 271614048x
   0.558085 1  10306099x       Rx   d 3 44 59 01  Length = 2758236 BitCount = 96 ID = 271605913x
   0.562318 1  102CA040x       Rx   d 8 00 40 0C B7 2A 00 F1 00  Length = 4108223 BitCount = 141 ID = 271360064x
   0.569725 1  10304058x       Rx   d 3 44 59 01  Length = 2724642 BitCount = 95 ID = 271597656x
   0.574799 1  10264040x       Rx   d 8 04 06 00 00 00 00 00 28  Length = 4198208 BitCount = 144 ID = 270942272x
   0.584911 1  10210040x       Rx   d 8 00 00 00 00 00 00 00 00  Length = 4288223 BitCount = 147 ID = 270598208x
   0.589774 1  1022A040x       Rx   d 8 00 B0 00 12 42 00 00 22  Length = 4138208 BitCount = 142 ID = 270704704x
   0.591968 1  13FFE068x       Rx   d 0  Length = 2068260 BitCount = 73 ID = 335536232x
   0.596376 1  10220040x       Rx   d 8 10 00 00 00 00 05 00 00  Length = 4284562 BitCount = 147 ID = 270663744x
   0.599082 1  106D0080x       Rx   d 2 00 00  Length = 2578240 BitCount = 90 ID = 275579008x
   0.604302 1  1022C040x       Rx   d 6 00 10 00 20 00 00  Length = 3684586 BitCount = 127 ID = 270712896x
   0.609947 1  1022E040x       Rx   d 8 10 00 00 00 10 00 00 00  Length = 4258208 BitCount = 146 ID = 270721088x
   0.614840 1  10230040x       Rx   d 8 20 00 00 00 20 00 00 00  Length = 4258208 BitCount = 146 ID = 270729280x
   0.619733 1  102CC040x       Rx   d 8 00 09 CF 6A 00 87 06 A9  Length = 4048212 BitCount = 139 ID = 271368256x
   0.624807 1  102CE040x       Rx   d 8 90 00 67 7F 00 00 26 A9  Length = 4108223 BitCount = 141 ID = 271376448x
   0.629728 1  102D0040x       Rx   d 8 01 69 01 ED 7C 89 00 FF  Length = 4078227 BitCount = 140 ID = 271384640x
   0.634831 1  10240040x       Rx   d 8 83 FF 88 01 00 D9 0F FC  Length = 4198223 BitCount = 144 ID = 270794816x
   0.644044 1  10806040x       Rx   d 5 00 00 00 00 19  Length = 3418220 BitCount = 118 ID = 276848704x
   0.654788 1  102CA040x       Rx   d 8 00 40 0C AA 2A 00 F1 00  Length = 4108223 BitCount = 141 ID = 271360064x
   0.657219 1  10438060x       Rx   d 1 00  Length = 2304697 BitCount = 81 ID = 272859232x
   0.659650 1  106B0040x       Rx   d 1 00  Length = 2304697 BitCount = 81 ID = 275447872x
   0.664274 1  C800040x        Rx   d 6 08 CB 00 00 53 BB  Length = 3598216 BitCount = 124 ID = 209715264x
   0.670190 1  10780040x       Rx   d 8 00 00 01 04 08 00 00 22  Length = 4288208 BitCount = 147 ID = 276299840x
   0.674871 1  10264040x       Rx   d 8 04 06 00 00 00 00 00 3B  Length = 4228208 BitCount = 145 ID = 270942272x
   0.679436 1  10788040x       Rx   d 6 08 00 00 00 00 00  Length = 3778216 BitCount = 130 ID = 276332608x
   0.684961 1  10210040x       Rx   d 8 00 00 00 00 00 00 00 00  Length = 4288208 BitCount = 147 ID = 270598208x
   0.694955 1  10220040x       Rx   d 8 10 00 00 00 00 04 00 00  Length = 4318208 BitCount = 148 ID = 270663744x
   0.704920 1  1022E040x       Rx   d 8 30 00 00 00 30 00 00 00  Length = 4288208 BitCount = 147 ID = 270721088x
   0.714884 1  10230040x       Rx   d 8 00 00 00 00 00 00 00 00  Length = 4288208 BitCount = 147 ID = 270729280x
   0.724969 1  1043A040x       Rx   d 8 00 00 35 00 00 00 00 00  Length = 4288208 BitCount = 147 ID = 272867392x
   0.734873 1  10240040x       Rx   d 8 83 FF 88 01 00 D8 0F FC  Length = 4228223 BitCount = 145 ID = 270794816x
   0.739975 1  106B8040x       Rx   d 8 00 00 00 00 00 00 00 00  Length = 4314558 BitCount = 148 ID = 275480640x
   0.754802 1  102CA040x       Rx   d 8 00 40 0C C6 2B 00 F1 00  Length = 4108212 BitCount = 141 ID = 271360064x
   0.774881 1  10264040x       Rx   d 8 04 06 00 00 00 00 00 39  Length = 4228223 BitCount = 145 ID = 270942272x
   0.777946 1  106B0040x       Rx   d 1 00  Length = 2308248 BitCount = 81 ID = 275447872x
   0.784966 1  10210040x       Rx   d 8 00 00 00 00 00 00 00 00  Length = 4284573 BitCount = 147 ID = 270598208x
   0.794990 1  10220040x       Rx   d 8 10 00 00 00 00 04 00 00  Length = 4318208 BitCount = 148 ID = 270663744x
   0.798174 1  10448060x       Rx   d 4 00 00 45 00  Length = 3058228 BitCount = 106 ID = 272924768x
   0.804896 1  1022E040x       Rx   d 8 10 00 00 00 10 00 00 00  Length = 4258208 BitCount = 146 ID = 270721088x
   0.814890 1  10230040x       Rx   d 8 20 00 00 00 20 00 00 00  Length = 4258208 BitCount = 146 ID = 270729280x
   0.834813 1  1022A040x       Rx   d 8 00 B0 00 12 42 00 00 22  Length = 4134566 BitCount = 142 ID = 270704704x
   0.839408 1  1022C040x       Rx   d 6 00 10 00 20 00 00  Length = 3688216 BitCount = 127 ID = 270712896x
   0.844928 1  10240040x       Rx   d 8 83 FF 88 01 00 D8 0F FC  Length = 4224562 BitCount = 145 ID = 270794816x
   0.848951 1  102C0040x       Rx   d 5 AE EF 44 59 03  Length = 3298224 BitCount = 114 ID = 271319104x
   0.854564 1  10248040x       Rx   d 7 00 00 6D D4 CC 06 00  Length = 3898212 BitCount = 134 ID = 270827584x
   0.859934 1  102CA040x       Rx   d 8 00 40 0C C8 2A 00 F1 00  Length = 4104581 BitCount = 141 ID = 271360064x
   0.864829 1  102CC040x       Rx   d 8 00 09 CF 6A 00 87 06 A8  Length = 4108212 BitCount = 141 ID = 271368256x
   0.869506 1  10304058x       Rx   d 3 44 59 01  Length = 2724642 BitCount = 95 ID = 271597656x
   0.874911 1  10264040x       Rx   d 8 04 06 00 00 00 00 00 26  Length = 4228208 BitCount = 145 ID = 270942272x
   0.877826 1  10308060x       Rx   d 3 44 59 01  Length = 2788247 BitCount = 97 ID = 271614048x
   0.882059 1  102CE040x       Rx   d 8 90 00 67 7F 00 00 26 A8  Length = 4108212 BitCount = 141 ID = 271376448x
   0.889977 1  10210040x       Rx   d 8 00 00 00 00 00 00 00 00  Length = 4284562 BitCount = 147 ID = 270598208x
   0.895022 1  10220040x       Rx   d 8 10 00 00 00 00 04 00 00  Length = 4318223 BitCount = 148 ID = 270663744x
   0.897963 1  106B0040x       Rx   d 1 00  Length = 2308248 BitCount = 81 ID = 275447872x
   0.904958 1  1022E040x       Rx   d 8 30 00 00 00 30 00 00 00  Length = 4288208 BitCount = 147 ID = 270721088x
   0.907838 1  10306099x       Rx   d 3 44 59 01  Length = 2754642 BitCount = 96 ID = 271605913x
   0.912248 1  10780040x       Rx   d 8 00 00 01 04 08 00 00 22  Length = 4284562 BitCount = 147 ID = 276299840x
   0.919334 1  C800040x        Rx   d 6 08 CB 00 00 53 BD  Length = 3598231 BitCount = 124 ID = 209715264x
   0.924949 1  10230040x       Rx   d 8 10 00 00 00 10 00 00 00  Length = 4258223 BitCount = 146 ID = 270729280x
   0.934913 1  10240040x       Rx   d 8 83 FF 88 01 00 D8 0F FC  Length = 4228208 BitCount = 145 ID = 270794816x
   0.940223 1  106B8040x       Rx   d 8 00 00 00 00 00 00 00 00  Length = 4314558 BitCount = 148 ID = 275480640x
   0.954866 1  102CA040x       Rx   d 8 00 40 0C C0 2A 00 F1 00  Length = 4104566 BitCount = 141 ID = 271360064x
   0.974911 1  10264040x       Rx   d 8 04 06 00 00 00 00 00 3A  Length = 4194577 BitCount = 144 ID = 270942272x
   0.980072 1  1043A040x       Rx   d 8 00 00 37 00 00 00 00 00  Length = 4314558 BitCount = 148 ID = 272867392x
   0.985027 1  10210040x       Rx   d 8 00 00 00 00 00 00 00 00  Length = 4288208 BitCount = 147 ID = 270598208x
   0.989739 1  1080A040x       Rx   d 7 00 00 00 00 00 00 00  Length = 4018212 BitCount = 138 ID = 276865088x
   0.995024 1  10220040x       Rx   d 8 10 00 00 00 00 05 00 00  Length = 4288208 BitCount = 147 ID = 270663744x
   1.004930 1  1022E040x       Rx   d 8 10 00 00 00 10 00 00 00  Length = 4258208 BitCount = 146 ID = 270721088x
   1.011398 1  Statistic: D 3 R 0 XD 155 XR 0 E 1 O 0 B 61.47%
   1.011398 2  Statistic: D 0 R 0 XD 0 XR 0 E 0 O 0 B 0.00%
   1.011398 3  Statistic: D 0 R 0 XD 0 XR 0 E 0 O 0 B 0.00%
   1.014925 1  10230040x       Rx   d 8 20 00 00 00 20 00 00 00  Length = 4258208 BitCount = 146 ID = 270729280x
   1.018168 1  106B0040x       Rx   d 1 00  Length = 2308248 BitCount = 81 ID = 275447872x
   1.034943 1  10240040x       Rx   d 8 83 FF 88 01 00 D8 0F FC  Length = 4228208 BitCount = 145 ID = 270794816x
   1.047602 1  10734099x       Rx   d 6 24 41 00 7D 00 00  Length = 3594601 BitCount = 124 ID = 275988633x
   1.054928 1  102CA040x       Rx   d 8 00 40 0C BC 2A 00 F1 00  Length = 4138208 BitCount = 142 ID = 271360064x
   1.074915 1  10264040x       Rx   d 8 04 06 00 00 00 00 00 3A  Length = 4198208 BitCount = 144 ID = 270942272x
   1.085031 1  10210040x       Rx   d 8 00 00 00 00 00 00 00 00  Length = 4288223 BitCount = 147 ID = 270598208x
   1.089895 1  1022A040x       Rx   d 8 00 B0 00 12 42 00 00 22  Length = 4138208 BitCount = 142 ID = 270704704x
   1.095024 1  10220040x       Rx   d 8 10 00 00 00 00 06 00 00  Length = 4284562 BitCount = 147 ID = 270663744x
   1.099409 1  1022C040x       Rx   d 6 00 10 00 20 00 00  Length = 3688231 BitCount = 127 ID = 270712896x
   1.105024 1  1022E040x       Rx   d 8 30 00 00 00 30 00 00 00  Length = 4288208 BitCount = 147 ID = 270721088x
   1.108388 1  10250040x       Rx   d 2 00 03  Length = 2608240 BitCount = 91 ID = 270860352x
   1.114991 1  10230040x       Rx   d 8 00 00 00 00 00 00 00 00  Length = 4288208 BitCount = 147 ID = 270729280x
   1.119852 1  102CC040x       Rx   d 8 00 09 CF 6A 00 87 06 AA  Length = 4048227 BitCount = 139 ID = 271368256x
   1.124895 1  102CE040x       Rx   d 8 90 00 66 7F 00 00 26 A9  Length = 4108212 BitCount = 141 ID = 271376448x
   1.129878 1  102D0040x       Rx   d 8 01 69 01 ED 7C 89 00 FF  Length = 4078212 BitCount = 140 ID = 271384640x
   1.134979 1  10240040x       Rx   d 8 83 FF 88 01 00 D8 0F FC  Length = 4228208 BitCount = 145 ID = 270794816x
   1.139933 1  102E0040x       Rx   d 8 00 33 CA 70 8A 00 62 81  Length = 4108223 BitCount = 141 ID = 271450176x
   1.144044 1  102C0040x       Rx   d 5 AE EF 44 59 03  Length = 3298224 BitCount = 114 ID = 271319104x
   1.149173 1  10466040x       Rx   d 5 00 00 00 00 00  Length = 3444598 BitCount = 119 ID = 273047616x
   1.154908 1  102CA040x       Rx   d 8 00 40 0C B6 2B 00 F1 00  Length = 4078212 BitCount = 140 ID = 271360064x
   1.157787 1  10306099x       Rx   d 3 44 59 01  Length = 2754642 BitCount = 96 ID = 271605913x
   1.160700 1  10308060x       Rx   d 3 44 59 01  Length = 2788247 BitCount = 97 ID = 271614048x
   1.163133 1  106B0040x       Rx   d 1 00  Length = 2308248 BitCount = 81 ID = 275447872x
   1.169402 1  C800040x        Rx   d 6 08 CB 00 00 53 C1  Length = 3624586 BitCount = 125 ID = 209715264x
   1.172252 1  10304058x       Rx   d 3 44 59 01  Length = 2724642 BitCount = 95 ID = 271597656x
   1.176606 1  10264040x       Rx   d 8 04 06 00 00 00 00 00 39  Length = 4228208 BitCount = 145 ID = 270942272x
   1.185072 1  10210040x       Rx   d 8 00 00 00 00 00 00 00 00  Length = 4288208 BitCount = 147 ID = 270598208x
   1.190081 1  106B8040x       Rx   d 8 00 00 00 00 00 00 00 00  Length = 4314558 BitCount = 148 ID = 275480640x
   1.195066 1  10220040x       Rx   d 8 10 00 00 00 00 06 00 00  Length = 4288208 BitCount = 147 ID = 270663744x
   1.199176 1  106C0040x       Rx   d 5 00 06 0F 07 00  Length = 3444598 BitCount = 119 ID = 275513408x
   1.205000 1  1022E040x       Rx   d 8 10 00 00 00 10 00 00 00  Length = 4258208 BitCount = 146 ID = 270721088x
   1.208934 1  1077C040x       Rx   d 4 30 30 01 F4  Length = 3148239 BitCount = 109 ID = 276283456x
   1.214993 1  10230040x       Rx   d 8 20 00 00 00 20 00 00 00  Length = 4254562 BitCount = 146 ID = 270729280x
   1.220214 1  10780040x       Rx   d 8 00 00 01 04 08 00 00 22  Length = 4284562 BitCount = 147 ID = 276299840x
   1.225139 1  1043A040x       Rx   d 8 00 00 38 00 00 00 00 00  Length = 4348208 BitCount = 149 ID = 272867392x
   1.229553 1  10788040x       Rx   d 6 08 00 00 00 00 00  Length = 3778216 BitCount = 130 ID = 276332608x
   1.235018 1  10240040x       Rx   d 8 83 FF 88 01 00 D8 0F FC  Length = 4228208 BitCount = 145 ID = 270794816x
   1.239371 1  10806040x       Rx   d 5 00 00 00 00 19  Length = 3418220 BitCount = 118 ID = 276848704x
   1.255001 1  102CA040x       Rx   d 8 00 40 0C B5 2B 00 F1 00  Length = 4134566 BitCount = 142 ID = 271360064x
   1.275016 1  10264040x       Rx   d 8 04 06 00 00 00 00 00 26  Length = 4224562 BitCount = 145 ID = 270942272x
   1.278081 1  106B0040x       Rx   d 1 00  Length = 2308248 BitCount = 81 ID = 275447872x
   1.284912 CAN 1 Status:chip status error active  - TxErr: 0 RxErr: 1
   1.284920 1  ErrorFrame	Flags = 0xfffe	CodeExt = 0x2072	Code = 0x81	ID = 0x90210040	DLC = 8	Position = 120	Length = 4104375	Data = 0  0  0  0  0  0  0  0
   1.289502 CAN 1 Status:chip status error active
   1.289719 1  10210040x       Rx   d 8 00 00 00 00 00 00 00 00  Length = 4284573 BitCount = 147 ID = 270598208x
   1.295124 1  10220040x       Rx   d 8 10 00 00 00 00 07 00 00  Length = 4318223 BitCount = 148 ID = 270663744x
   1.305058 1  1022E040x       Rx   d 8 30 00 00 00 30 00 00 00  Length = 4288223 BitCount = 147 ID = 270721088x
   1.315025 1  10230040x       Rx   d 8 00 00 00 00 00 00 00 00  Length = 4288208 BitCount = 147 ID = 270729280x
   1.324359 1  621             Rx   d 8 00 52 00 00 00 00 00 00  Length = 3598216 BitCount = 124 ID = 1569
   1.328769 1  13FFE058x       Rx   d 0  Length = 2098256 BitCount = 74 ID = 335536216x
   1.334948 1  1022A040x       Rx   d 8 00 B0 00 12 42 00 00 22  Length = 4134566 BitCount = 142 ID = 270704704x
   1.337108 1  13FFE0BBx       Rx   d 0  Length = 2034718 BitCount = 72 ID = 335536315x
   1.340919 1  1022C040x       Rx   d 6 00 10 00 20 00 00  Length = 3688216 BitCount = 127 ID = 270712896x
   1.350045 1  10240040x       Rx   d 8 83 FF 88 01 00 D8 0F FC  Length = 4228208 BitCount = 145 ID = 270794816x
   1.354699 1  10248040x       Rx   d 7 00 00 6D D4 CC 06 00  Length = 3898212 BitCount = 134 ID = 270827584x
   1.359952 1  102CA040x       Rx   d 8 00 40 0C BC 2B 00 F1 00  Length = 4078212 BitCount = 140 ID = 271360064x
   1.364903 1  102CC040x       Rx   d 8 00 09 CF 6A 00 87 06 AA  Length = 4048212 BitCount = 139 ID = 271368256x
   1.370122 1  106B8040x       Rx   d 8 00 00 00 00 00 00 00 00  Length = 4314558 BitCount = 148 ID = 275480640x
   1.375017 1  10264040x       Rx   d 8 04 06 00 00 00 00 00 3A  Length = 4198208 BitCount = 144 ID = 270942272x
   1.378608 CAN 1 Status:chip status error active  - TxErr: 0 RxErr: 1
   1.378616 1  ErrorFrame	Flags = 0xfffe	CodeExt = 0x2072	Code = 0x81	ID = 0x908e0080	DLC = 6	Position = 104	Length = 3474375	Data = 0xe  0x1  0x17  0x2  0x8  0x40
   1.383022 CAN 1 Status:chip status error active
   1.383239 1  102CE040x       Rx   d 8 90 00 67 7F 00 00 26 A9  Length = 4108223 BitCount = 141 ID = 271376448x
   1.387020 1  108E0080x       Rx   d 6 0E 01 17 02 08 40  Length = 3654586 BitCount = 126 ID = 277741696x
   1.391430 1  10210040x       Rx   d 8 00 00 00 00 00 00 00 00  Length = 4284573 BitCount = 147 ID = 270598208x
   1.393623 1  13FFE0AFx       Rx   d 0  Length = 2068260 BitCount = 73 ID = 335536303x
   1.400135 1  10220040x       Rx   d 8 10 00 00 00 00 04 00 00  Length = 4318208 BitCount = 148 ID = 270663744x
   1.405090 1  1022E040x       Rx   d 8 10 00 00 00 10 00 00 00  Length = 4258208 BitCount = 146 ID = 270721088x
   1.408094 1  106B0040x       Rx   d 1 00  Length = 2308263 BitCount = 81 ID = 275447872x
   1.414457 1  C800040x        Rx   d 6 08 CB 00 00 53 C3  Length = 3628216 BitCount = 125 ID = 209715264x
   1.416680 1  13FFE060x       Rx   d 0  Length = 2098256 BitCount = 74 ID = 335536224x
   1.421062 1  10230040x       Rx   d 8 20 00 00 00 20 00 00 00  Length = 4258208 BitCount = 146 ID = 270729280x
   1.423255 1  13FFE080x       Rx   d 0  Length = 2068260 BitCount = 73 ID = 335536256x
   1.430157 1  10780040x       Rx   d 8 00 00 01 04 08 00 00 22  Length = 4288223 BitCount = 147 ID = 276299840x
   1.435078 1  10240040x       Rx   d 8 83 FF 88 01 00 D8 0F FC  Length = 4228208 BitCount = 145 ID = 270794816x
   1.437271 1  13FFE099x       Rx   d 0  Length = 2068260 BitCount = 73 ID = 335536281x
   1.441353 1  10EC4040x       Rx   d 8 4C 41 5A 41 36 39 53 44  Length = 3958212 BitCount = 136 ID = 283918400x
   1.449094 1  102C0040x       Rx   d 5 AE EF 44 59 03  Length = 3294606 BitCount = 114 ID = 271319104x
   1.454979 1  102CA040x       Rx   d 8 00 40 0C C4 2B 00 F1 00  Length = 4078212 BitCount = 140 ID = 271360064x
   1.459692 1  10EC8040x       Rx   d 8 48 42 37 30 31 34 39 36  Length = 3898212 BitCount = 134 ID = 283934784x
   1.469473 1  10304058x       Rx   d 3 44 59 01  Length = 2728236 BitCount = 95 ID = 271597656x
   1.475025 1  10264040x       Rx   d 8 04 06 00 00 00 00 00 3A  Length = 4198223 BitCount = 144 ID = 270942272x
   1.477748 CAN 1 Status:chip status error active  - TxErr: 0 RxErr: 1
   1.477756 1  ErrorFrame	Flags = 0xfffe	CodeExt = 0x2072	Code = 0x81	ID = 0x90308060	DLC = 3	Position = 80	Length = 2604375	Data = 0x44  0x59  0x1
   1.480840 CAN 1 Status:chip status error active
   1.481058 1  10308060x       Rx   d 3 44 59 01  Length = 2788247 BitCount = 97 ID = 271614048x
   1.485472 1  1043A040x       Rx   d 8 00 00 35 00 00 00 00 00  Length = 4288208 BitCount = 147 ID = 272867392x
   1.490127 1  10210040x       Rx   d 8 00 00 00 00 00 00 00 00  Length = 4288208 BitCount = 147 ID = 270598208x
   1.495170 1  10220040x       Rx   d 8 10 00 00 00 00 04 00 00  Length = 4318208 BitCount = 148 ID = 270663744x
   1.505075 1  1022E040x       Rx   d 8 30 00 00 00 30 00 00 00  Length = 4288208 BitCount = 147 ID = 270721088x
   1.507954 1  10306099x       Rx   d 3 44 59 01  Length = 2754642 BitCount = 96 ID = 271605913x
   1.515097 1  10230040x       Rx   d 8 00 00 00 00 00 00 00 00  Length = 4288208 BitCount = 147 ID = 270729280x
   1.523113 1  106B0040x       Rx   d 1 00  Length = 2308248 BitCount = 81 ID = 275447872x
   1.535090 1  10240040x       Rx   d 8 80 00 88 01 00 D8 0F FC  Length = 4228208 BitCount = 145 ID = 270794816x
   1.540161 1  106B8040x       Rx   d 8 00 00 00 00 00 00 00 00  Length = 4318223 BitCount = 148 ID = 275480640x
   1.542859 1  13FFE040x       Rx   d 0  Length = 2064714 BitCount = 73 ID = 335536192x
   1.547603 1  10734099x       Rx   d 6 24 41 00 7D 00 00  Length = 3598216 BitCount = 124 ID = 275988633x
   1.555017 1  102CA040x       Rx   d 8 00 40 0C C0 2A 00 F1 00  Length = 4108223 BitCount = 141 ID = 271360064x
   1.575060 1  10264040x       Rx   d 8 04 06 00 00 00 00 00 26  Length = 4224577 BitCount = 145 ID = 270942272x
   1.585236 1  10210040x       Rx   d 8 00 00 00 00 00 00 00 00  Length = 4288208 BitCount = 147 ID = 270598208x
   1.590007 1  1022A040x       Rx   d 8 00 B0 00 12 42 00 00 22  Length = 4138208 BitCount = 142 ID = 270704704x
   1.595169 1  10220040x       Rx   d 8 10 00 00 00 00 04 00 00  Length = 4314558 BitCount = 148 ID = 270663744x
   1.599524 1  1022C040x       Rx   d 6 00 10 00 20 00 00  Length = 3688216 BitCount = 127 ID = 270712896x
   1.605079 1  1022E040x       Rx   d 8 10 00 00 00 10 00 00 00  Length = 4258208 BitCount = 146 ID = 270721088x
   1.615103 1  10230040x       Rx   d 8 20 00 00 00 20 00 00 00  Length = 4258208 BitCount = 146 ID = 270729280x
   1.617534 1  10244060x       Rx   d 1 02  Length = 2304686 BitCount = 81 ID = 270811232x
   1.621709 1  102CC040x       Rx   d 8 00 09 CF 6A 00 87 06 A9  Length = 4048212 BitCount = 139 ID = 271368256x
   1.624167 1  10438060x       Rx   d 1 03  Length = 2334682 BitCount = 82 ID = 272859232x
   1.630023 1  102CE040x       Rx   d 8 90 00 66 7F 00 00 26 A9  Length = 4108223 BitCount = 141 ID = 271376448x
   1.635124 1  10240040x       Rx   d 8 83 FF 88 01 00 D8 0F FC  Length = 4228208 BitCount = 145 ID = 270794816x
   1.638246 1  10814099x       Rx   d 4 20 44 30 00  Length = 2998228 BitCount = 104 ID = 276906137x
   1.642448 1  102D0040x       Rx   d 8 01 69 01 ED 7C 89 00 FF  Length = 4078212 BitCount = 140 ID = 271384640x
   1.648152 1  106B0040x       Rx   d 1 00  Length = 2308248 BitCount = 81 ID = 275447872x
   1.655081 1  102CA040x       Rx   d 8 00 40 0C AE 2A 00 F1 00  Length = 4134566 BitCount = 142 ID = 271360064x
   1.660242 1  10780040x       Rx   d 8 00 00 01 04 08 00 00 22  Length = 4284562 BitCount = 147 ID = 276299840x
   1.664563 1  C800040x        Rx   d 6 08 CB 00 00 53 C7  Length = 3624586 BitCount = 125 ID = 209715264x
   1.669635 1  10788040x       Rx   d 6 08 00 00 00 00 00  Length = 3774593 BitCount = 130 ID = 276332608x
   1.675070 1  10264040x       Rx   d 8 04 06 00 00 00 00 00 3A  Length = 4198208 BitCount = 144 ID = 270942272x
   1.679301 1  10806040x       Rx   d 5 00 00 00 00 19  Length = 3414598 BitCount = 118 ID = 276848704x
   1.685276 1  10210040x       Rx   d 8 00 00 00 00 00 00 00 00  Length = 4288208 BitCount = 147 ID = 270598208x
   1.695179 1  10220040x       Rx   d 8 10 00 00 00 00 06 00 00  Length = 4288208 BitCount = 147 ID = 270663744x
   1.705145 1  1022E040x       Rx   d 8 30 00 00 00 30 00 00 00  Length = 4288208 BitCount = 147 ID = 270721088x
   1.715139 1  10230040x       Rx   d 8 00 00 00 00 00 00 00 00  Length = 4288223 BitCount = 147 ID = 270729280x
   1.725194 1  1043A040x       Rx   d 8 00 00 34 00 00 00 00 00  Length = 4288208 BitCount = 147 ID = 272867392x
   1.735098 1  10240040x       Rx   d 8 83 FE 88 01 00 D8 0F FC  Length = 4198223 BitCount = 144 ID = 270794816x
   1.740231 1  106B8040x       Rx   d 8 00 00 00 00 00 00 00 00  Length = 4318208 BitCount = 148 ID = 275480640x
   1.744162 1  102C0040x       Rx   d 5 AE EF 44 59 03  Length = 3298224 BitCount = 114 ID = 271319104x
   1.755027 1  102CA040x       Rx   d 8 00 40 0C B6 2A 00 F1 00  Length = 4078227 BitCount = 140 ID = 271360064x
   1.757906 1  10306099x       Rx   d 3 44 59 01  Length = 2754642 BitCount = 96 ID = 271605913x
   1.760820 1  10308060x       Rx   d 3 44 59 01  Length = 2788236 BitCount = 97 ID = 271614048x
   1.763313 1  106B0040x       Rx   d 1 00  Length = 2308248 BitCount = 81 ID = 275447872x
   1.769404 1  10304058x       Rx   d 3 44 59 01  Length = 2728236 BitCount = 95 ID = 271597656x
   1.775076 1  10264040x       Rx   d 8 04 06 00 00 00 00 00 3A  Length = 4198208 BitCount = 144 ID = 270942272x
   1.777509 1  10438060x       Rx   d 1 00  Length = 2308248 BitCount = 81 ID = 272859232x
   1.785338 1  10210040x       Rx   d 8 00 00 00 00 00 00 00 00  Length = 4284562 BitCount = 147 ID = 270598208x
   1.791519 1  13FFE068x       Rx   d 0  Length = 2064714 BitCount = 73 ID = 335536232x
   1.795929 1  10220040x       Rx   d 8 10 00 00 00 00 06 00 00  Length = 4284562 BitCount = 147 ID = 270663744x
   1.799113 1  10448060x       Rx   d 4 00 00 45 00  Length = 3058228 BitCount = 106 ID = 272924768x
   1.801812 1  106D0080x       Rx   d 2 00 00  Length = 2574658 BitCount = 90 ID = 275579008x
   1.806195 1  1022E040x       Rx   d 8 10 00 00 00 10 00 00 00  Length = 4258208 BitCount = 146 ID = 270721088x
   1.815137 1  10230040x       Rx   d 8 20 00 00 00 20 00 00 00  Length = 4258208 BitCount = 146 ID = 270729280x
   1.835062 1  1022A040x       Rx   d 8 00 B0 00 12 42 00 00 22  Length = 4134566 BitCount = 142 ID = 270704704x
   1.839597 1  1022C040x       Rx   d 6 00 10 00 20 00 00  Length = 3688216 BitCount = 127 ID = 270712896x
   1.844959 CAN 1 Status:chip status error active  - TxErr: 0 RxErr: 1
   1.844967 1  ErrorFrame	Flags = 0xfffe	CodeExt = 0x2072	Code = 0x81	ID = 0x90240040	DLC = 8	Position = 120	Length = 4044390	Data = 0x83  0xff  0x88  0x1  0  0xd8  0xf  0xfc
   1.849489 CAN 1 Status:chip status error active
   1.849706 1  10240040x       Rx   d 8 83 FF 88 01 00 D8 0F FC  Length = 4224562 BitCount = 145 ID = 270794816x
   1.853187 1  10242040x       Rx   d 1 02  Length = 2304697 BitCount = 81 ID = 270803008x
   1.859822 1  10248040x       Rx   d 7 00 00 6D D4 CC 06 00  Length = 3898212 BitCount = 134 ID = 270827584x
   1.865100 1  102CA040x       Rx   d 8 00 40 0C BD 2A 00 F1 00  Length = 4104581 BitCount = 141 ID = 271360064x
   1.869995 1  102CC040x       Rx   d 8 00 09 CF 6A 00 87 06 AA  Length = 4048212 BitCount = 139 ID = 271368256x
   1.875154 1  10264040x       Rx   d 8 04 06 00 00 00 00 00 39  Length = 4224562 BitCount = 145 ID = 270942272x
   1.880079 1  102CE040x       Rx   d 8 90 00 67 7F 00 00 26 A9  Length = 4108212 BitCount = 141 ID = 271376448x
   1.885201 CAN 1 Status:chip status error active  - TxErr: 0 RxErr: 1
   1.885209 1  ErrorFrame	Flags = 0xfffe	CodeExt = 0x2072	Code = 0x81	ID = 0x90210040	DLC = 8	Position = 120	Length = 4104375	Data = 0  0  0  0  0  0  0  0
   1.889790 CAN 1 Status:chip status error active
   1.889820 CAN 1 Status:chip status error active  - TxErr: 0 RxErr: 1
   1.889828 1  ErrorFrame	Flags = 0xfffe	CodeExt = 0x2072	Code = 0x81	ID = 0x90210040	DLC = 8	Position = 120	Length = 4104375	Data = 0  0  0  0  0  0  0  0
   1.894415 CAN 1 Status:chip status error active
   1.894633 1  10210040x       Rx   d 8 00 00 00 00 00 00 00 00  Length = 4288208 BitCount = 147 ID = 270598208x
   1.900216 1  10220040x       Rx   d 8 10 00 00 00 00 06 00 00  Length = 4288223 BitCount = 147 ID = 270663744x
   1.905199 1  1022E040x       Rx   d 8 30 00 00 00 30 00 00 00  Length = 4288208 BitCount = 147 ID = 270721088x
   1.908202 1  106B0040x       Rx   d 1 00  Length = 2308248 BitCount = 81 ID = 275447872x
   1.914595 1  C800040x        Rx   d 6 08 CB 00 00 53 C9  Length = 3628216 BitCount = 125 ID = 209715264x
   1.920211 1  10230040x       Rx   d 8 00 00 00 00 00 00 00 00  Length = 4288208 BitCount = 147 ID = 270729280x
   1.925314 1  10780040x       Rx   d 8 00 00 01 04 08 00 00 22  Length = 4288223 BitCount = 147 ID = 276299840x
   1.934965 CAN 1 Status:chip status error active  - TxErr: 0 RxErr: 1
   1.934972 1  ErrorFrame	Flags = 0xfffe	CodeExt = 0x2072	Code = 0x81	ID = 0x90240040	DLC = 8	Position = 120	Length = 4044375	Data = 0x83  0xff  0x88  0x1  0  0xd8  0xf  0xfc
   1.939494 CAN 1 Status:chip status error active
   1.939712 1  10240040x       Rx   d 8 83 FF 88 01 00 D8 0F FC  Length = 4224562 BitCount = 145 ID = 270794816x
   1.945267 1  106B8040x       Rx   d 8 00 00 00 00 00 00 00 00  Length = 4318208 BitCount = 148 ID = 275480640x
   1.955141 1  102CA040x       Rx   d 8 00 40 0C B1 2A 00 F1 00  Length = 4138208 BitCount = 142 ID = 271360064x
   1.975154 1  10264040x       Rx   d 8 04 06 00 00 00 00 00 26  Length = 4224562 BitCount = 145 ID = 270942272x
   1.980289 1  1043A040x       Rx   d 8 00 00 38 00 00 00 00 00  Length = 4348208 BitCount = 149 ID = 272867392x
   1.985420 1  10210040x       Rx   d 8 00 00 00 00 00 00 00 00  Length = 4288223 BitCount = 147 ID = 270598208x
   1.989978 1  1080A040x       Rx   d 7 00 00 00 00 00 00 00  Length = 4014585 BitCount = 138 ID = 276865088x
   1.995263 1  10220040x       Rx   d 8 10 00 00 00 00 09 00 00  Length = 4288223 BitCount = 147 ID = 270663744x
   2.005199 1  1022E040x       Rx   d 8 10 00 00 00 10 00 00 00  Length = 4258208 BitCount = 146 ID = 270721088x
   2.011398 1  Statistic: D 1 R 0 XD 157 XR 0 E 7 O 0 B 64.09%
   2.011398 2  Statistic: D 0 R 0 XD 0 XR 0 E 0 O 0 B 0.00%
   2.011398 3  Statistic: D 0 R 0 XD 0 XR 0 E 0 O 0 B 0.00%
   2.015194 1  10230040x       Rx   d 8 20 00 00 00 20 00 00 00  Length = 4258208 BitCount = 146 ID = 270729280x
   2.023358 1  106B0040x       Rx   d 1 00  Length = 2308248 BitCount = 81 ID = 275447872x
   2.035152 1  10240040x       Rx   d 8 83 FE 88 01 00 D8 0F FC  Length = 4198208 BitCount = 144 ID = 270794816x
   2.044217 1  102C0040x       Rx   d 5 AE EF 44 59 03  Length = 3298239 BitCount = 114 ID = 271319104x
   2.047941 1  10734099x       Rx   d 6 24 41 00 7D 00 00  Length = 3598216 BitCount = 124 ID = 275988633x
   2.055175 1  102CA040x       Rx   d 8 00 40 0C BF 2A 00 F1 00  Length = 4138208 BitCount = 142 ID = 271360064x
   2.058055 1  10306099x       Rx   d 3 44 59 01  Length = 2754657 BitCount = 96 ID = 271605913x
   2.069213 1  10304058x       Rx   d 3 44 59 01  Length = 2724642 BitCount = 95 ID = 271597656x
   2.075154 1  10264040x       Rx   d 8 04 06 00 00 00 00 00 3A  Length = 4194577 BitCount = 144 ID = 270942272x
   2.078070 1  10308060x       Rx   d 3 44 59 01  Length = 2788236 BitCount = 97 ID = 271614048x
   2.085274 1  10210040x       Rx   d 8 00 00 00 00 00 00 00 00  Length = 4288208 BitCount = 147 ID = 270598208x
   2.090138 1  1022A040x       Rx   d 8 00 B0 00 12 42 00 00 22  Length = 4138208 BitCount = 142 ID = 270704704x
   2.095301 1  10220040x       Rx   d 8 10 00 00 00 00 08 00 00  Length = 4318223 BitCount = 148 ID = 270663744x
   2.099648 1  1022C040x       Rx   d 6 00 10 00 20 00 00  Length = 3684586 BitCount = 127 ID = 270712896x
   2.105263 1  1022E040x       Rx   d 8 30 00 00 00 30 00 00 00  Length = 4288208 BitCount = 147 ID = 270721088x
   2.108566 1  10250040x       Rx   d 2 00 03  Length = 2608240 BitCount = 91 ID = 270860352x
   2.115260 1  10230040x       Rx   d 8 00 00 00 00 00 00 00 00  Length = 4288208 BitCount = 147 ID = 270729280x
   2.120121 1  102CC040x       Rx   d 8 00 09 CF 6A 00 87 06 A8  Length = 4108212 BitCount = 141 ID = 271368256x
   2.125164 1  102CE040x       Rx   d 8 90 00 67 7F 00 00 26 A9  Length = 4108212 BitCount = 141 ID = 271376448x
   2.130087 1  102D0040x       Rx   d 8 01 69 01 ED 7C 89 00 FF  Length = 4078212 BitCount = 140 ID = 271384640x
   2.133895 1  10324058x       Rx   d 6 00 00 03 FF 00 00  Length = 3684586 BitCount = 127 ID = 271728728x
   2.138217 1  10240040x       Rx   d 8 83 FE 88 01 00 D8 0F FC  Length = 4198223 BitCount = 144 ID = 270794816x
   2.145179 1  102E0040x       Rx   d 8 00 33 CA 70 8A 00 62 81  Length = 4108212 BitCount = 141 ID = 271450176x
   2.148270 1  106B0040x       Rx   d 1 00  Length = 2308248 BitCount = 81 ID = 275447872x
   2.155143 1  102CA040x       Rx   d 8 00 40 0C BB 2A 00 F1 00  Length = 4078212 BitCount = 140 ID = 271360064x
   2.160334 1  106B8040x       Rx   d 8 00 00 00 00 00 00 00 00  Length = 4318208 BitCount = 148 ID = 275480640x
   2.164686 1  C800040x        Rx   d 6 08 CB 00 00 53 CD  Length = 3598216 BitCount = 124 ID = 209715264x
   2.169397 1  106C0040x       Rx   d 5 00 06 0F 07 00  Length = 3448235 BitCount = 119 ID = 275513408x
   2.175192 1  10264040x       Rx   d 8 04 06 00 00 00 00 00 3A  Length = 4198208 BitCount = 144 ID = 270942272x
   2.179123 1  1077C040x       Rx   d 4 30 30 01 F4  Length = 3148224 BitCount = 109 ID = 276283456x
   2.185393 1  10210040x       Rx   d 8 00 00 00 00 00 00 00 00  Length = 4284562 BitCount = 147 ID = 270598208x
   2.190348 1  10780040x       Rx   d 8 00 00 01 04 08 00 00 22  Length = 4288208 BitCount = 147 ID = 276299840x
   2.195359 1  10220040x       Rx   d 8 10 00 00 00 00 04 00 00  Length = 4318208 BitCount = 148 ID = 270663744x
   2.199768 1  10788040x       Rx   d 6 08 00 00 00 00 00  Length = 3774593 BitCount = 130 ID = 276332608x
   2.205263 1  1022E040x       Rx   d 8 10 00 00 00 10 00 00 00  Length = 4258208 BitCount = 146 ID = 270721088x
   2.209436 1  10806040x       Rx   d 5 00 00 00 00 19  Length = 3418220 BitCount = 118 ID = 276848704x
   2.215230 1  10230040x       Rx   d 8 20 00 00 00 20 00 00 00  Length = 4258223 BitCount = 146 ID = 270729280x
   2.225402 1  1043A040x       Rx   d 8 00 00 37 00 00 00 00 00  Length = 4318208 BitCount = 148 ID = 272867392x
   2.235277 1  10240040x       Rx   d 8 83 FE 88 01 00 D8 0F FC  Length = 4198208 BitCount = 144 ID = 270794816x
   2.255173 1  102CA040x       Rx   d 8 00 40 0C B8 2B 00 F1 00  Length = 4108212 BitCount = 141 ID = 271360064x
   2.263336 1  106B0040x       Rx   d 1 00  Length = 2308248 BitCount = 81 ID = 275447872x
   2.275248 1  10264040x       Rx   d 8 04 06 00 00 00 00 00 26  Length = 4224577 BitCount = 145 ID = 270942272x
   2.285395 1  10210040x       Rx   d 8 00 00 00 00 00 00 00 00  Length = 4288208 BitCount = 147 ID = 270598208x
   2.295329 1  10220040x       Rx   d 8 10 00 00 00 00 04 00 00  Length = 4318208 BitCount = 148 ID = 270663744x
   2.305293 1  1022E040x       Rx   d 8 30 00 00 00 30 00 00 00  Length = 4288208 BitCount = 147 ID = 270721088x
   2.315288 1  10230040x       Rx   d 8 00 00 00 00 00 00 00 00  Length = 4288223 BitCount = 147 ID = 270729280x
   2.324622 1  621             Rx   d 8 00 52 00 00 00 00 00 00  Length = 3598216 BitCount = 124 ID = 1569
   2.335187 1  1022A040x       Rx   d 8 00 B0 00 12 42 00 00 22  Length = 4138208 BitCount = 142 ID = 270704704x
   2.339722 1  1022C040x       Rx   d 6 00 10 00 20 00 00  Length = 3688216 BitCount = 127 ID = 270712896x
   2.345275 1  10240040x       Rx   d 8 83 FE 88 01 00 D8 0F FC  Length = 4198208 BitCount = 144 ID = 270794816x
   2.349300 1  102C0040x       Rx   d 5 AE EF 44 59 03  Length = 3298224 BitCount = 114 ID = 271319104x
   2.354883 1  10248040x       Rx   d 7 00 00 6D D4 CC 05 00  Length = 3838212 BitCount = 132 ID = 270827584x
   2.360223 1  102CA040x       Rx   d 8 00 40 0C CF 2A 00 F1 00  Length = 4104566 BitCount = 141 ID = 271360064x
   2.365118 1  102CC040x       Rx   d 8 00 09 CF 6A 00 87 06 A9  Length = 4048227 BitCount = 139 ID = 271368256x
   2.370369 1  106B8040x       Rx   d 8 00 00 00 00 00 00 00 00  Length = 4318208 BitCount = 148 ID = 275480640x
   2.373217 1  10304058x       Rx   d 3 44 59 01  Length = 2724642 BitCount = 95 ID = 271597656x
   2.377539 1  10264040x       Rx   d 8 04 06 00 00 00 00 00 3A  Length = 4198223 BitCount = 144 ID = 270942272x
   2.381316 1  108E0080x       Rx   d 6 0E 01 17 02 08 41  Length = 3654601 BitCount = 126 ID = 277741696x
   2.385731 1  10210040x       Rx   d 8 00 00 00 00 00 00 00 00  Length = 4288208 BitCount = 147 ID = 270598208x
   2.390206 1  102CE040x       Rx   d 8 90 00 66 7F 00 00 26 A8  Length = 4108223 BitCount = 141 ID = 271376448x
   2.395337 1  10220040x       Rx   d 8 10 00 00 00 00 06 00 00  Length = 4284562 BitCount = 147 ID = 270663744x
   2.398252 1  10308060x       Rx   d 3 44 59 01  Length = 2788236 BitCount = 97 ID = 271614048x
   2.400685 1  106B0040x       Rx   d 1 00  Length = 2308248 BitCount = 81 ID = 275447872x
   2.405308 1  1022E040x       Rx   d 8 10 00 00 00 10 00 00 00  Length = 4258208 BitCount = 146 ID = 270721088x
   2.408188 1  10306099x       Rx   d 3 44 59 01  Length = 2754642 BitCount = 96 ID = 271605913x
   2.412598 1  10780040x       Rx   d 8 00 00 01 04 08 00 00 22  Length = 4284562 BitCount = 147 ID = 276299840x
   2.419677 1  C800040x        Rx   d 6 08 CB 00 00 53 CF  Length = 3594590 BitCount = 124 ID = 209715264x
   2.425352 1  10230040x       Rx   d 8 30 00 00 00 30 00 00 00  Length = 4258208 BitCount = 146 ID = 270729280x
   2.435287 1  10240040x       Rx   d 8 83 FE 88 01 00 D8 0F FC  Length = 4198223 BitCount = 144 ID = 270794816x
   2.455184 1  102CA040x       Rx   d 8 00 40 0C C4 2A 00 F1 00  Length = 4078212 BitCount = 140 ID = 271360064x
   2.475255 1  10264040x       Rx   d 8 04 06 00 00 00 00 00 3C  Length = 4194562 BitCount = 144 ID = 270942272x
   2.480356 1  1043A040x       Rx   d 8 00 00 34 00 00 00 00 00  Length = 4284573 BitCount = 147 ID = 272867392x
   2.485517 1  10210040x       Rx   d 8 00 00 00 00 00 00 00 00  Length = 4284562 BitCount = 147 ID = 270598208x
   2.495423 1  10220040x       Rx   d 8 10 00 00 00 00 04 00 00  Length = 4318208 BitCount = 148 ID = 270663744x
   2.505328 1  1022E040x       Rx   d 8 30 00 00 00 30 00 00 00  Length = 4288208 BitCount = 147 ID = 270721088x
   2.515322 1  10230040x       Rx   d 8 00 00 00 00 00 00 00 00  Length = 4288223 BitCount = 147 ID = 270729280x
   2.518357 1  106B0040x       Rx   d 1 00  Length = 2308248 BitCount = 81 ID = 275447872x
   2.528467 1  13FFE058x       Rx   d 0  Length = 2098256 BitCount = 74 ID = 335536216x
   2.535279 1  10240040x       Rx   d 8 83 FE 88 01 00 D8 0F FC  Length = 4198208 BitCount = 144 ID = 270794816x
   2.537739 1  13FFE0BBx       Rx   d 0  Length = 2038275 BitCount = 72 ID = 335536315x
   2.542180 1  106B8040x       Rx   d 8 00 00 00 00 00 00 00 00  Length = 4318223 BitCount = 148 ID = 275480640x
   2.547578 1  10734099x       Rx   d 6 24 41 00 7D 00 00  Length = 3594590 BitCount = 124 ID = 275988633x
   2.555230 1  102CA040x       Rx   d 8 00 40 0C C3 2A 00 F1 00  Length = 4104566 BitCount = 141 ID = 271360064x
   2.575308 1  10264040x       Rx   d 8 04 06 00 00 00 00 00 3C  Length = 4198223 BitCount = 144 ID = 270942272x
   2.577772 1  10438060x       Rx   d 1 03  Length = 2338248 BitCount = 82 ID = 272859232x
   2.581854 1  13FFE0AFx       Rx   d 0  Length = 2068260 BitCount = 73 ID = 335536303x
   2.586263 1  10210040x       Rx   d 8 00 00 00 00 00 00 00 00  Length = 4284562 BitCount = 147 ID = 270598208x
   2.595389 1  10220040x       Rx   d 8 10 00 00 00 00 06 00 00  Length = 4288223 BitCount = 147 ID = 270663744x
   2.600253 1  1022A040x       Rx   d 8 00 B0 00 12 42 00 00 22  Length = 4138208 BitCount = 142 ID = 270704704x
   2.604786 1  1022C040x       Rx   d 6 00 10 00 20 00 00  Length = 3688216 BitCount = 127 ID = 270712896x
   2.610341 1  1022E040x       Rx   d 8 10 00 00 00 10 00 00 00  Length = 4258208 BitCount = 146 ID = 270721088x
   2.615324 1  10230040x       Rx   d 8 20 00 00 00 20 00 00 00  Length = 4258208 BitCount = 146 ID = 270729280x
   2.617547 1  13FFE060x       Rx   d 0  Length = 2098256 BitCount = 74 ID = 335536224x
   2.621779 1  102CC040x       Rx   d 8 00 09 CF 6A 00 87 06 A8  Length = 4108212 BitCount = 141 ID = 271368256x
   2.623971 1  13FFE080x       Rx   d 0  Length = 2068260 BitCount = 73 ID = 335536256x
   2.630274 1  102CE040x       Rx   d 8 90 00 67 7F 00 00 26 A8  Length = 4108223 BitCount = 141 ID = 271376448x
   2.635345 1  10240040x       Rx   d 8 83 FE 88 01 00 D8 0F FC  Length = 4194562 BitCount = 144 ID = 270794816x
   2.637539 1  13FFE099x       Rx   d 0  Length = 2068260 BitCount = 73 ID = 335536281x
   2.641743 1  102D0040x       Rx   d 8 01 69 01 ED 7C 89 00 FF  Length = 4078212 BitCount = 140 ID = 271384640x
   2.649363 1  102C0040x       Rx   d 5 AE EF 44 59 03  Length = 3294617 BitCount = 114 ID = 271319104x
   2.655278 1  102CA040x       Rx   d 8 00 40 0C E1 2A 00 F1 00  Length = 4078212 BitCount = 140 ID = 271360064x
   2.658399 1  106B0040x       Rx   d 1 00  Length = 2308248 BitCount = 81 ID = 275447872x
   2.664792 1  C800040x        Rx   d 6 08 CB 00 00 53 D3  Length = 3598231 BitCount = 124 ID = 209715264x
   2.670467 1  10780040x       Rx   d 8 00 00 01 04 08 00 00 22  Length = 4288208 BitCount = 147 ID = 276299840x
   2.675331 1  10264040x       Rx   d 8 04 06 00 00 00 00 00 28  Length = 4198223 BitCount = 144 ID = 270942272x
   2.678243 1  10308060x       Rx   d 3 44 59 01  Length = 2788247 BitCount = 97 ID = 271614048x
   2.681092 1  10304058x       Rx   d 3 44 59 01  Length = 2724657 BitCount = 95 ID = 271597656x
   2.684997 1  10788040x       Rx   d 6 08 00 00 00 00 00  Length = 3778216 BitCount = 130 ID = 276332608x
   2.690430 1  10210040x       Rx   d 8 00 00 00 00 00 00 00 00  Length = 4288223 BitCount = 147 ID = 270598208x
   2.695472 1  10220040x       Rx   d 8 10 00 00 00 00 06 00 00  Length = 4284562 BitCount = 147 ID = 270663744x
   2.699556 1  10806040x       Rx   d 5 00 00 00 00 19  Length = 3418220 BitCount = 118 ID = 276848704x
   2.705410 1  1022E040x       Rx   d 8 30 00 00 00 30 00 00 00  Length = 4288208 BitCount = 147 ID = 270721088x
   2.708286 1  10306099x       Rx   d 3 44 59 01  Length = 2754642 BitCount = 96 ID = 271605913x
   2.715366 1  10230040x       Rx   d 8 00 00 00 00 00 00 00 00  Length = 4284573 BitCount = 147 ID = 270729280x
   2.725422 1  1043A040x       Rx   d 8 00 00 36 00 00 00 00 00  Length = 4288208 BitCount = 147 ID = 272867392x
   2.735357 1  10240040x       Rx   d 8 83 FF 88 01 00 D8 0F FC  Length = 4228208 BitCount = 145 ID = 270794816x
   2.737790 1  10438060x       Rx   d 1 00  Length = 2308248 BitCount = 81 ID = 272859232x
   2.742227 1  106B8040x       Rx   d 8 00 00 00 00 00 00 00 00  Length = 4314558 BitCount = 148 ID = 275480640x
   2.747748 1  624             Rx   d 8 00 20 00 00 00 00 00 00  Length = 3624586 BitCount = 125 ID = 1572
   2.749941 1  13FFE040x       Rx   d 0  Length = 2068260 BitCount = 73 ID = 335536192x
   2.755280 1  102CA040x       Rx   d 8 00 40 0C CC 2A 00 F1 00  Length = 4074566 BitCount = 140 ID = 271360064x
   2.775359 1  10264040x       Rx   d 8 04 06 00 00 00 00 00 3C  Length = 4198208 BitCount = 144 ID = 270942272x
   2.778424 1  106B0040x       Rx   d 1 00  Length = 2308248 BitCount = 81 ID = 275447872x
   2.785567 1  10210040x       Rx   d 8 00 00 00 00 00 00 00 00  Length = 4288208 BitCount = 147 ID = 270598208x
   2.795443 1  10220040x       Rx   d 8 10 00 00 00 00 08 00 00  Length = 4318208 BitCount = 148 ID = 270663744x
   2.798627 1  10448060x       Rx   d 4 00 00 45 00  Length = 3058228 BitCount = 106 ID = 272924768x
   2.805380 1  1022E040x       Rx   d 8 10 00 00 00 10 00 00 00  Length = 4258223 BitCount = 146 ID = 270721088x
   2.815372 1  10230040x       Rx   d 8 20 00 00 00 20 00 00 00  Length = 4258208 BitCount = 146 ID = 270729280x
   2.835299 1  1022A040x       Rx   d 8 00 B0 00 12 42 00 00 22  Length = 4138223 BitCount = 142 ID = 270704704x
   2.839830 1  1022C040x       Rx   d 6 00 10 00 20 00 00  Length = 3688216 BitCount = 127 ID = 270712896x
   2.845386 1  10240040x       Rx   d 8 83 FE 88 01 00 D8 0F FC  Length = 4198208 BitCount = 144 ID = 270794816x
   2.855046 1  10248040x       Rx   d 7 00 00 6D D4 CC 06 00  Length = 3894574 BitCount = 134 ID = 270827584x
   2.860327 1  102CA040x       Rx   d 8 00 40 0C BA 2A 00 F1 00  Length = 4104566 BitCount = 141 ID = 271360064x
   2.865312 1  102CC040x       Rx   d 8 00 09 CF 6A 00 87 06 A8  Length = 4108212 BitCount = 141 ID = 271368256x
   2.875365 1  10264040x       Rx   d 8 04 06 00 00 00 00 00 3C  Length = 4198208 BitCount = 144 ID = 270942272x
   2.880318 1  102CE040x       Rx   d 8 90 00 67 7F 00 00 26 A8  Length = 4108212 BitCount = 141 ID = 271376448x
   2.885440 CAN 1 Status:chip status error active  - TxErr: 0 RxErr: 1
   2.885447 1  ErrorFrame	Flags = 0xfffe	CodeExt = 0x2072	Code = 0x81	ID = 0x90210040	DLC = 8	Position = 120	Length = 4104390	Data = 0  0  0  0  0  0  0  0
   2.890029 CAN 1 Status:chip status error active
   2.890247 1  10210040x       Rx   d 8 00 00 00 00 00 00 00 00  Length = 4284573 BitCount = 147 ID = 270598208x
   2.895468 1  10220040x       Rx   d 8 10 00 00 00 00 06 00 00  Length = 4284562 BitCount = 147 ID = 270663744x
   2.898441 1  106B0040x       Rx   d 1 00  Length = 2308248 BitCount = 81 ID = 275447872x
   2.905436 1  1022E040x       Rx   d 8 30 00 00 00 30 00 00 00  Length = 4288208 BitCount = 147 ID = 270721088x
   2.910511 1  10780040x       Rx   d 8 00 00 01 04 08 00 00 22  Length = 4288223 BitCount = 147 ID = 276299840x
   2.914862 1  C800040x        Rx   d 6 08 CB 00 00 53 D5  Length = 3628216 BitCount = 125 ID = 209715264x
   2.920444 1  10230040x       Rx   d 8 00 00 00 00 00 00 00 00  Length = 4288208 BitCount = 147 ID = 270729280x
   2.935421 1  10240040x       Rx   d 8 83 FF 88 01 00 D8 0F FC  Length = 4228223 BitCount = 145 ID = 270794816x
   2.940524 1  106B8040x       Rx   d 8 00 00 00 00 00 00 00 00  Length = 4318208 BitCount = 148 ID = 275480640x
   2.944456 1  102C0040x       Rx   d 5 AE EF 44 59 03  Length = 3298224 BitCount = 114 ID = 271319104x
   2.955322 1  102CA040x       Rx   d 8 00 40 0C C5 2A 00 F1 00  Length = 4078212 BitCount = 140 ID = 271360064x
   2.958204 1  10306099x       Rx   d 3 44 59 01  Length = 2758236 BitCount = 96 ID = 271605913x
   2.961118 1  10308060x       Rx   d 3 44 59 01  Length = 2788236 BitCount = 97 ID = 271614048x
   2.969006 1  10304058x       Rx   d 3 44 59 01  Length = 2724642 BitCount = 95 ID = 271597656x
   2.975429 1  10264040x       Rx   d 8 04 06 00 00 00 00 00 3B  Length = 4228208 BitCount = 145 ID = 270942272x
   2.980472 1  1043A040x       Rx   d 8 00 00 36 00 00 00 00 00  Length = 4288208 BitCount = 147 ID = 272867392x
   2.985661 1  10210040x       Rx   d 8 00 00 00 00 00 00 00 00  Length = 4284562 BitCount = 147 ID = 270598208x
   2.990196 1  1080A040x       Rx   d 7 00 00 00 00 00 00 00  Length = 4018212 BitCount = 138 ID = 276865088x
   2.992391 1  13FFE068x       Rx   d 0  Length = 2068260 BitCount = 73 ID = 335536232x
   2.996830 1  10220040x       Rx   d 8 10 00 00 00 00 03 00 00  Length = 4314558 BitCount = 148 ID = 270663744x
   2.999530 1  106D0080x       Rx   d 2 00 00  Length = 2574658 BitCount = 90 ID = 275579008x
   3.005414 1  1022E040x       Rx   d 8 10 00 00 00 10 00 00 00  Length = 4258208 BitCount = 146 ID = 270721088x
   3.009167 1  62C             Rx   d 8 00 40 00 00 00 00 00 00  Length = 3628216 BitCount = 125 ID = 1580
   3.011399 1  Statistic: D 3 R 0 XD 156 XR 0 E 1 O 0 B 61.88%
   3.011399 2  Statistic: D 0 R 0 XD 0 XR 0 E 0 O 0 B 0.00%
   3.011399 3  Statistic: D 0 R 0 XD 0 XR 0 E 0 O 0 B 0.00%
   3.015440 1  10230040x       Rx   d 8 20 00 00 00 20 00 00 00  Length = 4258223 BitCount = 146 ID = 270729280x
   3.019131 1  631             Rx   d 8 00 40 00 00 00 00 00 00  Length = 3564590 BitCount = 123 ID = 1585
   3.021564 1  106B0040x       Rx   d 1 00  Length = 2308248 BitCount = 81 ID = 275447872x
   3.035426 1  10240040x       Rx   d 8 83 FF 88 01 00 D8 0F FC  Length = 4224562 BitCount = 145 ID = 270794816x
   3.047578 1  10734099x       Rx   d 6 24 41 00 7D 00 00  Length = 3598216 BitCount = 124 ID = 275988633x
   3.055382 1  102CA040x       Rx   d 8 00 40 0C B8 2A 00 F1 00  Length = 4108212 BitCount = 141 ID = 271360064x
   3.075423 1  10264040x       Rx   d 8 04 06 00 00 00 00 00 26  Length = 4224562 BitCount = 145 ID = 270942272x
   3.085509 1  10210040x       Rx   d 8 00 00 00 00 00 00 00 00  Length = 4288208 BitCount = 147 ID = 270598208x
   3.090373 1  1022A040x       Rx   d 8 00 B0 00 12 42 00 00 22  Length = 4138223 BitCount = 142 ID = 270704704x
   3.095532 1  10220040x       Rx   d 8 10 00 00 00 00 05 00 00  Length = 4284562 BitCount = 147 ID = 270663744x
   3.099887 1  1022C040x       Rx   d 6 00 10 00 20 00 00  Length = 3688231 BitCount = 127 ID = 270712896x
   3.105472 1  1022E040x       Rx   d 8 30 00 00 00 30 00 00 00  Length = 4288208 BitCount = 147 ID = 270721088x
   3.108805 1  10250040x       Rx   d 2 00 03  Length = 2608240 BitCount = 91 ID = 270860352x
   3.115499 1  10230040x       Rx   d 8 00 00 00 00 00 00 00 00  Length = 4288208 BitCount = 147 ID = 270729280x
   3.120330 1  102CC040x       Rx   d 8 00 09 CF 6A 00 87 06 A9  Length = 4048212 BitCount = 139 ID = 271368256x
   3.125373 1  102CE040x       Rx   d 8 90 00 66 7F 00 00 26 A9  Length = 4108212 BitCount = 141 ID = 271376448x
   3.130326 1  102D0040x       Rx   d 8 01 69 01 ED 7C 89 00 FF  Length = 4078212 BitCount = 140 ID = 271384640x
   3.135457 1  10240040x       Rx   d 8 83 FE 88 01 00 D8 0F FC  Length = 4198208 BitCount = 144 ID = 270794816x
   3.140411 1  102E0040x       Rx   d 8 00 33 CA 70 8A 00 62 81  Length = 4108212 BitCount = 141 ID = 271450176x
   3.144672 1  10466040x       Rx   d 5 00 00 00 00 00  Length = 3448220 BitCount = 119 ID = 273047616x
   3.148513 1  106B0040x       Rx   d 1 00  Length = 2308263 BitCount = 81 ID = 275447872x
   3.155385 1  102CA040x       Rx   d 8 00 40 0C AB 2A 00 F1 00  Length = 4104581 BitCount = 141 ID = 271360064x
   3.160576 1  106B8040x       Rx   d 8 00 00 00 00 00 00 00 00  Length = 4314558 BitCount = 148 ID = 275480640x
   3.164867 1  C800040x        Rx   d 6 08 CB 00 00 53 D9  Length = 3594590 BitCount = 124 ID = 209715264x
   3.169642 1  106C0040x       Rx   d 5 00 06 0F 07 00  Length = 3448220 BitCount = 119 ID = 275513408x
   3.175465 1  10264040x       Rx   d 8 04 06 00 00 00 00 00 39  Length = 4228208 BitCount = 145 ID = 270942272x
   3.179368 1  1077C040x       Rx   d 4 30 30 01 F4  Length = 3148224 BitCount = 109 ID = 276283456x
   3.185578 1  10210040x       Rx   d 8 00 00 00 00 00 00 00 00  Length = 4284562 BitCount = 147 ID = 270598208x
   3.190591 1  10780040x       Rx   d 8 00 00 01 04 08 00 00 22  Length = 4288208 BitCount = 147 ID = 276299840x
   3.195604 1  10220040x       Rx   d 8 10 00 00 00 00 07 00 00  Length = 4318208 BitCount = 148 ID = 270663744x
   3.200011 1  10788040x       Rx   d 6 08 00 00 00 00 00  Length = 3774582 BitCount = 130 ID = 276332608x
   3.205476 1  1022E040x       Rx   d 8 10 00 00 00 10 00 00 00  Length = 4258223 BitCount = 146 ID = 270721088x
   3.209678 1  10806040x       Rx   d 5 00 00 00 00 19  Length = 3414598 BitCount = 118 ID = 276848704x
   3.215473 1  10230040x       Rx   d 8 20 00 00 00 20 00 00 00  Length = 4258208 BitCount = 146 ID = 270729280x
   3.225677 1  1043A040x       Rx   d 8 00 00 35 00 00 00 00 00  Length = 4288223 BitCount = 147 ID = 272867392x
   3.235516 1  10240040x       Rx   d 8 83 FF 88 01 00 D8 0F FC  Length = 4224577 BitCount = 145 ID = 270794816x
   3.244520 1  102C0040x       Rx   d 5 AE EF 44 59 03  Length = 3298224 BitCount = 114 ID = 271319104x
   3.255476 1  102CA040x       Rx   d 8 00 40 0C BC 2A 00 F1 00  Length = 4138208 BitCount = 142 ID = 271360064x
   3.258359 1  10306099x       Rx   d 3 44 59 01  Length = 2758251 BitCount = 96 ID = 271605913x
   3.263579 1  106B0040x       Rx   d 1 00  Length = 2304686 BitCount = 81 ID = 275447872x
   3.268920 1  10304058x       Rx   d 3 44 59 01  Length = 2724642 BitCount = 95 ID = 271597656x
   3.275495 1  10264040x       Rx   d 8 04 06 00 00 00 00 00 39  Length = 4228208 BitCount = 145 ID = 270942272x
   3.278403 1  10308060x       Rx   d 3 44 59 01  Length = 2784638 BitCount = 97 ID = 271614048x
   3.285668 1  10210040x       Rx   d 8 00 00 00 00 00 00 00 00  Length = 4288223 BitCount = 147 ID = 270598208x
   3.295572 1  10220040x       Rx   d 8 10 00 00 00 00 04 00 00  Length = 4318208 BitCount = 148 ID = 270663744x
   3.305506 1  1022E040x       Rx   d 8 30 00 00 00 30 00 00 00  Length = 4288208 BitCount = 147 ID = 270721088x
   3.315503 1  10230040x       Rx   d 8 00 00 00 00 00 00 00 00  Length = 4288208 BitCount = 147 ID = 270729280x
   3.324837 1  621             Rx   d 8 00 52 00 00 00 00 00 00  Length = 3598216 BitCount = 124 ID = 1569
   3.335426 1  1022A040x       Rx   d 8 00 B0 00 12 42 00 00 22  Length = 4134566 BitCount = 142 ID = 270704704x
   3.339961 1  1022C040x       Rx   d 6 00 10 00 20 00 00  Length = 3688216 BitCount = 127 ID = 270712896x
   3.345514 1  10240040x       Rx   d 8 83 FE 88 01 00 D8 0F FC  Length = 4198208 BitCount = 144 ID = 270794816x
   3.350619 1  106B8040x       Rx   d 8 00 00 00 00 00 00 00 00  Length = 4318223 BitCount = 148 ID = 275480640x
   3.355117 1  10248040x       Rx   d 7 00 00 6D D4 CC 05 00  Length = 3834593 BitCount = 132 ID = 270827584x
   3.360461 1  102CA040x       Rx   d 8 00 40 0C B5 2A 00 F1 00  Length = 4108212 BitCount = 141 ID = 271360064x
   3.365387 1  102CC040x       Rx   d 8 00 09 CF 6A 00 87 06 AB  Length = 4078212 BitCount = 140 ID = 271368256x
   3.369109 1  108E0080x       Rx   d 6 0E 01 17 02 08 42  Length = 3598231 BitCount = 124 ID = 277741696x
   3.375593 1  10264040x       Rx   d 8 04 06 00 00 00 00 00 26  Length = 4228223 BitCount = 145 ID = 270942272x
   3.380426 1  102CE040x       Rx   d 8 90 00 67 7F 00 00 26 A9  Length = 4108212 BitCount = 141 ID = 271376448x
   3.385736 1  10210040x       Rx   d 8 00 00 00 00 00 00 00 00  Length = 4284562 BitCount = 147 ID = 270598208x
   3.388561 1  106B0040x       Rx   d 1 00  Length = 2308263 BitCount = 81 ID = 275447872x
   3.395395 CAN 1 Status:chip status error active  - TxErr: 0 RxErr: 1
   3.395402 1  ErrorFrame	Flags = 0xfffe	CodeExt = 0x2072	Code = 0x81	ID = 0x90220040	DLC = 8	Position = 120	Length = 4104375	Data = 0x10  0  0  0  0  0x6  0  0
   3.399984 CAN 1 Status:chip status error active
   3.400201 1  10220040x       Rx   d 8 10 00 00 00 00 06 00 00  Length = 4284573 BitCount = 147 ID = 270663744x
   3.405516 1  1022E040x       Rx   d 8 10 00 00 00 10 00 00 00  Length = 4258208 BitCount = 146 ID = 270721088x
   3.410648 1  10780040x       Rx   d 8 00 00 01 04 08 00 00 22  Length = 4284562 BitCount = 147 ID = 276299840x
   3.414969 1  C800040x        Rx   d 6 08 CB 00 00 53 DB  Length = 3654586 BitCount = 126 ID = 209715264x
   3.420524 1  10230040x       Rx   d 8 20 00 00 00 20 00 00 00  Length = 4258208 BitCount = 146 ID = 270729280x
   3.435650 1  10240040x       Rx   d 8 83 FF 88 01 00 D8 0F FC  Length = 4228223 BitCount = 145 ID = 270794816x
   3.455456 1  102CA040x       Rx   d 8 00 40 0C BE 2B 00 F1 00  Length = 4108212 BitCount = 141 ID = 271360064x
   3.475503 1  10264040x       Rx   d 8 04 06 00 00 00 00 00 3A  Length = 4198208 BitCount = 144 ID = 270942272x
   3.480605 1  1043A040x       Rx   d 8 00 00 36 00 00 00 00 00  Length = 4284562 BitCount = 147 ID = 272867392x
   3.485736 1  10210040x       Rx   d 8 00 00 00 00 00 00 00 00  Length = 4284562 BitCount = 147 ID = 270598208x
   3.495612 1  10220040x       Rx   d 8 10 00 00 00 00 04 00 00  Length = 4318208 BitCount = 148 ID = 270663744x
   3.505547 1  1022E040x       Rx   d 8 30 00 00 00 30 00 00 00  Length = 4288208 BitCount = 147 ID = 270721088x
   3.508582 1  106B0040x       Rx   d 1 00  Length = 2308263 BitCount = 81 ID = 275447872x
   3.515605 1  10230040x       Rx   d 8 00 00 00 00 00 00 00 00  Length = 4288208 BitCount = 147 ID = 270729280x
   3.535560 1  10240040x       Rx   d 8 83 FF 88 01 00 D8 0F FC  Length = 4224562 BitCount = 145 ID = 270794816x
   3.538021 1  10438060x       Rx   d 1 03  Length = 2334682 BitCount = 82 ID = 272859232x
   3.542462 1  106B8040x       Rx   d 8 00 00 00 00 00 00 00 00  Length = 4314558 BitCount = 148 ID = 275480640x
   3.547565 1  10734099x       Rx   d 6 24 41 00 7D 00 00  Length = 3598216 BitCount = 124 ID = 275988633x
   3.550984 1  102C0040x       Rx   d 5 AE EF 44 59 03  Length = 3294606 BitCount = 114 ID = 271319104x
   3.555489 1  102CA040x       Rx   d 8 00 40 0C BE 2A 00 F1 00  Length = 4108212 BitCount = 141 ID = 271360064x
   3.575507 1  10264040x       Rx   d 8 04 06 00 00 00 00 00 3A  Length = 4198208 BitCount = 144 ID = 270942272x
   3.578836 1  10304058x       Rx   d 3 44 59 01  Length = 2724642 BitCount = 95 ID = 271597656x
   3.585676 1  10210040x       Rx   d 8 00 00 00 00 00 00 00 00  Length = 4284562 BitCount = 147 ID = 270598208x
   3.590511 1  1022A040x       Rx   d 8 00 B0 00 12 42 00 00 22  Length = 4138208 BitCount = 142 ID = 270704704x
   3.595644 1  10220040x       Rx   d 8 10 00 00 00 00 09 00 00  Length = 4288208 BitCount = 147 ID = 270663744x
   3.598556 1  10308060x       Rx   d 3 44 59 01  Length = 2788247 BitCount = 97 ID = 271614048x
   3.602370 1  1022C040x       Rx   d 6 00 10 00 20 00 00  Length = 3688216 BitCount = 127 ID = 270712896x
   3.606722 1  10306099x       Rx   d 3 44 59 01  Length = 2758236 BitCount = 96 ID = 271605913x
   3.611100 1  1022E040x       Rx   d 8 10 00 00 00 10 00 00 00  Length = 4254562 BitCount = 146 ID = 270721088x
   3.615575 1  10230040x       Rx   d 8 20 00 00 00 20 00 00 00  Length = 4258208 BitCount = 146 ID = 270729280x
   3.620470 1  102CC040x       Rx   d 8 00 09 CF 6A 00 87 06 A9  Length = 4048212 BitCount = 139 ID = 271368256x
   3.625540 1  102CE040x       Rx   d 8 90 00 66 7F 00 00 26 A9  Length = 4104581 BitCount = 141 ID = 271376448x
   3.630435 1  102D0040x       Rx   d 8 01 69 01 ED 7C 89 00 FF  Length = 4078212 BitCount = 140 ID = 271384640x
   3.635594 1  10240040x       Rx   d 8 83 FF 88 01 00 D8 0F FC  Length = 4224562 BitCount = 145 ID = 270794816x
   3.638629 1  106B0040x       Rx   d 1 00  Length = 2308248 BitCount = 81 ID = 275447872x
   3.644808 1  10806040x       Rx   d 5 00 00 00 00 19  Length = 3414598 BitCount = 118 ID = 276848704x
   3.655555 1  102CA040x       Rx   d 8 00 40 0C B1 2A 00 F1 00  Length = 4138208 BitCount = 142 ID = 271360064x
   3.660688 1  10780040x       Rx   d 8 00 00 01 04 08 00 00 22  Length = 4288208 BitCount = 147 ID = 276299840x
   3.665125 1  C800040x        Rx   d 6 08 CB 00 00 53 DF  Length = 3624601 BitCount = 125 ID = 209715264x
   3.670140 1  10788040x       Rx   d 6 08 00 00 00 00 00  Length = 3778216 BitCount = 130 ID = 276332608x
   3.675568 1  10264040x       Rx   d 8 04 06 00 00 00 00 00 3A  Length = 4194562 BitCount = 144 ID = 270942272x
   3.685714 1  10210040x       Rx   d 8 00 00 00 00 00 00 00 00  Length = 4288208 BitCount = 147 ID = 270598208x
   3.695646 1  10220040x       Rx   d 8 10 00 00 00 00 06 00 00  Length = 4288208 BitCount = 147 ID = 270663744x
   3.698077 1  10438060x       Rx   d 1 00  Length = 2304697 BitCount = 81 ID = 272859232x
   3.705613 1  1022E040x       Rx   d 8 30 00 00 00 30 00 00 00  Length = 4288208 BitCount = 147 ID = 270721088x
   3.715607 1  10230040x       Rx   d 8 00 00 00 00 00 00 00 00  Length = 4288208 BitCount = 147 ID = 270729280x
   3.725722 1  1043A040x       Rx   d 8 00 00 38 00 00 00 00 00  Length = 4348208 BitCount = 149 ID = 272867392x
   3.728153 1  13FFE058x       Rx   d 0  Length = 2098256 BitCount = 74 ID = 335536216x
   3.735626 1  10240040x       Rx   d 8 83 FF 88 01 00 D8 0F FC  Length = 4228208 BitCount = 145 ID = 270794816x
   3.740699 1  106B8040x       Rx   d 8 00 00 00 00 00 00 00 00  Length = 4318223 BitCount = 148 ID = 275480640x
   3.742857 1  13FFE0BBx       Rx   d 0  Length = 2034718 BitCount = 72 ID = 335536315x
   3.755551 1  102CA040x       Rx   d 8 00 40 0C B7 2A 00 F1 00  Length = 4108212 BitCount = 141 ID = 271360064x
   3.758674 1  106B0040x       Rx   d 1 00  Length = 2308248 BitCount = 81 ID = 275447872x
   3.775600 1  10264040x       Rx   d 8 04 06 00 00 00 00 00 26  Length = 4228223 BitCount = 145 ID = 270942272x
   3.781632 1  13FFE0AFx       Rx   d 0  Length = 2068260 BitCount = 73 ID = 335536303x
   3.786044 1  10210040x       Rx   d 8 00 00 00 00 00 00 00 00  Length = 4288208 BitCount = 147 ID = 270598208x
   3.795707 1  10220040x       Rx   d 8 10 00 00 00 00 04 00 00  Length = 4314558 BitCount = 148 ID = 270663744x
   3.798890 1  10448060x       Rx   d 4 00 00 45 00  Length = 3058243 BitCount = 106 ID = 272924768x
   3.805613 1  1022E040x       Rx   d 8 10 00 00 00 10 00 00 00  Length = 4258208 BitCount = 146 ID = 270721088x
   3.815637 1  10230040x       Rx   d 8 20 00 00 00 20 00 00 00  Length = 4258208 BitCount = 146 ID = 270729280x
   3.817859 1  13FFE060x       Rx   d 0  Length = 2098271 BitCount = 74 ID = 335536224x
   3.820053 1  13FFE080x       Rx   d 0  Length = 2068275 BitCount = 73 ID = 335536256x
   3.835564 1  1022A040x       Rx   d 8 00 B0 00 12 42 00 00 22  Length = 4134566 BitCount = 142 ID = 270704704x
   3.837758 1  13FFE099x       Rx   d 0  Length = 2068260 BitCount = 73 ID = 335536281x
   3.841571 1  1022C040x       Rx   d 6 00 10 00 20 00 00  Length = 3688216 BitCount = 127 ID = 270712896x
   3.850638 1  10240040x       Rx   d 8 83 FF 88 01 00 D8 0F FC  Length = 4228208 BitCount = 145 ID = 270794816x
   3.855351 1  10248040x       Rx   d 7 00 00 6D D4 CC 06 00  Length = 3898227 BitCount = 134 ID = 270827584x
   3.859674 1  102C0040x       Rx   d 5 AE EF 44 59 03  Length = 3298224 BitCount = 114 ID = 271319104x
   3.865585 1  102CA040x       Rx   d 8 00 40 0C AC 2B 00 F1 00  Length = 4108212 BitCount = 141 ID = 271360064x
   3.870479 1  102CC040x       Rx   d 8 00 09 CF 6A 00 87 06 AA  Length = 4048212 BitCount = 139 ID = 271368256x
   3.875610 1  10264040x       Rx   d 8 04 06 00 00 00 00 00 3A  Length = 4198208 BitCount = 144 ID = 270942272x
   3.878522 1  10308060x       Rx   d 3 44 59 01  Length = 2788236 BitCount = 97 ID = 271614048x
   3.882755 1  102CE040x       Rx   d 8 90 00 67 7F 00 00 26 A9  Length = 4108223 BitCount = 141 ID = 271376448x
   3.888847 1  10304058x       Rx   d 3 44 59 01  Length = 2728236 BitCount = 95 ID = 271597656x
   3.893254 1  10210040x       Rx   d 8 00 00 00 00 00 00 00 00  Length = 4284562 BitCount = 147 ID = 270598208x
   3.900730 1  10220040x       Rx   d 8 10 00 00 00 00 04 00 00  Length = 4318208 BitCount = 148 ID = 270663744x
   3.905683 1  1022E040x       Rx   d 8 30 00 00 00 30 00 00 00  Length = 4288208 BitCount = 147 ID = 270721088x
   3.908561 1  10306099x       Rx   d 3 44 59 01  Length = 2754642 BitCount = 96 ID = 271605913x
   3.910991 1  106B0040x       Rx   d 1 00  Length = 2304686 BitCount = 81 ID = 275447872x
   3.915105 1  C800040x        Rx   d 6 08 CB 00 00 53 E1  Length = 3658231 BitCount = 126 ID = 209715264x
   3.920688 1  10230040x       Rx   d 8 00 00 00 00 00 00 00 00  Length = 4288208 BitCount = 147 ID = 270729280x
   3.925852 1  10780040x       Rx   d 8 00 00 01 04 08 00 00 22  Length = 4288208 BitCount = 147 ID = 276299840x
   3.935634 1  10240040x       Rx   d 8 83 FE 88 01 00 D8 0F FC  Length = 4198208 BitCount = 144 ID = 270794816x
   3.940736 1  106B8040x       Rx   d 8 00 00 00 00 00 00 00 00  Length = 4314558 BitCount = 148 ID = 275480640x
   3.943437 1  13FFE040x       Rx   d 0  Length = 2064729 BitCount = 73 ID = 335536192x
   3.955593 1  102CA040x       Rx   d 8 00 40 0C AA 2A 00 F1 00  Length = 4108212 BitCount = 141 ID = 271360064x
   3.975608 1  10264040x       Rx   d 8 04 06 00 00 00 00 00 3A  Length = 4194562 BitCount = 144 ID = 270942272x
   3.980709 1  1043A040x       Rx   d 8 00 00 35 00 00 00 00 00  Length = 4284562 BitCount = 147 ID = 272867392x
   3.985810 1  10210040x       Rx   d 8 00 00 00 00 00 00 00 00  Length = 4284562 BitCount = 147 ID = 270598208x
   3.990435 1  1080A040x       Rx   d 7 00 00 00 00 00 00 00  Length = 4018227 BitCount = 138 ID = 276865088x
   3.995781 1  10220040x       Rx   d 8 10 00 00 00 00 04 00 00  Length = 4318223 BitCount = 148 ID = 270663744x
   4.002361 Li SleepModeEvent 0 entering sleep mode due to bus idle timeout
   4.005657 1  1022E040x       Rx   d 8 10 00 00 00 10 00 00 00  Length = 4258208 BitCount = 146 ID = 270721088x
   4.011399 1  Statistic: D 2 R 0 XD 150 XR 0 E 1 O 0 B 59.82%
   4.011399 2  Statistic: D 0 R 0 XD 0 XR 0 E 0 O 0 B 0.00%
   4.011399 3  Statistic: D 0 R 0 XD 0 XR 0 E 0 O 0 B 0.00%
   4.015651 1  10230040x       Rx   d 8 20 00 00 00 20 00 00 00  Length = 4258208 BitCount = 146 ID = 270729280x
   4.023786 1  106B0040x       Rx   d 1 00  Length = 2308248 BitCount = 81 ID = 275447872x
   4.035699 1  10240040x       Rx   d 8 83 FF 88 01 00 D8 0F FC  Length = 4224562 BitCount = 145 ID = 270794816x
   4.047579 1  10734099x       Rx   d 6 24 41 00 7D 00 00  Length = 3594601 BitCount = 124 ID = 275988633x
   4.055563 1  102CA040x       Rx   d 8 00 40 0C B6 2B 00 F1 00  Length = 4078212 BitCount = 140 ID = 271360064x
   4.075672 1  10264040x       Rx   d 8 04 06 00 00 00 00 00 26  Length = 4228208 BitCount = 145 ID = 270942272x
   4.085758 1  10210040x       Rx   d 8 00 00 00 00 00 00 00 00  Length = 4288223 BitCount = 147 ID = 270598208x
   4.090622 1  1022A040x       Rx   d 8 00 B0 00 12 42 00 00 22  Length = 4138223 BitCount = 142 ID = 270704704x
   4.095781 1  10220040x       Rx   d 8 10 00 00 00 00 04 00 00  Length = 4314558 BitCount = 148 ID = 270663744x
   4.100136 1  1022C040x       Rx   d 6 00 10 00 20 00 00  Length = 3688216 BitCount = 127 ID = 270712896x
   4.105721 1  1022E040x       Rx   d 8 30 00 00 00 30 00 00 00  Length = 4288208 BitCount = 147 ID = 270721088x
   4.109054 1  10250040x       Rx   d 2 00 03  Length = 2608255 BitCount = 91 ID = 270860352x
   4.115747 1  10230040x       Rx   d 8 00 00 00 00 00 00 00 00  Length = 4288208 BitCount = 147 ID = 270729280x
   4.120579 1  102CC040x       Rx   d 8 00 09 CF 6A 00 87 06 A9  Length = 4048212 BitCount = 139 ID = 271368256x
   4.125652 1  102CE040x       Rx   d 8 90 00 67 7F 00 00 26 A9  Length = 4108212 BitCount = 141 ID = 271376448x
   4.129453 CAN 1 Status:chip status error active  - TxErr: 0 RxErr: 1
   4.129461 1  ErrorFrame	Flags = 0xfffe	CodeExt = 0x2072	Code = 0x81	ID = 0x90324058	DLC = 6	Position = 104	Length = 3504375	Data = 0  0  0x3  0xff  0  0
   4.133830 CAN 1 Status:chip status error active
   4.134048 1  102D0040x       Rx   d 8 01 69 01 ED 7C 89 00 FF  Length = 4074581 BitCount = 140 ID = 271384640x
   4.137858 1  10324058x       Rx   d 6 00 00 03 FF 00 00  Length = 3684586 BitCount = 127 ID = 271728728x
   4.142210 1  10240040x       Rx   d 8 83 FF 88 01 00 D8 0F FC  Length = 4228208 BitCount = 145 ID = 270794816x
   4.145332 1  10814099x       Rx   d 4 20 44 30 00  Length = 2998243 BitCount = 104 ID = 276906137x
   4.149746 1  102C0040x       Rx   d 5 AE EF 44 59 03  Length = 3298224 BitCount = 114 ID = 271319104x
   4.155747 1  102CA040x       Rx   d 8 00 40 0C CD 2B 00 F1 00  Length = 4134566 BitCount = 142 ID = 271360064x
   4.160732 1  102E0040x       Rx   d 8 00 33 CA 70 8A 00 62 81  Length = 4108212 BitCount = 141 ID = 271450176x
   4.165146 1  C800040x        Rx   d 6 08 CB 00 00 53 E5  Length = 3628231 BitCount = 125 ID = 209715264x
   4.168751 1  106B0040x       Rx   d 1 00  Length = 2308248 BitCount = 81 ID = 275447872x
   4.175682 1  10264040x       Rx   d 8 04 06 00 00 00 00 00 3A  Length = 4194562 BitCount = 144 ID = 270942272x
   4.178682 1  10304058x       Rx   d 3 44 59 01  Length = 2724642 BitCount = 95 ID = 271597656x
   4.183126 1  106B8040x       Rx   d 8 00 00 00 00 00 00 00 00  Length = 4318208 BitCount = 148 ID = 275480640x
   4.190781 1  10210040x       Rx   d 8 00 00 00 00 00 00 00 00  Length = 4288208 BitCount = 147 ID = 270598208x
   4.192974 1  13FFE068x       Rx   d 0  Length = 2068275 BitCount = 73 ID = 335536232x
   4.197411 1  10220040x       Rx   d 8 10 00 00 00 00 04 00 00  Length = 4314558 BitCount = 148 ID = 270663744x
   4.200322 1  10308060x       Rx   d 3 44 59 01  Length = 2784638 BitCount = 97 ID = 271614048x
   4.203020 1  106D0080x       Rx   d 2 00 00  Length = 2574658 BitCount = 90 ID = 275579008x
   4.207406 1  1022E040x       Rx   d 8 10 00 00 00 10 00 00 00  Length = 4258208 BitCount = 146 ID = 270721088x
   4.210286 1  10306099x       Rx   d 3 44 59 01  Length = 2754642 BitCount = 96 ID = 271605913x
   4.215750 1  10230040x       Rx   d 8 20 00 00 00 20 00 00 00  Length = 4258208 BitCount = 146 ID = 270729280x
   4.219895 1  106C0040x       Rx   d 5 00 06 0F 07 00  Length = 3448220 BitCount = 119 ID = 275513408x
   4.225836 1  1043A040x       Rx   d 8 00 00 34 00 00 00 00 00  Length = 4288208 BitCount = 147 ID = 272867392x
   4.229619 1  1077C040x       Rx   d 4 30 30 01 F4  Length = 3148224 BitCount = 109 ID = 276283456x
   4.235708 1  10240040x       Rx   d 8 83 FE 88 01 00 D8 0F FC  Length = 4194577 BitCount = 144 ID = 270794816x
   4.240844 1  10780040x       Rx   d 8 00 00 01 04 08 00 00 22  Length = 4288208 BitCount = 147 ID = 276299840x
   4.245281 1  10788040x       Rx   d 6 08 00 00 00 00 00  Length = 3774582 BitCount = 130 ID = 276332608x
   4.249906 1  10806040x       Rx   d 5 00 00 00 00 19  Length = 3418220 BitCount = 118 ID = 276848704x
   4.255669 1  102CA040x       Rx   d 8 00 40 0C A6 2A 00 F1 00  Length = 4108212 BitCount = 141 ID = 271360064x
   4.275682 1  10264040x       Rx   d 8 04 06 00 00 00 00 00 3A  Length = 4194577 BitCount = 144 ID = 270942272x
   4.285888 1  10210040x       Rx   d 8 00 00 00 00 00 00 00 00  Length = 4288223 BitCount = 147 ID = 270598208x
   4.288770 1  106B0040x       Rx   d 1 00  Length = 2308248 BitCount = 81 ID = 275447872x
   4.295821 1  10220040x       Rx   d 8 10 00 00 00 00 06 00 00  Length = 4284562 BitCount = 147 ID = 270663744x
   4.305755 1  1022E040x       Rx   d 8 30 00 00 00 30 00 00 00  Length = 4288208 BitCount = 147 ID = 270721088x
   4.315752 1  10230040x       Rx   d 8 00 00 00 00 00 00 00 00  Length = 4288208 BitCount = 147 ID = 270729280x
   4.325086 1  621             Rx   d 8 00 52 00 00 00 00 00 00  Length = 3598216 BitCount = 124 ID = 1569
   4.335675 1  1022A040x       Rx   d 8 00 B0 00 12 42 00 00 22  Length = 4134566 BitCount = 142 ID = 270704704x
   4.340180 1  1022C040x       Rx   d 6 00 10 00 20 00 00  Length = 3688216 BitCount = 127 ID = 270712896x
   4.345765 1  10240040x       Rx   d 8 83 FF 88 01 00 D8 0F FC  Length = 4228208 BitCount = 145 ID = 270794816x
   4.350838 1  106B8040x       Rx   d 8 00 00 00 00 00 00 00 00  Length = 4318208 BitCount = 148 ID = 275480640x
   4.355429 1  10248040x       Rx   d 7 00 00 6D D4 CC 06 00  Length = 3898212 BitCount = 134 ID = 270827584x
   4.360681 1  102CA040x       Rx   d 8 00 40 0C B0 2A 00 F1 00  Length = 4104566 BitCount = 141 ID = 271360064x
   4.365636 1  102CC040x       Rx   d 8 00 09 CF 6A 00 87 06 AB  Length = 4078212 BitCount = 140 ID = 271368256x
   4.375748 1  10264040x       Rx   d 8 04 06 00 00 00 00 00 26  Length = 4228208 BitCount = 145 ID = 270942272x
   4.379502 1  108E0080x       Rx   d 6 0E 01 17 02 08 43  Length = 3628231 BitCount = 125 ID = 277741696x
   4.383734 1  102CE040x       Rx   d 8 90 00 67 7F 00 00 26 A9  Length = 4108212 BitCount = 141 ID = 271376448x
   4.390848 1  10210040x       Rx   d 8 00 00 00 00 00 00 00 00  Length = 4288208 BitCount = 147 ID = 270598208x
   4.395833 1  10220040x       Rx   d 8 10 00 00 00 00 06 00 00  Length = 4288208 BitCount = 147 ID = 270663744x
   4.405735 1  1022E040x       Rx   d 8 10 00 00 00 10 00 00 00  Length = 4258208 BitCount = 146 ID = 270721088x
   4.408800 1  106B0040x       Rx   d 1 00  Length = 2308248 BitCount = 81 ID = 275447872x
   4.415254 1  C800040x        Rx   d 6 08 CB 00 00 53 E7  Length = 3658231 BitCount = 126 ID = 209715264x
   4.420777 1  10230040x       Rx   d 8 20 00 00 00 20 00 00 00  Length = 4258208 BitCount = 146 ID = 270729280x
   4.425968 1  10780040x       Rx   d 8 00 00 01 04 08 00 00 22  Length = 4284562 BitCount = 147 ID = 276299840x
   4.435784 1  10240040x       Rx   d 8 83 FF 88 01 00 D8 0F FC  Length = 4228208 BitCount = 145 ID = 270794816x
   4.444789 1  102C0040x       Rx   d 5 AE EF 44 59 03  Length = 3298239 BitCount = 114 ID = 271319104x
   4.455655 1  102CA040x       Rx   d 8 00 40 0C A2 2A 00 F1 00  Length = 4078212 BitCount = 140 ID = 271360064x
   4.468702 1  10304058x       Rx   d 3 44 59 01  Length = 2724642 BitCount = 95 ID = 271597656x
   4.475722 1  10264040x       Rx   d 8 04 06 00 00 00 00 00 3A  Length = 4194562 BitCount = 144 ID = 270942272x
   4.478632 1  10308060x       Rx   d 3 44 59 01  Length = 2784653 BitCount = 97 ID = 271614048x
   4.483106 1  1043A040x       Rx   d 8 00 00 38 00 00 00 00 00  Length = 4348208 BitCount = 149 ID = 272867392x
   4.490848 1  10210040x       Rx   d 8 00 00 00 00 00 00 00 00  Length = 4284562 BitCount = 147 ID = 270598208x
   4.495863 1  10220040x       Rx   d 8 10 00 00 00 00 05 00 00  Length = 4288208 BitCount = 147 ID = 270663744x
   4.498325 1  10438060x       Rx   d 1 03  Length = 2338248 BitCount = 82 ID = 272859232x
   4.505797 1  1022E040x       Rx   d 8 30 00 00 00 30 00 00 00  Length = 4288208 BitCount = 147 ID = 270721088x
   4.508674 1  10306099x       Rx   d 3 44 59 01  Length = 2754657 BitCount = 96 ID = 271605913x
   4.515820 1  10230040x       Rx   d 8 00 00 00 00 00 00 00 00  Length = 4288208 BitCount = 147 ID = 270729280x
   4.523954 1  106B0040x       Rx   d 1 00  Length = 2308263 BitCount = 81 ID = 275447872x
   4.535781 1  10240040x       Rx   d 8 83 FE 88 01 00 D8 0F FC  Length = 4198208 BitCount = 144 ID = 270794816x
   4.540910 1  106B8040x       Rx   d 8 00 00 00 00 00 00 00 00  Length = 4314558 BitCount = 148 ID = 275480640x
   4.547574 1  10734099x       Rx   d 6 24 41 00 7D 00 00  Length = 3598216 BitCount = 124 ID = 275988633x
   4.555737 1  102CA040x       Rx   d 8 00 40 0C BA 2B 00 F1 00  Length = 4108212 BitCount = 141 ID = 271360064x
   4.575756 1  10264040x       Rx   d 8 04 06 00 00 00 00 00 3A  Length = 4198223 BitCount = 144 ID = 270942272x
   4.585873 1  10210040x       Rx   d 8 00 00 00 00 00 00 00 00  Length = 4288208 BitCount = 147 ID = 270598208x
   4.590736 1  1022A040x       Rx   d 8 00 B0 00 12 42 00 00 22  Length = 4138208 BitCount = 142 ID = 270704704x
   4.595925 1  10220040x       Rx   d 8 10 00 00 00 00 04 00 00  Length = 4314558 BitCount = 148 ID = 270663744x
   4.600250 1  1022C040x       Rx   d 6 00 10 00 20 00 00  Length = 3688216 BitCount = 127 ID = 270712896x
   4.605806 1  1022E040x       Rx   d 8 10 00 00 00 10 00 00 00  Length = 4258208 BitCount = 146 ID = 270721088x
   4.615830 1  10230040x       Rx   d 8 20 00 00 00 20 00 00 00  Length = 4258208 BitCount = 146 ID = 270729280x
   4.620693 1  102CC040x       Rx   d 8 00 09 CF 6A 00 87 06 A9  Length = 4048212 BitCount = 139 ID = 271368256x
   4.625766 1  102CE040x       Rx   d 8 90 00 67 7F 00 00 26 A9  Length = 4108223 BitCount = 141 ID = 271376448x
   4.630689 1  102D0040x       Rx   d 8 01 69 01 ED 7C 8A 00 FF  Length = 4078227 BitCount = 140 ID = 271384640x
   4.635821 1  10240040x       Rx   d 8 83 FE 88 01 00 D8 0F FC  Length = 4198208 BitCount = 144 ID = 270794816x
   4.638854 1  106B0040x       Rx   d 1 00  Length = 2308248 BitCount = 81 ID = 275447872x
   4.644846 CAN 1 Status:chip status error active  - TxErr: 0 RxErr: 1
   4.644853 1  ErrorFrame	Flags = 0xfffe	CodeExt = 0x2072	Code = 0x81	ID = 0x90806040	DLC = 5	Position = 96	Length = 3234390	Data = 0  0  0  0  0x19
   4.648565 CAN 1 Status:chip status error active
   4.648595 CAN 1 Status:chip status error active  - TxErr: 0 RxErr: 1
   4.648602 1  ErrorFrame	Flags = 0xfffe	CodeExt = 0x2072	Code = 0x81	ID = 0x90806040	DLC = 5	Position = 96	Length = 3234375	Data = 0  0  0  0  0x19
   4.652319 CAN 1 Status:chip status error active
   4.652537 1  10806040x       Rx   d 5 00 00 00 00 19  Length = 3418235 BitCount = 118 ID = 276848704x
   4.654967 1  10438060x       Rx   d 1 00  Length = 2304686 BitCount = 81 ID = 272859232x
   4.660733 1  102CA040x       Rx   d 8 00 40 0C CE 2B 00 F1 00  Length = 4078227 BitCount = 140 ID = 271360064x
   4.665350 1  C800040x        Rx   d 6 08 CB 00 00 53 EB  Length = 3624601 BitCount = 125 ID = 209715264x
   4.670935 1  10780040x       Rx   d 8 00 00 01 04 08 00 00 22  Length = 4288223 BitCount = 147 ID = 276299840x
   4.675828 1  10264040x       Rx   d 8 04 06 00 00 00 00 00 3A  Length = 4198208 BitCount = 144 ID = 270942272x
   4.680392 1  10788040x       Rx   d 6 08 00 00 00 00 00  Length = 3778216 BitCount = 130 ID = 276332608x
   4.685977 1  10210040x       Rx   d 8 00 00 00 00 00 00 00 00  Length = 4288223 BitCount = 147 ID = 270598208x
   4.695911 1  10220040x       Rx   d 8 10 00 00 00 00 04 00 00  Length = 4318208 BitCount = 148 ID = 270663744x
   4.705846 1  1022E040x       Rx   d 8 30 00 00 00 30 00 00 00  Length = 4288208 BitCount = 147 ID = 270721088x
   4.715870 1  10230040x       Rx   d 8 00 00 00 00 00 00 00 00  Length = 4288208 BitCount = 147 ID = 270729280x
   4.725954 1  1043A040x       Rx   d 8 00 00 38 00 00 00 00 00  Length = 4348208 BitCount = 149 ID = 272867392x
   4.735799 1  10240040x       Rx   d 8 83 FE 88 01 00 D8 0F FC  Length = 4198223 BitCount = 144 ID = 270794816x
   4.740930 1  106B8040x       Rx   d 8 00 00 00 00 00 00 00 00  Length = 4314558 BitCount = 148 ID = 275480640x
   4.744895 1  102C0040x       Rx   d 5 AE EF 44 59 03  Length = 3298224 BitCount = 114 ID = 271319104x
   4.755820 1  102CA040x       Rx   d 8 00 40 0C CB 2A 00 F1 00  Length = 4108223 BitCount = 141 ID = 271360064x
   4.758733 1  10308060x       Rx   d 3 44 59 01  Length = 2788247 BitCount = 97 ID = 271614048x
   4.761165 1  106B0040x       Rx   d 1 00  Length = 2308263 BitCount = 81 ID = 275447872x
   4.768631 1  10304058x       Rx   d 3 44 59 01  Length = 2724642 BitCount = 95 ID = 271597656x
   4.775806 1  10264040x       Rx   d 8 04 06 00 00 00 00 00 28  Length = 4198208 BitCount = 144 ID = 270942272x
   4.786039 1  10210040x       Rx   d 8 00 00 00 00 00 00 00 00  Length = 4284562 BitCount = 147 ID = 270598208x
   4.795975 1  10220040x       Rx   d 8 10 00 00 00 00 04 00 00  Length = 4318208 BitCount = 148 ID = 270663744x
   4.799159 1  10448060x       Rx   d 4 00 00 45 00  Length = 3058228 BitCount = 106 ID = 272924768x
   4.805852 1  1022E040x       Rx   d 8 10 00 00 00 10 00 00 00  Length = 4258208 BitCount = 146 ID = 270721088x
   4.808735 1  10306099x       Rx   d 3 44 59 01  Length = 2758251 BitCount = 96 ID = 271605913x
   4.815874 1  10230040x       Rx   d 8 20 00 00 00 20 00 00 00  Length = 4254577 BitCount = 146 ID = 270729280x
   4.835799 1  1022A040x       Rx   d 8 00 B0 00 12 42 00 00 22  Length = 4134566 BitCount = 142 ID = 270704704x
   4.840304 1  1022C040x       Rx   d 6 00 10 00 20 00 00  Length = 3688216 BitCount = 127 ID = 270712896x
   4.845859 1  10240040x       Rx   d 8 83 FE 88 01 00 D8 0F FC  Length = 4198208 BitCount = 144 ID = 270794816x
   4.855333 CAN 1 Status:chip status error active  - TxErr: 0 RxErr: 1
   4.855340 1  ErrorFrame	Flags = 0xfffe	CodeExt = 0x2072	Code = 0x81	ID = 0x90248040	DLC = 7	Position = 112	Length = 3684390	Data = 0  0  0x6d  0xd4  0xcc  0x4  0
   4.859505 CAN 1 Status:chip status error active
   4.859723 1  10248040x       Rx   d 7 00 00 6D D4 CC 04 00  Length = 3868212 BitCount = 133 ID = 270827584x
   4.865842 1  102CA040x       Rx   d 8 00 40 0C D4 2A 00 F1 00  Length = 4104566 BitCount = 141 ID = 271360064x
   4.870737 1  102CC040x       Rx   d 8 00 09 CF 6A 00 87 06 A7  Length = 4048212 BitCount = 139 ID = 271368256x
   4.875869 1  10264040x       Rx   d 8 04 06 00 00 00 00 00 3C  Length = 4198208 BitCount = 144 ID = 270942272x
   4.880762 1  102CE040x       Rx   d 8 90 00 67 7F 00 00 26 A7  Length = 4078212 BitCount = 140 ID = 271376448x
   4.886099 1  10210040x       Rx   d 8 00 00 00 00 00 00 00 00  Length = 4284562 BitCount = 147 ID = 270598208x
   4.888924 1  106B0040x       Rx   d 1 00  Length = 2308263 BitCount = 81 ID = 275447872x
   4.895979 1  10220040x       Rx   d 8 10 00 00 00 00 05 00 00  Length = 4288208 BitCount = 147 ID = 270663744x
   4.905916 1  1022E040x       Rx   d 8 30 00 00 00 30 00 00 00  Length = 4288223 BitCount = 147 ID = 270721088x
   4.910989 1  10780040x       Rx   d 8 00 00 01 04 08 00 00 22  Length = 4288208 BitCount = 147 ID = 276299840x
   4.915340 1  C800040x        Rx   d 6 08 CB 00 00 53 ED  Length = 3658216 BitCount = 126 ID = 209715264x
   4.920921 1  10230040x       Rx   d 8 00 00 00 00 00 00 00 00  Length = 4288223 BitCount = 147 ID = 270729280x
   4.927855 1  13FFE058x       Rx   d 0  Length = 2098256 BitCount = 74 ID = 335536216x
   4.935869 1  10240040x       Rx   d 8 83 FE 88 01 00 D8 0F FC  Length = 4198208 BitCount = 144 ID = 270794816x
   4.941002 1  106B8040x       Rx   d 8 00 00 00 00 00 00 00 00  Length = 4318223 BitCount = 148 ID = 275480640x
   4.943610 1  13FFE0BBx       Rx   d 0  Length = 2034718 BitCount = 72 ID = 335536315x
   4.955882 1  102CA040x       Rx   d 8 00 40 0C BF 2A 00 F1 00  Length = 4134566 BitCount = 142 ID = 271360064x
   4.975867 1  10264040x       Rx   d 8 04 06 00 00 00 00 00 3C  Length = 4194562 BitCount = 144 ID = 270942272x
   4.980968 1  1043A040x       Rx   d 8 00 00 34 00 00 00 00 00  Length = 4284562 BitCount = 147 ID = 272867392x
   4.983163 1  13FFE0AFx       Rx   d 0  Length = 2068275 BitCount = 73 ID = 335536303x
   4.987572 1  10210040x       Rx   d 8 00 00 00 00 00 00 00 00  Length = 4284562 BitCount = 147 ID = 270598208x
   4.995978 1  10220040x       Rx   d 8 10 00 00 00 00 06 00 00  Length = 4288208 BitCount = 147 ID = 270663744x
   5.000689 1  1080A040x       Rx   d 7 00 00 00 00 00 00 00  Length = 4018212 BitCount = 138 ID = 276865088x
   5.005914 1  1022E040x       Rx   d 8 10 00 00 00 10 00 00 00  Length = 4258208 BitCount = 146 ID = 270721088x
   5.008949 1  106B0040x       Rx   d 1 00  Length = 2308248 BitCount = 81 ID = 275447872x
   5.011399 1  Statistic: D 1 R 0 XD 150 XR 0 E 4 O 0 B 60.75%
   5.011399 2  Statistic: D 0 R 0 XD 0 XR 0 E 0 O 0 B 0.00%
   5.011399 3  Statistic: D 0 R 0 XD 0 XR 0 E 0 O 0 B 0.00%
   5.015939 1  10230040x       Rx   d 8 20 00 00 00 20 00 00 00  Length = 4254562 BitCount = 146 ID = 270729280x
   5.018163 1  13FFE060x       Rx   d 0  Length = 2098256 BitCount = 74 ID = 335536224x
   5.020355 1  13FFE080x       Rx   d 0  Length = 2068275 BitCount = 73 ID = 335536256x
   5.035931 1  10240040x       Rx   d 8 83 FF 88 01 00 D8 0F FC  Length = 4228223 BitCount = 145 ID = 270794816x
   5.038123 1  13FFE099x       Rx   d 0  Length = 2068260 BitCount = 73 ID = 335536281x
   5.044935 1  102C0040x       Rx   d 5 AE EF 44 59 03  Length = 3298224 BitCount = 114 ID = 271319104x
   5.048658 1  10734099x       Rx   d 6 24 41 00 7D 00 00  Length = 3598216 BitCount = 124 ID = 275988633x
   5.055862 1  102CA040x       Rx   d 8 00 40 0C B9 2A 00 F1 00  Length = 4078227 BitCount = 140 ID = 271360064x
   5.068583 1  10304058x       Rx   d 3 44 59 01  Length = 2728236 BitCount = 95 ID = 271597656x
   5.075937 1  10264040x       Rx   d 8 04 06 00 00 00 00 00 3C  Length = 4198208 BitCount = 144 ID = 270942272x
   5.078850 1  10308060x       Rx   d 3 44 59 01  Length = 2788236 BitCount = 97 ID = 271614048x
   5.085995 1  10210040x       Rx   d 8 00 00 00 00 00 00 00 00  Length = 4288223 BitCount = 147 ID = 270598208x
   5.090860 1  1022A040x       Rx   d 8 00 B0 00 12 42 00 00 22  Length = 4138208 BitCount = 142 ID = 270704704x
   5.096020 1  10220040x       Rx   d 8 10 00 00 00 00 07 00 00  Length = 4314558 BitCount = 148 ID = 270663744x
   5.100375 1  1022C040x       Rx   d 6 00 10 00 20 00 00  Length = 3688216 BitCount = 127 ID = 270712896x
   5.105960 1  1022E040x       Rx   d 8 30 00 00 00 30 00 00 00  Length = 4288208 BitCount = 147 ID = 270721088x
   5.108844 1  10306099x       Rx   d 3 44 59 01  Length = 2758236 BitCount = 96 ID = 271605913x
   5.111574 1  10250040x       Rx   d 2 00 03  Length = 2604654 BitCount = 91 ID = 270860352x
   5.115988 1  10230040x       Rx   d 8 00 00 00 00 00 00 00 00  Length = 4288208 BitCount = 147 ID = 270729280x
   5.120853 1  102CC040x       Rx   d 8 00 09 CF 6A 00 87 06 A9  Length = 4048212 BitCount = 139 ID = 271368256x
   5.125893 1  102CE040x       Rx   d 8 90 00 67 7F 00 00 26 A9  Length = 4104566 BitCount = 141 ID = 271376448x
   5.130788 1  102D0040x       Rx   d 8 01 69 01 ED 7C 89 00 FF  Length = 4078227 BitCount = 140 ID = 271384640x
   5.135917 1  10240040x       Rx   d 8 83 FE 88 01 00 D8 0F FC  Length = 4194562 BitCount = 144 ID = 270794816x
   5.140902 1  102E0040x       Rx   d 8 00 33 CA 70 8A 00 62 81  Length = 4108212 BitCount = 141 ID = 271450176x
   5.145162 1  10466040x       Rx   d 5 00 00 00 00 00  Length = 3444598 BitCount = 119 ID = 273047616x
   5.148977 1  106B0040x       Rx   d 1 00  Length = 2308263 BitCount = 81 ID = 275447872x
   5.155910 1  102CA040x       Rx   d 8 00 40 0C E0 2A 00 F1 00  Length = 4138208 BitCount = 142 ID = 271360064x
   5.161041 1  106B8040x       Rx   d 8 00 00 00 00 00 00 00 00  Length = 4318208 BitCount = 148 ID = 275480640x
   5.165539 1  C800040x        Rx   d 6 08 CB 00 00 53 F1  Length = 3684586 BitCount = 127 ID = 209715264x
   5.170133 1  106C0040x       Rx   d 5 00 06 0F 07 00  Length = 3448220 BitCount = 119 ID = 275513408x
   5.175929 1  10264040x       Rx   d 8 04 06 00 00 00 00 00 28  Length = 4198223 BitCount = 144 ID = 270942272x
   5.179830 1  1077C040x       Rx   d 4 30 30 01 F4  Length = 3148224 BitCount = 109 ID = 276283456x
   5.186039 1  10210040x       Rx   d 8 00 00 00 00 00 00 00 00  Length = 4284562 BitCount = 147 ID = 270598208x
   5.191054 1  10780040x       Rx   d 8 00 00 01 04 08 00 00 22  Length = 4288223 BitCount = 147 ID = 276299840x
   5.196066 1  10220040x       Rx   d 8 10 00 00 00 00 08 00 00  Length = 4318208 BitCount = 148 ID = 270663744x
   5.200505 1  10788040x       Rx   d 6 08 00 00 00 00 00  Length = 3774582 BitCount = 130 ID = 276332608x
   5.205970 1  1022E040x       Rx   d 8 10 00 00 00 10 00 00 00  Length = 4258208 BitCount = 146 ID = 270721088x
   5.210143 1  10806040x       Rx   d 5 00 00 00 00 19  Length = 3418220 BitCount = 118 ID = 276848704x
   5.215967 1  10230040x       Rx   d 8 20 00 00 00 20 00 00 00  Length = 4258208 BitCount = 146 ID = 270729280x
   5.218754 1  13FFE040x       Rx   d 0  Length = 2064714 BitCount = 73 ID = 335536192x
   5.226019 1  1043A040x       Rx   d 8 00 00 35 00 00 00 00 00  Length = 4288208 BitCount = 147 ID = 272867392x
   5.235953 1  10240040x       Rx   d 8 83 FF 88 01 00 D8 0F FC  Length = 4228223 BitCount = 145 ID = 270794816x
   5.255850 1  102CA040x       Rx   d 8 00 40 0C BB 2A 00 F1 00  Length = 4078212 BitCount = 140 ID = 271360064x
   5.264133 1  106B0040x       Rx   d 1 00  Length = 2308248 BitCount = 81 ID = 275447872x
   5.275927 1  10264040x       Rx   d 8 04 06 00 00 00 00 00 3C  Length = 4198208 BitCount = 144 ID = 270942272x
   5.286131 1  10210040x       Rx   d 8 00 00 00 00 00 00 00 00  Length = 4288208 BitCount = 147 ID = 270598208x
   5.296066 1  10220040x       Rx   d 8 10 00 00 00 00 06 00 00  Length = 4288208 BitCount = 147 ID = 270663744x
   5.306000 1  1022E040x       Rx   d 8 30 00 00 00 30 00 00 00  Length = 4288208 BitCount = 147 ID = 270721088x
   5.315995 1  10230040x       Rx   d 8 00 00 00 00 00 00 00 00  Length = 4288208 BitCount = 147 ID = 270729280x
   5.325329 1  621             Rx   d 8 00 52 00 00 00 00 00 00  Length = 3598231 BitCount = 124 ID = 1569
   5.335923 1  1022A040x       Rx   d 8 00 B0 00 12 42 00 00 22  Length = 4138208 BitCount = 142 ID = 270704704x
   5.340429 1  1022C040x       Rx   d 6 00 10 00 20 00 00  Length = 3688216 BitCount = 127 ID = 270712896x
   5.346012 1  10240040x       Rx   d 8 83 FE 88 01 00 D8 0F FC  Length = 4198223 BitCount = 144 ID = 270794816x
   5.350037 1  102C0040x       Rx   d 5 AE EF 44 59 03  Length = 3298224 BitCount = 114 ID = 271319104x
   5.355680 1  10248040x       Rx   d 7 00 00 6D D4 CC 06 00  Length = 3898212 BitCount = 134 ID = 270827584x
   5.360900 1  102CA040x       Rx   d 8 00 40 0C A2 2A 00 F1 00  Length = 4074566 BitCount = 140 ID = 271360064x
   5.365855 1  102CC040x       Rx   d 8 00 09 CF 6A 00 87 06 AA  Length = 4048212 BitCount = 139 ID = 271368256x
   5.369603 1  108E0080x       Rx   d 6 0E 01 17 02 08 44  Length = 3624586 BitCount = 125 ID = 277741696x
   5.374047 1  106B8040x       Rx   d 8 00 00 00 00 00 00 00 00  Length = 4318223 BitCount = 148 ID = 275480640x
   5.378370 1  10304058x       Rx   d 3 44 59 01  Length = 2728236 BitCount = 95 ID = 271597656x
   5.382723 1  10264040x       Rx   d 8 04 06 00 00 00 00 00 39  Length = 4228208 BitCount = 145 ID = 270942272x
   5.391068 1  10210040x       Rx   d 8 00 00 00 00 00 00 00 00  Length = 4288223 BitCount = 147 ID = 270598208x
   5.393262 1  13FFE068x       Rx   d 0  Length = 2068260 BitCount = 73 ID = 335536232x
   5.397700 1  10220040x       Rx   d 8 10 00 00 00 00 04 00 00  Length = 4314573 BitCount = 148 ID = 270663744x
   5.400614 1  10308060x       Rx   d 3 44 59 01  Length = 2788236 BitCount = 97 ID = 271614048x
   5.403314 1  106D0080x       Rx   d 2 00 00  Length = 2574658 BitCount = 90 ID = 275579008x
   5.407695 1  1022E040x       Rx   d 8 10 00 00 00 10 00 00 00  Length = 4254562 BitCount = 146 ID = 270721088x
   5.410575 1  10306099x       Rx   d 3 44 59 01  Length = 2754642 BitCount = 96 ID = 271605913x
   5.415469 1  C800040x        Rx   d 6 08 CB 00 00 53 F4  Length = 3658216 BitCount = 126 ID = 209715264x
   5.421022 1  10230040x       Rx   d 8 20 00 00 00 20 00 00 00  Length = 4258208 BitCount = 146 ID = 270729280x
   5.426035 1  102CE040x       Rx   d 8 90 00 67 7F 00 00 26 A9  Length = 4108212 BitCount = 141 ID = 271376448x
   5.429068 1  106B0040x       Rx   d 1 00  Length = 2308248 BitCount = 81 ID = 275447872x
   5.436028 1  10240040x       Rx   d 8 83 FE 88 01 00 D8 0F FC  Length = 4194562 BitCount = 144 ID = 270794816x
   5.441129 1  10780040x       Rx   d 8 00 00 01 04 08 00 00 22  Length = 4284562 BitCount = 147 ID = 276299840x
   5.455956 1  102CA040x       Rx   d 8 00 40 0C B7 2A 00 F1 00  Length = 4108223 BitCount = 141 ID = 271360064x
   5.476005 1  10264040x       Rx   d 8 04 06 00 00 00 00 00 26  Length = 4228208 BitCount = 145 ID = 270942272x
   5.481110 1  1043A040x       Rx   d 8 00 00 37 00 00 00 00 00  Length = 4318208 BitCount = 148 ID = 272867392x
   5.486181 1  10210040x       Rx   d 8 00 00 00 00 00 00 00 00  Length = 4288208 BitCount = 147 ID = 270598208x
   5.495923 CAN 1 Status:chip status error active  - TxErr: 0 RxErr: 1
   5.495930 1  ErrorFrame	Flags = 0xfffe	CodeExt = 0x2072	Code = 0x81	ID = 0x90220040	DLC = 8	Position = 120	Length = 4134390	Data = 0x10  0  0  0  0  0x3  0  0
   5.500542 CAN 1 Status:chip status error active
   5.500572 CAN 1 Status:chip status error active  - TxErr: 0 RxErr: 1
   5.500579 1  ErrorFrame	Flags = 0xfffe	CodeExt = 0x2072	Code = 0x81	ID = 0x90220040	DLC = 8	Position = 120	Length = 4134375	Data = 0x10  0  0  0  0  0x3  0  0
   5.505191 CAN 1 Status:chip status error active
   5.505221 CAN 1 Status:chip status error active  - TxErr: 0 RxErr: 1
   5.505228 1  ErrorFrame	Flags = 0xfffe	CodeExt = 0x2072	Code = 0x81	ID = 0x90220040	DLC = 8	Position = 120	Length = 4134375	Data = 0x10  0  0  0  0  0x3  0  0
   5.509840 CAN 1 Status:chip status error active
   5.509870 CAN 1 Status:chip status error active  - TxErr: 0 RxErr: 1
   5.509877 1  ErrorFrame	Flags = 0xfffe	CodeExt = 0x2072	Code = 0x81	ID = 0x90220040	DLC = 8	Position = 120	Length = 4134390	Data = 0x10  0  0  0  0  0x3  0  0
   5.514489 CAN 1 Status:chip status error active
   5.514707 1  10220040x       Rx   d 8 10 00 00 00 00 03 00 00  Length = 4314558 BitCount = 148 ID = 270663744x
   5.521096 1  1022E040x       Rx   d 8 00 00 00 00 00 00 00 00  Length = 4314573 BitCount = 148 ID = 270721088x
   5.526169 1  10230040x       Rx   d 8 10 00 00 00 10 00 00 00  Length = 4258223 BitCount = 146 ID = 270729280x
   5.536073 1  10240040x       Rx   d 8 83 FF 88 01 00 D8 0F FC  Length = 4228223 BitCount = 145 ID = 270794816x
   5.541147 1  106B8040x       Rx   d 8 00 00 00 00 00 00 00 00  Length = 4318223 BitCount = 148 ID = 275480640x
   5.544208 1  106B0040x       Rx   d 1 00  Length = 2308248 BitCount = 81 ID = 275447872x
   5.547927 1  10734099x       Rx   d 6 24 41 00 7D 00 00  Length = 3594590 BitCount = 124 ID = 275988633x
   5.555972 1  102CA040x       Rx   d 8 00 40 0C BE 2A 00 F1 00  Length = 4108212 BitCount = 141 ID = 271360064x
   5.576045 1  10264040x       Rx   d 8 04 06 00 00 00 00 00 39  Length = 4224577 BitCount = 145 ID = 270942272x
   5.586131 1  10210040x       Rx   d 8 00 00 00 00 00 00 00 00  Length = 4288223 BitCount = 147 ID = 270598208x
   5.590995 1  1022A040x       Rx   d 8 00 B0 00 12 42 00 00 22  Length = 4138208 BitCount = 142 ID = 270704704x
