date Tue Sep 20 04:11:49.888 pm 2016
base hex  timestamps absolute
internal events logged
// version 9.0.0
Begin Triggerblock Tue Sep 20 04:11:49.888 pm 2016
   0.000000 Start of measurement
   0.002123 Li SleepModeEvent 0 starting up in wake mode
   0.003350 CAN 1 Status:chip status error active
   0.003350 CAN 2 Status:chip status error active
   0.003350 CAN 3 Status:chip status error active
   0.012550 1  102CA040x       Rx   d 8 00 40 0C B7 30 00 F1 00  Length = 4138208 BitCount = 142 ID = 271360064x
   0.017713 1  10780040x       Rx   d 8 00 00 01 04 08 00 00 22  Length = 4288223 BitCount = 147 ID = 276299840x
   0.022034 1  C800040x        Rx   d 6 08 CB 00 00 84 B5  Length = 3598216 BitCount = 124 ID = 209715264x
   0.025632 1  106B0040x       Rx   d 1 00  Length = 2304686 BitCount = 81 ID = 275447872x
   0.032623 1  10264040x       Rx   d 8 04 06 00 00 00 00 00 2C  Length = 4224562 BitCount = 145 ID = 270942272x
   0.037158 1  10788040x       Rx   d 6 08 00 00 00 00 00  Length = 3778216 BitCount = 130 ID = 276332608x
   0.042743 1  10210040x       Rx   d 8 00 00 00 00 00 00 00 00  Length = 4288208 BitCount = 147 ID = 270598208x
   0.052768 1  10220040x       Rx   d 8 10 00 00 00 00 06 00 00  Length = 4288208 BitCount = 147 ID = 270663744x
   0.062702 1  1022E040x       Rx   d 8 30 00 00 00 30 00 00 00  Length = 4288208 BitCount = 147 ID = 270721088x
   0.072666 1  10230040x       Rx   d 8 00 00 00 00 00 00 00 00  Length = 4288208 BitCount = 147 ID = 270729280x
   0.082661 1  1043A040x       Rx   d 8 00 00 3D 00 00 00 00 00  Length = 4288208 BitCount = 147 ID = 272867392x
   0.092715 1  10240040x       Rx   d 8 83 FF 88 01 00 F0 0F FC  Length = 4228223 BitCount = 145 ID = 270794816x
   0.097729 1  106B8040x       Rx   d 8 00 00 00 00 00 00 00 00  Length = 4318208 BitCount = 148 ID = 275480640x
   0.112584 1  102CA040x       Rx   d 8 00 40 0C B5 30 00 F1 00  Length = 4138208 BitCount = 142 ID = 271360064x
   0.129114 1  10734099x       Rx   d 6 24 44 00 7D 00 00  Length = 3594590 BitCount = 124 ID = 275988633x
   0.133468 1  10264040x       Rx   d 8 04 06 00 00 00 00 00 42  Length = 4228208 BitCount = 145 ID = 270942272x
   0.135628 1  13FFE0BBx       Rx   d 0  Length = 2034718 BitCount = 72 ID = 335536315x
   0.142862 1  10210040x       Rx   d 8 00 00 00 00 00 00 00 00  Length = 4288208 BitCount = 147 ID = 270598208x
   0.145681 1  106B0040x       Rx   d 1 00  Length = 2304697 BitCount = 81 ID = 275447872x
   0.152826 1  10220040x       Rx   d 8 10 00 00 00 00 07 00 00  Length = 4318208 BitCount = 148 ID = 270663744x
   0.162641 1  1022E040x       Rx   d 8 10 00 00 00 10 00 00 00  Length = 4258208 BitCount = 146 ID = 270721088x
   0.172637 1  10230040x       Rx   d 8 20 00 00 00 20 00 00 00  Length = 4258223 BitCount = 146 ID = 270729280x
   0.192684 1  1022A040x       Rx   d 8 00 B0 00 12 42 00 00 22  Length = 4138208 BitCount = 142 ID = 270704704x
   0.197096 1  1022C040x       Rx   d 6 00 10 00 20 00 00  Length = 3684586 BitCount = 127 ID = 270712896x
   0.202651 1  10240040x       Rx   d 8 83 FE 88 01 00 F0 0F FC  Length = 4198208 BitCount = 144 ID = 270794816x
   0.206674 1  102C0040x       Rx   d 5 AE EF 44 59 03  Length = 3298224 BitCount = 114 ID = 271319104x
   0.210697 1  10242040x       Rx   d 1 02  Length = 2308248 BitCount = 81 ID = 270803008x
   0.217240 1  10248040x       Rx   d 7 00 00 6B CF CC 2B 00  Length = 3838212 BitCount = 132 ID = 270827584x
   0.222613 1  102CA040x       Rx   d 8 00 40 0C 99 30 00 F1 00  Length = 4108223 BitCount = 141 ID = 271360064x
   0.227509 1  102CC040x       Rx   d 8 00 09 CF 66 00 87 06 B7  Length = 4048212 BitCount = 139 ID = 271368256x
   0.230421 1  10308060x       Rx   d 3 44 59 01  Length = 2788247 BitCount = 97 ID = 271614048x
   0.234771 1  10264040x       Rx   d 8 04 06 00 00 00 00 00 42  Length = 4224562 BitCount = 145 ID = 270942272x
   0.237622 1  10304058x       Rx   d 3 44 59 01  Length = 2724642 BitCount = 95 ID = 271597656x
   0.240505 1  10306099x       Rx   d 3 44 59 01  Length = 2758236 BitCount = 96 ID = 271605913x
   0.244915 1  10210040x       Rx   d 8 00 00 00 00 00 00 00 00  Length = 4284562 BitCount = 147 ID = 270598208x
   0.252871 1  10220040x       Rx   d 8 10 00 00 00 00 08 00 00  Length = 4318208 BitCount = 148 ID = 270663744x
   0.257586 1  102CE040x       Rx   d 8 90 00 67 7F 00 00 26 B3  Length = 4108212 BitCount = 141 ID = 271376448x
   0.262715 1  1022E040x       Rx   d 8 30 00 00 00 30 00 00 00  Length = 4284562 BitCount = 147 ID = 270721088x
   0.265356 1  13FFE068x       Rx   d 0  Length = 2064714 BitCount = 73 ID = 335536232x
   0.268271 1  10424040x       Rx   d 3 04 8A 8F  Length = 2788236 BitCount = 97 ID = 272777280x
   0.272114 1  C800040x        Rx   d 6 08 CB 00 00 84 B9  Length = 3598216 BitCount = 124 ID = 209715264x
   0.277759 1  10230040x       Rx   d 8 00 00 00 00 00 00 00 00  Length = 4288208 BitCount = 147 ID = 270729280x
   0.280463 1  106D0080x       Rx   d 2 00 00  Length = 2578240 BitCount = 90 ID = 275579008x
   0.282897 1  106B0040x       Rx   d 1 00  Length = 2308248 BitCount = 81 ID = 275447872x
   0.287789 1  10780040x       Rx   d 8 00 00 01 04 08 00 00 22  Length = 4288208 BitCount = 147 ID = 276299840x
   0.292741 1  10240040x       Rx   d 8 83 FF 88 01 00 F0 0F FC  Length = 4228208 BitCount = 145 ID = 270794816x
   0.297754 1  106B8040x       Rx   d 8 00 00 00 00 00 00 00 00  Length = 4318208 BitCount = 148 ID = 275480640x
   0.300451 1  13FFE040x       Rx   d 0  Length = 2064714 BitCount = 73 ID = 335536192x
   0.306996 1  621             Rx   d 8 00 52 00 00 00 00 00 00  Length = 3598216 BitCount = 124 ID = 1569
   0.312700 1  102CA040x       Rx   d 8 00 40 0C A5 30 00 F1 00  Length = 4168208 BitCount = 143 ID = 271360064x
   0.332683 1  10264040x       Rx   d 8 04 06 00 00 00 00 00 2C  Length = 4224562 BitCount = 145 ID = 270942272x
   0.337728 1  1043A040x       Rx   d 8 00 00 3D 00 00 00 00 00  Length = 4288208 BitCount = 147 ID = 272867392x
   0.342859 1  10210040x       Rx   d 8 00 00 00 00 00 00 00 00  Length = 4288223 BitCount = 147 ID = 270598208x
   0.347450 1  1080A040x       Rx   d 7 00 00 00 00 00 00 00  Length = 4018227 BitCount = 138 ID = 276865088x
   0.352826 1  10220040x       Rx   d 8 10 00 00 00 00 04 00 00  Length = 4318208 BitCount = 148 ID = 270663744x
   0.362792 1  1022E040x       Rx   d 8 10 00 00 00 10 00 00 00  Length = 4258223 BitCount = 146 ID = 270721088x
   0.372756 1  10230040x       Rx   d 8 20 00 00 00 20 00 00 00  Length = 4258223 BitCount = 146 ID = 270729280x
   0.392740 1  10240040x       Rx   d 8 83 FE 88 01 00 F0 0F FC  Length = 4194562 BitCount = 144 ID = 270794816x
   0.395745 1  106B0040x       Rx   d 1 00  Length = 2308248 BitCount = 81 ID = 275447872x
   0.412580 1  102CA040x       Rx   d 8 00 40 0C C2 30 08 F1 00  Length = 4078212 BitCount = 140 ID = 271360064x
   0.432717 1  10264040x       Rx   d 8 04 06 00 00 00 00 00 42  Length = 4228208 BitCount = 145 ID = 270942272x
   0.442894 1  10210040x       Rx   d 8 00 00 00 00 00 00 00 00  Length = 4288223 BitCount = 147 ID = 270598208x
   0.447635 1  1022A040x       Rx   d 8 00 B0 00 12 42 00 00 22  Length = 4138208 BitCount = 142 ID = 270704704x
   0.451355 1  108E0080x       Rx   d 6 0E 01 17 02 0C D6  Length = 3594590 BitCount = 124 ID = 277741696x
   0.455795 1  10220040x       Rx   d 8 10 00 00 00 00 04 00 00  Length = 4314558 BitCount = 148 ID = 270663744x
   0.462251 1  1022C040x       Rx   d 6 00 10 00 20 00 00  Length = 3688216 BitCount = 127 ID = 270712896x
   0.467744 1  1022E040x       Rx   d 8 30 00 00 00 30 00 00 00  Length = 4288208 BitCount = 147 ID = 270721088x
   0.472787 1  10230040x       Rx   d 8 00 00 00 00 00 00 00 00  Length = 4288208 BitCount = 147 ID = 270729280x
   0.476087 1  10250040x       Rx   d 2 02 39  Length = 2544658 BitCount = 89 ID = 270860352x
   0.482632 1  102CC040x       Rx   d 8 00 01 CF 66 00 87 06 C3  Length = 4108212 BitCount = 141 ID = 271368256x
   0.487615 1  102CE040x       Rx   d 8 90 00 66 7F 00 00 26 E5  Length = 4078212 BitCount = 140 ID = 271376448x
   0.492744 1  10240040x       Rx   d 8 83 FE 88 01 00 F0 0F FC  Length = 4194577 BitCount = 144 ID = 270794816x
   0.497579 1  102D0040x       Rx   d 8 01 69 01 ED 7C A3 00 FF  Length = 4078212 BitCount = 140 ID = 271384640x
   0.501752 1  102C0040x       Rx   d 5 AE EF 44 59 03  Length = 3298224 BitCount = 114 ID = 271319104x
   0.507664 1  102E0040x       Rx   d 8 00 33 CA 71 8A 00 62 82  Length = 4108212 BitCount = 141 ID = 271450176x
   0.512647 1  102CA040x       Rx   d 8 00 40 0D 38 44 16 F1 00  Length = 4108212 BitCount = 141 ID = 271360064x
   0.516274 1  10424040x       Rx   d 3 04 8A 90  Length = 2814649 BitCount = 98 ID = 272777280x
   0.522186 1  C800040x        Rx   d 6 08 CB 00 00 84 BB  Length = 3624586 BitCount = 125 ID = 209715264x
   0.525696 1  10304058x       Rx   d 3 44 59 01  Length = 2724642 BitCount = 95 ID = 271597656x
   0.528131 1  106B0040x       Rx   d 1 00  Length = 2308248 BitCount = 81 ID = 275447872x
   0.532688 1  10264040x       Rx   d 8 04 06 00 00 00 00 00 45  Length = 4194562 BitCount = 144 ID = 270942272x
   0.537819 1  106B8040x       Rx   d 8 00 00 00 00 00 00 00 00  Length = 4314573 BitCount = 148 ID = 275480640x
   0.540700 1  10306099x       Rx   d 3 44 59 01  Length = 2754642 BitCount = 96 ID = 271605913x
   0.545109 1  10210040x       Rx   d 8 00 00 00 00 00 00 00 00  Length = 4284573 BitCount = 147 ID = 270598208x
   0.549729 1  10308060x       Rx   d 3 44 59 01  Length = 2784638 BitCount = 97 ID = 271614048x
   0.554139 1  10220040x       Rx   d 8 10 00 00 00 00 06 00 00  Length = 4284562 BitCount = 147 ID = 270663744x
   0.562785 1  1022E040x       Rx   d 8 10 00 00 00 10 00 00 00  Length = 4258208 BitCount = 146 ID = 270721088x
   0.566930 1  106C0040x       Rx   d 5 00 06 0F 07 00  Length = 3448220 BitCount = 119 ID = 275513408x
   0.572812 1  10230040x       Rx   d 8 20 00 00 00 20 00 00 00  Length = 4258208 BitCount = 146 ID = 270729280x
   0.576655 1  1077C040x       Rx   d 4 30 30 01 F4  Length = 3148239 BitCount = 109 ID = 276283456x
   0.582804 1  1043A040x       Rx   d 8 00 00 3C 00 00 00 00 00  Length = 4284562 BitCount = 147 ID = 272867392x
   0.587850 1  10780040x       Rx   d 8 00 00 01 04 08 00 00 22  Length = 4288208 BitCount = 147 ID = 276299840x
   0.592771 1  10240040x       Rx   d 8 83 FE 88 01 00 F0 0F FC  Length = 4198208 BitCount = 144 ID = 270794816x
   0.597274 1  10788040x       Rx   d 6 08 00 00 00 00 00  Length = 3778216 BitCount = 130 ID = 276332608x
   0.601929 1  10806040x       Rx   d 5 00 00 00 00 19  Length = 3418220 BitCount = 118 ID = 276848704x
   0.612646 1  102CA040x       Rx   d 8 00 40 0D D0 51 1E F1 00  Length = 4078212 BitCount = 140 ID = 271360064x
   0.629083 1  10734099x       Rx   d 6 24 44 00 7D 00 00  Length = 3594590 BitCount = 124 ID = 275988633x
   0.633407 1  10264040x       Rx   d 8 04 06 00 00 00 00 00 45  Length = 4198208 BitCount = 144 ID = 270942272x
   0.642979 1  10210040x       Rx   d 8 00 00 00 00 00 00 00 00  Length = 4288208 BitCount = 147 ID = 270598208x
   0.645800 1  106B0040x       Rx   d 1 00  Length = 2308248 BitCount = 81 ID = 275447872x
   0.652975 1  10220040x       Rx   d 8 10 00 00 00 00 04 00 00  Length = 4318208 BitCount = 148 ID = 270663744x
   0.662822 1  1022E040x       Rx   d 8 30 00 00 00 30 00 00 00  Length = 4288208 BitCount = 147 ID = 270721088x
   0.672816 1  10230040x       Rx   d 8 00 00 00 00 00 00 00 00  Length = 4288208 BitCount = 147 ID = 270729280x
   0.692709 1  1022A040x       Rx   d 8 00 B0 00 12 42 00 00 22  Length = 4134566 BitCount = 142 ID = 270704704x
   0.697214 1  1022C040x       Rx   d 6 00 10 00 20 00 00  Length = 3688216 BitCount = 127 ID = 270712896x
   0.702770 1  10240040x       Rx   d 8 83 FE 88 01 00 F0 0F FC  Length = 4198208 BitCount = 144 ID = 270794816x
   0.707873 1  106B8040x       Rx   d 8 00 00 00 00 00 00 00 00  Length = 4318208 BitCount = 148 ID = 275480640x
   0.712406 1  10248040x       Rx   d 7 00 00 6C CF CC 2C 00  Length = 3868212 BitCount = 133 ID = 270827584x
   0.717776 1  102CA040x       Rx   d 8 00 40 0F FA 79 29 F1 00  Length = 4164566 BitCount = 143 ID = 271360064x
   0.722671 1  102CC040x       Rx   d 8 00 01 CF 66 00 87 07 2A  Length = 4078212 BitCount = 140 ID = 271368256x
   0.726304 1  10424040x       Rx   d 3 04 8A 8F  Length = 2788236 BitCount = 97 ID = 272777280x
   0.732819 1  10264040x       Rx   d 8 04 06 00 00 00 00 00 37  Length = 4258208 BitCount = 146 ID = 270942272x
   0.735042 1  13FFE058x       Rx   d 0  Length = 2098271 BitCount = 74 ID = 335536216x
   0.739245 1  102CE040x       Rx   d 8 90 00 67 7F FE 00 27 44  Length = 4078212 BitCount = 140 ID = 271376448x
   0.747857 1  10210040x       Rx   d 8 00 00 00 00 00 00 00 00  Length = 4288208 BitCount = 147 ID = 270598208x
   0.752958 1  10220040x       Rx   d 8 10 00 00 00 00 06 00 00  Length = 4288223 BitCount = 147 ID = 270663744x
   0.762830 1  1022E040x       Rx   d 8 10 00 00 00 10 00 00 00  Length = 4258208 BitCount = 146 ID = 270721088x
   0.765836 1  106B0040x       Rx   d 1 00  Length = 2308248 BitCount = 81 ID = 275447872x
   0.772289 1  C800040x        Rx   d 6 08 CB 00 00 84 BF  Length = 3658216 BitCount = 126 ID = 209715264x
   0.777872 1  10230040x       Rx   d 8 20 00 00 00 20 00 00 00  Length = 4258208 BitCount = 146 ID = 270729280x
   0.782887 1  10780040x       Rx   d 8 00 00 01 04 08 00 00 22  Length = 4288223 BitCount = 147 ID = 276299840x
   0.792880 1  10240040x       Rx   d 8 83 FE 88 01 00 F0 0F FC  Length = 4198208 BitCount = 144 ID = 270794816x
   0.801824 1  102C0040x       Rx   d 5 AE EF 44 59 03  Length = 3298224 BitCount = 114 ID = 271319104x
   0.812721 1  102CA040x       Rx   d 8 00 40 13 AD 85 31 F1 00  Length = 4108212 BitCount = 141 ID = 271360064x
   0.825736 1  10304058x       Rx   d 3 44 59 01  Length = 2724642 BitCount = 95 ID = 271597656x
   0.829701 1  10308060x       Rx   d 3 44 59 01  Length = 2788236 BitCount = 97 ID = 271614048x
   0.834020 1  10264040x       Rx   d 8 04 06 00 00 00 00 00 9D  Length = 4194562 BitCount = 144 ID = 270942272x
   0.838254 1  10306099x       Rx   d 3 44 59 01  Length = 2758251 BitCount = 96 ID = 271605913x
   0.842876 1  10210040x       Rx   d 8 00 00 00 00 00 00 00 00  Length = 4288223 BitCount = 147 ID = 270598208x
   0.847861 1  1043A040x       Rx   d 8 00 00 69 00 00 00 00 00  Length = 4288208 BitCount = 147 ID = 272867392x
   0.852903 1  10220040x       Rx   d 8 10 00 00 00 00 07 00 00  Length = 4318208 BitCount = 148 ID = 270663744x
   0.857251 1  13FFE0AFx       Rx   d 0  Length = 2064714 BitCount = 73 ID = 335536303x
   0.862867 1  1022E040x       Rx   d 8 30 00 00 00 30 00 00 00  Length = 4288208 BitCount = 147 ID = 270721088x
   0.869976 1  10448060x       Rx   d 4 00 00 45 00  Length = 3054618 BitCount = 106 ID = 272924768x
   0.874386 1  10230040x       Rx   d 8 00 00 00 00 00 00 00 00  Length = 4284562 BitCount = 147 ID = 270729280x
   0.880932 1  106B0040x       Rx   d 1 00  Length = 2308248 BitCount = 81 ID = 275447872x
   0.892876 1  10240040x       Rx   d 8 83 FE 88 01 00 F0 0F FC  Length = 4198208 BitCount = 144 ID = 270794816x
   0.897918 1  106B8040x       Rx   d 8 00 00 00 00 00 00 00 00  Length = 4318208 BitCount = 148 ID = 275480640x
   0.912650 1  102CA040x       Rx   d 8 00 40 17 49 63 36 F1 00  Length = 4014570 BitCount = 138 ID = 271360064x
   0.932788 1  10264040x       Rx   d 8 04 06 00 00 00 00 00 C5  Length = 4198208 BitCount = 144 ID = 270942272x
   0.942993 1  10210040x       Rx   d 8 00 00 00 00 00 00 00 00  Length = 4288223 BitCount = 147 ID = 270598208x
   0.947766 1  1022A040x       Rx   d 8 00 B0 00 12 42 00 00 22  Length = 4138223 BitCount = 142 ID = 270704704x
   0.952926 1  10220040x       Rx   d 8 10 00 00 00 00 08 00 00  Length = 4314573 BitCount = 148 ID = 270663744x
   0.957277 1  1022C040x       Rx   d 6 00 10 00 20 00 00  Length = 3684597 BitCount = 127 ID = 270712896x
   0.962892 1  1022E040x       Rx   d 8 10 00 00 00 10 00 00 00  Length = 4258208 BitCount = 146 ID = 270721088x
   0.966401 1  10424040x       Rx   d 3 04 8A 90  Length = 2814638 BitCount = 98 ID = 272777280x
   0.972856 1  10230040x       Rx   d 8 20 00 00 00 20 00 00 00  Length = 4258208 BitCount = 146 ID = 270729280x
   0.977749 1  102CC040x       Rx   d 8 00 01 CF 66 00 87 07 1C  Length = 4108223 BitCount = 141 ID = 271368256x
   0.982733 1  102CE040x       Rx   d 8 90 00 68 7F 00 00 27 1C  Length = 4078212 BitCount = 140 ID = 271376448x
   0.987712 1  102D0040x       Rx   d 8 01 69 01 ED 7C 99 00 FF  Length = 4104566 BitCount = 141 ID = 271384640x
   0.992907 1  10240040x       Rx   d 8 83 FE 88 01 00 F0 0F FC  Length = 4198208 BitCount = 144 ID = 270794816x
   0.995878 1  106B0040x       Rx   d 1 00  Length = 2308263 BitCount = 81 ID = 275447872x
   1.002028 1  10806040x       Rx   d 5 00 00 00 00 19  Length = 3414613 BitCount = 118 ID = 276848704x
   1.003350 1  Statistic: D 1 R 0 XD 152 XR 0 E 0 O 0 B 59.59%
   1.003350 2  Statistic: D 0 R 0 XD 0 XR 0 E 0 O 0 B 0.00%
   1.003350 3  Statistic: D 0 R 0 XD 0 XR 0 E 0 O 0 B 0.00%
   1.012714 1  102CA040x       Rx   d 8 00 40 1A 7B 5C 38 F1 00  Length = 4048212 BitCount = 139 ID = 271360064x
   1.017969 1  10780040x       Rx   d 8 00 00 01 04 08 00 00 22  Length = 4288223 BitCount = 147 ID = 276299840x
   1.022321 1  C800040x        Rx   d 6 08 CB 00 00 84 C8  Length = 3654601 BitCount = 126 ID = 209715264x
   1.027392 1  10788040x       Rx   d 6 08 00 00 00 00 00  Length = 3774593 BitCount = 130 ID = 276332608x
   1.032636 CAN 1 Status:chip status error active  - TxErr: 0 RxErr: 1
   1.032643 1  ErrorFrame	Flags = 0xfffe	CodeExt = 0x2072	Code = 0x81	ID = 0x90264040	DLC = 8	Position = 120	Length = 4014375	Data = 0x4  0x6  0  0  0  0  0  0xc9
   1.037135 CAN 1 Status:chip status error active
   1.037352 1  10264040x       Rx   d 8 04 06 00 00 00 00 00 C9  Length = 4194577 BitCount = 144 ID = 270942272x
   1.043058 1  10210040x       Rx   d 8 00 00 00 00 00 00 00 00  Length = 4288208 BitCount = 147 ID = 270598208x
   1.052962 1  10220040x       Rx   d 8 10 00 00 00 00 05 00 00  Length = 4288223 BitCount = 147 ID = 270663744x
   1.062927 1  1022E040x       Rx   d 8 30 00 00 00 30 00 00 00  Length = 4288208 BitCount = 147 ID = 270721088x
   1.072891 1  10230040x       Rx   d 8 00 00 00 00 00 00 00 00  Length = 4288208 BitCount = 147 ID = 270729280x
   1.082915 1  1043A040x       Rx   d 8 00 00 5D 00 00 00 00 00  Length = 4288223 BitCount = 147 ID = 272867392x
   1.089036 1  13FFE060x       Rx   d 0  Length = 2094725 BitCount = 74 ID = 335536224x
   1.093356 1  10240040x       Rx   d 8 83 FE 88 01 00 F0 0F FC  Length = 4194562 BitCount = 144 ID = 270794816x
   1.097951 1  106B8040x       Rx   d 8 00 00 00 00 00 00 00 00  Length = 4318208 BitCount = 148 ID = 275480640x
   1.100146 1  13FFE080x       Rx   d 0  Length = 2068260 BitCount = 73 ID = 335536256x
   1.103565 1  102C0040x       Rx   d 5 AE EF 44 59 03  Length = 3294606 BitCount = 114 ID = 271319104x
   1.112721 1  102CA040x       Rx   d 8 00 40 1D 12 56 38 F1 00  Length = 4018227 BitCount = 138 ID = 271360064x
   1.115934 1  106B0040x       Rx   d 1 00  Length = 2308248 BitCount = 81 ID = 275447872x
   1.118125 1  13FFE099x       Rx   d 0  Length = 2068260 BitCount = 73 ID = 335536281x
   1.121969 1  10708040x       Rx   d 5 02 24 02 24 39  Length = 3268224 BitCount = 113 ID = 275808320x
   1.125658 1  10304058x       Rx   d 3 44 59 01  Length = 2724642 BitCount = 95 ID = 271597656x
   1.129377 1  10734099x       Rx   d 6 24 44 00 7D 00 00  Length = 3594590 BitCount = 124 ID = 275988633x
   1.133698 1  10264040x       Rx   d 8 04 06 00 00 00 00 00 D9  Length = 4194577 BitCount = 144 ID = 270942272x
   1.138228 1  10306099x       Rx   d 3 44 59 01  Length = 2754642 BitCount = 96 ID = 271605913x
   1.143002 1  10210040x       Rx   d 8 00 00 00 00 00 00 00 00  Length = 4288208 BitCount = 147 ID = 270598208x
   1.149755 1  10308060x       Rx   d 3 44 59 01  Length = 2788236 BitCount = 97 ID = 271614048x
   1.154199 1  10220040x       Rx   d 8 10 00 00 00 00 03 00 00  Length = 4318208 BitCount = 148 ID = 270663744x
   1.162905 1  1022E040x       Rx   d 8 10 00 00 00 10 00 00 00  Length = 4258208 BitCount = 146 ID = 270721088x
   1.172962 1  10230040x       Rx   d 8 20 00 00 00 20 00 00 00  Length = 4258208 BitCount = 146 ID = 270729280x
   1.192919 1  1022A040x       Rx   d 8 00 B0 00 12 42 00 00 22  Length = 4138208 BitCount = 142 ID = 270704704x
   1.197330 1  1022C040x       Rx   d 6 00 10 00 20 00 00  Length = 3684586 BitCount = 127 ID = 270712896x
   1.202885 1  10240040x       Rx   d 8 83 FE 88 01 00 F0 0F FC  Length = 4198208 BitCount = 144 ID = 270794816x
   1.212516 1  10248040x       Rx   d 7 00 00 6C CF CC 2F 00  Length = 3864578 BitCount = 133 ID = 270827584x
   1.217797 1  102CA040x       Rx   d 8 00 40 1E F7 53 31 F1 00  Length = 4074581 BitCount = 140 ID = 271360064x
   1.222780 1  102CC040x       Rx   d 8 00 01 CF 66 00 87 06 D4  Length = 4078212 BitCount = 140 ID = 271368256x
   1.232864 1  10264040x       Rx   d 8 04 06 00 00 00 00 00 E4  Length = 4198208 BitCount = 144 ID = 270942272x
   1.237787 1  102CE040x       Rx   d 8 90 00 69 7F 04 00 26 D2  Length = 4078212 BitCount = 140 ID = 271376448x
   1.243125 1  10210040x       Rx   d 8 00 00 00 00 00 00 00 00  Length = 4284573 BitCount = 147 ID = 270598208x
   1.245950 1  106B0040x       Rx   d 1 00  Length = 2308263 BitCount = 81 ID = 275447872x
   1.253065 1  10220040x       Rx   d 8 10 00 00 00 00 06 00 00  Length = 4288208 BitCount = 147 ID = 270663744x
   1.262972 1  1022E040x       Rx   d 8 30 00 00 00 30 00 00 00  Length = 4288208 BitCount = 147 ID = 270721088x
   1.268015 1  10780040x       Rx   d 8 00 00 01 04 08 00 00 22  Length = 4288208 BitCount = 147 ID = 276299840x
   1.272366 1  C800040x        Rx   d 6 08 CB 00 00 84 D6  Length = 3598231 BitCount = 124 ID = 209715264x
   1.278038 1  10230040x       Rx   d 8 00 00 00 00 00 00 00 00  Length = 4288223 BitCount = 147 ID = 270729280x
   1.292889 1  10240040x       Rx   d 8 83 FE 88 01 00 F0 0F FC  Length = 4194577 BitCount = 144 ID = 270794816x
   1.298021 1  106B8040x       Rx   d 8 00 00 00 00 00 00 00 00  Length = 4314558 BitCount = 148 ID = 275480640x
   1.312848 1  102CA040x       Rx   d 8 00 40 1F E9 4C 21 F1 00  Length = 4108212 BitCount = 141 ID = 271360064x
   1.317230 1  621             Rx   d 8 00 52 00 00 00 00 00 00  Length = 3594590 BitCount = 124 ID = 1569
   1.332927 1  10264040x       Rx   d 8 04 06 00 00 00 00 00 D6  Length = 4228208 BitCount = 145 ID = 270942272x
   1.335087 1  13FFE0BBx       Rx   d 0  Length = 2034718 BitCount = 72 ID = 335536315x
   1.339528 1  1043A040x       Rx   d 8 00 00 3F 00 00 00 00 00  Length = 4318208 BitCount = 148 ID = 272867392x
   1.347991 1  10210040x       Rx   d 8 00 00 00 00 00 00 00 00  Length = 4288223 BitCount = 147 ID = 270598208x
   1.353030 1  10220040x       Rx   d 8 10 00 00 00 00 04 00 00  Length = 4314558 BitCount = 148 ID = 270663744x
   1.357715 1  1080A040x       Rx   d 7 00 00 00 00 00 00 00  Length = 4018212 BitCount = 138 ID = 276865088x
   1.363025 1  1022E040x       Rx   d 8 10 00 00 00 10 00 00 00  Length = 4254577 BitCount = 146 ID = 270721088x
   1.365970 1  106B0040x       Rx   d 1 00  Length = 2308248 BitCount = 81 ID = 275447872x
   1.373055 1  10230040x       Rx   d 8 20 00 00 00 20 00 00 00  Length = 4258208 BitCount = 146 ID = 270729280x
   1.392922 1  10240040x       Rx   d 8 83 FE 88 01 00 F0 0F FC  Length = 4198208 BitCount = 144 ID = 270794816x
   1.401984 1  102C0040x       Rx   d 5 AE EF 44 59 03  Length = 3298224 BitCount = 114 ID = 271319104x
   1.412851 1  102CA040x       Rx   d 8 00 40 1F B8 43 1B F1 00  Length = 4078212 BitCount = 140 ID = 271360064x
   1.425510 1  10304058x       Rx   d 3 44 59 01  Length = 2728236 BitCount = 95 ID = 271597656x
   1.429682 1  10308060x       Rx   d 3 44 59 01  Length = 2788236 BitCount = 97 ID = 271614048x
   1.434034 1  10264040x       Rx   d 8 04 06 00 00 00 00 00 A3  Length = 4228208 BitCount = 145 ID = 270942272x
   1.438234 1  10306099x       Rx   d 3 44 59 01  Length = 2758236 BitCount = 96 ID = 271605913x
   1.443038 1  10210040x       Rx   d 8 00 00 00 00 00 00 00 00  Length = 4288208 BitCount = 147 ID = 270598208x
   1.447871 1  1022A040x       Rx   d 8 00 B0 00 12 42 00 00 22  Length = 4138223 BitCount = 142 ID = 270704704x
   1.451624 1  108E0080x       Rx   d 6 0E 01 17 02 0C D7  Length = 3628216 BitCount = 125 ID = 277741696x
   1.456033 1  10220040x       Rx   d 8 10 00 00 00 00 06 00 00  Length = 4284562 BitCount = 147 ID = 270663744x
   1.462429 1  1022C040x       Rx   d 6 00 10 00 20 00 00  Length = 3688216 BitCount = 127 ID = 270712896x
   1.465339 1  13FFE068x       Rx   d 0  Length = 2064714 BitCount = 73 ID = 335536232x
   1.469753 1  1022E040x       Rx   d 8 30 00 00 00 30 00 00 00  Length = 4288208 BitCount = 147 ID = 270721088x
   1.477979 1  10230040x       Rx   d 8 00 00 00 00 00 00 00 00  Length = 4288208 BitCount = 147 ID = 270729280x
   1.480678 1  106D0080x       Rx   d 2 00 00  Length = 2574658 BitCount = 90 ID = 275579008x
   1.483353 1  10250040x       Rx   d 2 02 38  Length = 2548240 BitCount = 89 ID = 270860352x
   1.487797 1  102CC040x       Rx   d 8 00 01 CF 66 00 87 06 AF  Length = 4048212 BitCount = 139 ID = 271368256x
   1.492989 1  10240040x       Rx   d 8 83 FE 88 01 00 F0 0F FC  Length = 4194562 BitCount = 144 ID = 270794816x
   1.497853 1  102CE040x       Rx   d 8 90 00 69 7F 05 00 26 B1  Length = 4078212 BitCount = 140 ID = 271376448x
   1.502867 1  102D0040x       Rx   d 8 01 69 01 ED 7C 83 00 FF  Length = 4108223 BitCount = 141 ID = 271384640x
   1.507938 1  102E0040x       Rx   d 8 00 37 CA 71 8A 00 62 82  Length = 4138223 BitCount = 142 ID = 271450176x
   1.512918 1  102CA040x       Rx   d 8 00 40 1F 7E 40 14 F1 00  Length = 4104566 BitCount = 141 ID = 271360064x
   1.517182 1  10466040x       Rx   d 5 00 00 00 00 00  Length = 3448235 BitCount = 119 ID = 273047616x
   1.522490 1  C800040x        Rx   d 6 08 CB 00 00 84 DF  Length = 3654586 BitCount = 126 ID = 209715264x
   1.526001 1  106B0040x       Rx   d 1 00  Length = 2304686 BitCount = 81 ID = 275447872x
   1.532932 1  10264040x       Rx   d 8 04 06 00 00 00 00 00 6B  Length = 4194577 BitCount = 144 ID = 270942272x
   1.538064 1  106B8040x       Rx   d 8 00 00 00 00 00 00 00 00  Length = 4314573 BitCount = 148 ID = 275480640x
   1.543165 1  10210040x       Rx   d 8 00 00 00 00 00 00 00 00  Length = 4284562 BitCount = 147 ID = 270598208x
   1.547160 1  106C0040x       Rx   d 5 00 06 0F 07 00  Length = 3448235 BitCount = 119 ID = 275513408x
   1.553073 1  10220040x       Rx   d 8 10 00 00 00 00 06 00 00  Length = 4288208 BitCount = 147 ID = 270663744x
   1.556854 1  1077C040x       Rx   d 4 30 30 01 F4  Length = 3148239 BitCount = 109 ID = 276283456x
   1.563040 1  1022E040x       Rx   d 8 10 00 00 00 10 00 00 00  Length = 4258208 BitCount = 146 ID = 270721088x
   1.568085 1  10780040x       Rx   d 8 00 00 01 04 08 00 00 22  Length = 4288208 BitCount = 147 ID = 276299840x
   1.573006 1  10230040x       Rx   d 8 20 00 00 00 20 00 00 00  Length = 4258223 BitCount = 146 ID = 270729280x
   1.577569 1  10788040x       Rx   d 6 08 00 00 00 00 00  Length = 3778216 BitCount = 130 ID = 276332608x
   1.583065 1  1043A040x       Rx   d 8 00 00 32 00 00 00 00 00  Length = 4318223 BitCount = 148 ID = 272867392x
   1.587178 1  10806040x       Rx   d 5 00 00 00 00 19  Length = 3418220 BitCount = 118 ID = 276848704x
   1.593061 1  10240040x       Rx   d 8 83 FE 88 01 00 F0 0F FC  Length = 4198223 BitCount = 144 ID = 270794816x
   1.595759 1  13FFE040x       Rx   d 0  Length = 2064714 BitCount = 73 ID = 335536192x
   1.612926 1  102CA040x       Rx   d 8 00 40 1F 44 3B 10 F1 00  Length = 4108212 BitCount = 141 ID = 271360064x
   1.629096 1  10734099x       Rx   d 6 24 44 00 7D 00 00  Length = 3598216 BitCount = 124 ID = 275988633x
   1.633415 1  10264040x       Rx   d 8 04 06 00 00 00 00 00 69  Length = 4194562 BitCount = 144 ID = 270942272x
   1.643046 1  10210040x       Rx   d 8 00 00 00 00 00 00 00 00  Length = 4284573 BitCount = 147 ID = 270598208x
   1.646051 1  106B0040x       Rx   d 1 00  Length = 2308248 BitCount = 81 ID = 275447872x
   1.653190 1  10220040x       Rx   d 8 10 00 00 00 00 06 00 00  Length = 4284562 BitCount = 147 ID = 270663744x
   1.663036 1  1022E040x       Rx   d 8 30 00 00 00 30 00 00 00  Length = 4288208 BitCount = 147 ID = 270721088x
   1.673061 1  10230040x       Rx   d 8 00 00 00 00 00 00 00 00  Length = 4288223 BitCount = 147 ID = 270729280x
   1.692924 1  1022A040x       Rx   d 8 00 B0 00 12 42 00 00 22  Length = 4134566 BitCount = 142 ID = 270704704x
   1.697459 1  1022C040x       Rx   d 6 00 10 00 20 00 00  Length = 3688216 BitCount = 127 ID = 270712896x
   1.703014 1  10240040x       Rx   d 8 83 FE 88 01 00 F0 0F FC  Length = 4198208 BitCount = 144 ID = 270794816x
   1.707037 1  102C0040x       Rx   d 5 AE EF 44 59 03  Length = 3298224 BitCount = 114 ID = 271319104x
   1.712681 1  10248040x       Rx   d 7 00 00 6C CF CC 38 00  Length = 3868212 BitCount = 133 ID = 270827584x
   1.717930 1  102CA040x       Rx   d 8 00 40 1E B5 35 09 F1 00  Length = 4074566 BitCount = 140 ID = 271360064x
   1.722885 1  102CC040x       Rx   d 8 00 01 CF 67 00 87 06 A5  Length = 4048212 BitCount = 139 ID = 271368256x
   1.726548 1  10424040x       Rx   d 3 04 8A 8F  Length = 2788247 BitCount = 97 ID = 272777280x
   1.733033 1  10264040x       Rx   d 8 04 06 00 00 00 00 00 5D  Length = 4198223 BitCount = 144 ID = 270942272x
   1.735882 1  10304058x       Rx   d 3 44 59 01  Length = 2724642 BitCount = 95 ID = 271597656x
   1.740084 1  102CE040x       Rx   d 8 90 00 6A 7F 03 00 26 A2  Length = 4078227 BitCount = 140 ID = 271376448x
   1.742962 1  10306099x       Rx   d 3 44 59 01  Length = 2754642 BitCount = 96 ID = 271605913x
   1.748094 1  10210040x       Rx   d 8 00 00 00 00 00 00 00 00  Length = 4284562 BitCount = 147 ID = 270598208x
   1.751003 1  10308060x       Rx   d 3 44 59 01  Length = 2784638 BitCount = 97 ID = 271614048x
   1.755447 1  10220040x       Rx   d 8 10 00 00 00 00 04 00 00  Length = 4318208 BitCount = 148 ID = 270663744x
   1.763073 1  1022E040x       Rx   d 8 10 00 00 00 10 00 00 00  Length = 4258208 BitCount = 146 ID = 270721088x
   1.766134 1  106B0040x       Rx   d 1 00  Length = 2308248 BitCount = 81 ID = 275447872x
   1.772587 1  C800040x        Rx   d 6 08 CB 00 00 84 E6  Length = 3658216 BitCount = 126 ID = 209715264x
   1.778053 1  10230040x       Rx   d 8 20 00 00 00 20 00 00 00  Length = 4258208 BitCount = 146 ID = 270729280x
   1.783156 1  106B8040x       Rx   d 8 00 00 00 00 00 00 00 00  Length = 4318208 BitCount = 148 ID = 275480640x
   1.788139 1  10780040x       Rx   d 8 00 00 01 04 08 00 00 22  Length = 4288208 BitCount = 147 ID = 276299840x
   1.793090 1  10240040x       Rx   d 8 83 FF 88 01 00 F0 0F FC  Length = 4228208 BitCount = 145 ID = 270794816x
   1.812953 1  102CA040x       Rx   d 8 00 40 1D C6 2D 02 F1 00  Length = 4074581 BitCount = 140 ID = 271360064x
   1.833062 1  10264040x       Rx   d 8 04 06 00 00 00 00 00 47  Length = 4228208 BitCount = 145 ID = 270942272x
   1.838105 1  1043A040x       Rx   d 8 00 00 28 00 00 00 00 00  Length = 4288208 BitCount = 147 ID = 272867392x
   1.843235 1  10210040x       Rx   d 8 00 00 00 00 00 00 00 00  Length = 4284562 BitCount = 147 ID = 270598208x
   1.853141 1  10220040x       Rx   d 8 10 00 00 00 00 03 00 00  Length = 4318208 BitCount = 148 ID = 270663744x
   1.863136 1  1022E040x       Rx   d 8 30 00 00 00 30 00 00 00  Length = 4288208 BitCount = 147 ID = 270721088x
   1.869949 1  10448060x       Rx   d 4 00 00 45 00  Length = 3058243 BitCount = 106 ID = 272924768x
   1.874362 1  10230040x       Rx   d 8 00 00 00 00 00 00 00 00  Length = 4288208 BitCount = 147 ID = 270729280x
   1.881145 1  106B0040x       Rx   d 1 00  Length = 2304686 BitCount = 81 ID = 275447872x
   1.893061 1  10240040x       Rx   d 8 83 FF 88 01 00 F0 0F FC  Length = 4228208 BitCount = 145 ID = 270794816x
   1.898160 1  106B8040x       Rx   d 8 00 00 00 00 00 00 00 00  Length = 4314573 BitCount = 148 ID = 275480640x
   1.913018 1  102CA040x       Rx   d 8 00 40 1C 87 27 00 F1 00  Length = 4108212 BitCount = 141 ID = 271360064x
   1.933037 1  10264040x       Rx   d 8 04 06 00 00 00 00 00 4C  Length = 4198208 BitCount = 144 ID = 270942272x
   1.936847 1  10324058x       Rx   d 6 00 00 03 FF 00 00  Length = 3684597 BitCount = 127 ID = 271728728x
   1.939696 1  13FFE058x       Rx   d 0  Length = 2094710 BitCount = 74 ID = 335536216x
   1.944106 1  10210040x       Rx   d 8 00 00 00 00 00 00 00 00  Length = 4284562 BitCount = 147 ID = 270598208x
   1.953142 1  10220040x       Rx   d 8 10 00 00 00 00 05 00 00  Length = 4288208 BitCount = 147 ID = 270663744x
   1.958005 1  1022A040x       Rx   d 8 00 B0 00 12 42 00 00 22  Length = 4138208 BitCount = 142 ID = 270704704x
   1.962538 1  1022C040x       Rx   d 6 00 10 00 20 00 00  Length = 3688216 BitCount = 127 ID = 270712896x
   1.968063 1  1022E040x       Rx   d 8 10 00 00 00 10 00 00 00  Length = 4258208 BitCount = 146 ID = 270721088x
   1.973137 1  10230040x       Rx   d 8 20 00 00 00 20 00 00 00  Length = 4258223 BitCount = 146 ID = 270729280x
   1.978030 1  102CC040x       Rx   d 8 00 09 CF 67 00 87 06 91  Length = 4048212 BitCount = 139 ID = 271368256x
   1.983041 1  102CE040x       Rx   d 8 90 00 6A 7F 03 00 26 8F  Length = 4138208 BitCount = 142 ID = 271376448x
   1.987964 1  102D0040x       Rx   d 8 01 69 01 ED 7C 76 00 FF  Length = 4108212 BitCount = 141 ID = 271384640x
   1.993154 1  10240040x       Rx   d 8 83 FF 88 01 00 F0 0F FC  Length = 4224562 BitCount = 145 ID = 270794816x
   1.996129 1  106B0040x       Rx   d 1 00  Length = 2308248 BitCount = 81 ID = 275447872x
   2.002128 1  102C0040x       Rx   d 5 AE EF 44 59 03  Length = 3294606 BitCount = 114 ID = 271319104x
   2.003350 1  Statistic: D 1 R 0 XD 152 XR 0 E 1 O 0 B 60.19%
   2.003350 2  Statistic: D 0 R 0 XD 0 XR 0 E 0 O 0 B 0.00%
   2.003350 3  Statistic: D 0 R 0 XD 0 XR 0 E 0 O 0 B 0.00%
   2.007290 1  10806040x       Rx   d 5 00 00 00 00 19  Length = 3414598 BitCount = 118 ID = 276848704x
   2.012965 1  102CA040x       Rx   d 8 00 40 1B 55 2E 00 F1 00  Length = 4048212 BitCount = 139 ID = 271360064x
   2.018214 1  10780040x       Rx   d 8 00 00 01 04 08 00 00 22  Length = 4284573 BitCount = 147 ID = 276299840x
   2.022565 1  C800040x        Rx   d 6 08 CB 00 00 84 E9  Length = 3624586 BitCount = 125 ID = 209715264x
   2.025445 1  10304058x       Rx   d 3 44 59 01  Length = 2724642 BitCount = 95 ID = 271597656x
   2.029349 1  10788040x       Rx   d 6 08 00 00 00 00 00  Length = 3778216 BitCount = 130 ID = 276332608x
   2.032258 1  10308060x       Rx   d 3 44 59 01  Length = 2784638 BitCount = 97 ID = 271614048x
   2.038141 1  10264040x       Rx   d 8 04 06 00 00 00 00 00 40  Length = 4258208 BitCount = 146 ID = 270942272x
   2.041019 1  10306099x       Rx   d 3 44 59 01  Length = 2754657 BitCount = 96 ID = 271605913x
   2.045429 1  10210040x       Rx   d 8 00 00 00 00 00 00 00 00  Length = 4284562 BitCount = 147 ID = 270598208x
   2.053294 1  10220040x       Rx   d 8 10 00 00 00 00 04 00 00  Length = 4318208 BitCount = 148 ID = 270663744x
   2.057015 1  13FFE0AFx       Rx   d 0  Length = 2064729 BitCount = 73 ID = 335536303x
   2.063105 1  1022E040x       Rx   d 8 30 00 00 00 30 00 00 00  Length = 4284562 BitCount = 147 ID = 270721088x
   2.068506 1  624             Rx   d 8 00 20 00 00 00 00 00 00  Length = 3624586 BitCount = 125 ID = 1572
   2.073129 1  10230040x       Rx   d 8 00 00 00 00 00 00 00 00  Length = 4288223 BitCount = 147 ID = 270729280x
   2.083186 1  1043A040x       Rx   d 8 00 00 22 00 00 00 00 00  Length = 4318208 BitCount = 148 ID = 272867392x
   2.093120 1  10240040x       Rx   d 8 83 FF 88 01 00 F0 0F FC  Length = 4228208 BitCount = 145 ID = 270794816x
   2.098220 1  106B8040x       Rx   d 8 00 00 00 00 00 00 00 00  Length = 4314558 BitCount = 148 ID = 275480640x
   2.113043 1  102CA040x       Rx   d 8 00 40 1A 07 2E 00 F1 00  Length = 4104566 BitCount = 141 ID = 271360064x
   2.116168 1  106B0040x       Rx   d 1 00  Length = 2308248 BitCount = 81 ID = 275447872x
   2.129070 1  10734099x       Rx   d 6 24 44 00 7D 00 00  Length = 3598216 BitCount = 124 ID = 275988633x
   2.133422 1  10264040x       Rx   d 8 04 06 00 00 00 00 00 3E  Length = 4228208 BitCount = 145 ID = 270942272x
   2.143297 1  10210040x       Rx   d 8 00 00 00 00 00 00 00 00  Length = 4288208 BitCount = 147 ID = 270598208x
   2.153231 1  10220040x       Rx   d 8 10 00 00 00 00 06 00 00  Length = 4288223 BitCount = 147 ID = 270663744x
   2.163136 1  1022E040x       Rx   d 8 10 00 00 00 10 00 00 00  Length = 4258223 BitCount = 146 ID = 270721088x
   2.173220 1  10230040x       Rx   d 8 20 00 00 00 20 00 00 00  Length = 4258208 BitCount = 146 ID = 270729280x
   2.193057 1  1022A040x       Rx   d 8 00 B0 00 12 42 00 00 22  Length = 4138208 BitCount = 142 ID = 270704704x
   2.197588 1  1022C040x       Rx   d 6 00 10 00 20 00 00  Length = 3688216 BitCount = 127 ID = 270712896x
   2.203173 1  10240040x       Rx   d 8 83 FF 88 01 00 F0 0F FC  Length = 4228208 BitCount = 145 ID = 270794816x
   2.212774 1  10248040x       Rx   d 7 00 00 6C CF CC 2F 00  Length = 3864589 BitCount = 133 ID = 270827584x
   2.218085 1  102CA040x       Rx   d 8 00 40 18 FF 2D 00 F1 00  Length = 4104566 BitCount = 141 ID = 271360064x
   2.221209 1  10814099x       Rx   d 4 20 44 30 00  Length = 2998228 BitCount = 104 ID = 276906137x
   2.225379 1  102CC040x       Rx   d 8 00 09 CF 67 00 87 06 95  Length = 4044585 BitCount = 139 ID = 271368256x
   2.233155 1  10264040x       Rx   d 8 04 06 00 00 00 00 00 3E  Length = 4228208 BitCount = 145 ID = 270942272x
   2.238166 1  102CE040x       Rx   d 8 90 00 69 7F 02 00 26 90  Length = 4078212 BitCount = 140 ID = 271376448x
   2.243325 1  10210040x       Rx   d 8 00 00 00 00 00 00 00 00  Length = 4284562 BitCount = 147 ID = 270598208x
   2.246716 1  10424040x       Rx   d 3 04 8A 90  Length = 2814638 BitCount = 98 ID = 272777280x
   2.253202 1  10220040x       Rx   d 8 10 00 00 00 00 06 00 00  Length = 4288223 BitCount = 147 ID = 270663744x
   2.256205 1  106B0040x       Rx   d 1 00  Length = 2308248 BitCount = 81 ID = 275447872x
   2.263224 1  1022E040x       Rx   d 8 30 00 00 00 30 00 00 00  Length = 4284562 BitCount = 147 ID = 270721088x
   2.268269 1  10780040x       Rx   d 8 00 00 01 04 08 00 00 22  Length = 4288208 BitCount = 147 ID = 276299840x
   2.272647 1  C800040x        Rx   d 6 08 CB 00 00 84 ED  Length = 3594590 BitCount = 124 ID = 209715264x
   2.278232 1  10230040x       Rx   d 8 00 00 00 00 00 00 00 00  Length = 4288208 BitCount = 147 ID = 270729280x
   2.289003 1  13FFE060x       Rx   d 0  Length = 2094710 BitCount = 74 ID = 335536224x
   2.293352 1  10240040x       Rx   d 8 83 FF 88 01 00 F0 0F FC  Length = 4224562 BitCount = 145 ID = 270794816x
   2.298247 1  106B8040x       Rx   d 8 00 00 00 00 00 00 00 00  Length = 4318208 BitCount = 148 ID = 275480640x
   2.300439 1  13FFE080x       Rx   d 0  Length = 2068260 BitCount = 73 ID = 335536256x
   2.303859 1  102C0040x       Rx   d 5 AE EF 44 59 03  Length = 3294606 BitCount = 114 ID = 271319104x
   2.313074 1  102CA040x       Rx   d 8 00 40 18 05 2D 00 F1 00  Length = 4078212 BitCount = 140 ID = 271360064x
   2.317573 1  13FFE099x       Rx   d 0  Length = 2064714 BitCount = 73 ID = 335536281x
   2.322497 1  621             Rx   d 8 00 52 00 00 00 00 00 00  Length = 3598216 BitCount = 124 ID = 1569
   2.325376 1  10304058x       Rx   d 3 44 59 01  Length = 2724642 BitCount = 95 ID = 271597656x
   2.333119 1  10264040x       Rx   d 8 04 06 00 00 00 00 00 34  Length = 4198208 BitCount = 144 ID = 270942272x
   2.338221 1  1043A040x       Rx   d 8 00 00 24 00 00 00 00 00  Length = 4288208 BitCount = 147 ID = 272867392x
   2.341099 1  10306099x       Rx   d 3 44 59 01  Length = 2754642 BitCount = 96 ID = 271605913x
   2.345509 1  10210040x       Rx   d 8 00 00 00 00 00 00 00 00  Length = 4284573 BitCount = 147 ID = 270598208x
   2.350492 1  62C             Rx   d 8 00 40 00 00 00 00 00 00  Length = 3628216 BitCount = 125 ID = 1580
   2.354931 1  10220040x       Rx   d 8 10 00 00 00 00 07 00 00  Length = 4314573 BitCount = 148 ID = 270663744x
   2.357841 1  10308060x       Rx   d 3 44 59 01  Length = 2784638 BitCount = 97 ID = 271614048x
   2.363245 1  1022E040x       Rx   d 8 10 00 00 00 10 00 00 00  Length = 4258208 BitCount = 146 ID = 270721088x
   2.367990 1  1080A040x       Rx   d 7 00 00 00 00 00 00 00  Length = 4018212 BitCount = 138 ID = 276865088x
   2.373209 1  10230040x       Rx   d 8 20 00 00 00 20 00 00 00  Length = 4254562 BitCount = 146 ID = 270729280x
   2.376214 1  106B0040x       Rx   d 1 00  Length = 2308248 BitCount = 81 ID = 275447872x
   2.379902 1  631             Rx   d 8 00 40 00 00 00 00 00 00  Length = 3564590 BitCount = 123 ID = 1585
   2.393198 1  10240040x       Rx   d 8 83 FF 88 01 00 F0 0F FC  Length = 4228208 BitCount = 145 ID = 270794816x
   2.413127 1  102CA040x       Rx   d 8 00 40 17 17 2C 00 F1 00  Length = 4108212 BitCount = 141 ID = 271360064x
   2.433172 1  10264040x       Rx   d 8 04 06 00 00 00 00 00 35  Length = 4194562 BitCount = 144 ID = 270942272x
   2.443406 1  10210040x       Rx   d 8 00 00 00 00 00 00 00 00  Length = 4288223 BitCount = 147 ID = 270598208x
   2.448120 1  1022A040x       Rx   d 8 00 B0 00 12 42 00 00 22  Length = 4138208 BitCount = 142 ID = 270704704x
   2.451873 1  108E0080x       Rx   d 6 0E 01 17 02 0C D8  Length = 3628231 BitCount = 125 ID = 277741696x
   2.456286 1  10220040x       Rx   d 8 10 00 00 00 00 05 00 00  Length = 4288223 BitCount = 147 ID = 270663744x
   2.462737 1  1022C040x       Rx   d 6 00 10 00 20 00 00  Length = 3688216 BitCount = 127 ID = 270712896x
   2.468232 1  1022E040x       Rx   d 8 30 00 00 00 30 00 00 00  Length = 4288208 BitCount = 147 ID = 270721088x
   2.473336 1  10230040x       Rx   d 8 00 00 00 00 00 00 00 00  Length = 4288223 BitCount = 147 ID = 270729280x
   2.476545 1  10250040x       Rx   d 2 02 38  Length = 2544658 BitCount = 89 ID = 270860352x
   2.483090 1  102CC040x       Rx   d 8 00 09 CF 67 00 87 06 98  Length = 4078212 BitCount = 140 ID = 271368256x
   2.488103 1  102CE040x       Rx   d 8 90 00 69 7F 01 00 26 91  Length = 4078212 BitCount = 140 ID = 271376448x
   2.493263 1  10240040x       Rx   d 8 83 FF 88 01 00 F0 0F FC  Length = 4224562 BitCount = 145 ID = 270794816x
   2.498158 1  102D0040x       Rx   d 8 01 68 01 ED 7C 72 00 FF  Length = 4168208 BitCount = 143 ID = 271384640x
   2.503171 1  102E0040x       Rx   d 8 00 38 CA 71 8A 00 62 82  Length = 4108223 BitCount = 141 ID = 271450176x
   2.506262 1  106B0040x       Rx   d 1 00  Length = 2308248 BitCount = 81 ID = 275447872x
   2.513222 1  102CA040x       Rx   d 8 00 40 16 38 2C 00 F1 00  Length = 4134566 BitCount = 142 ID = 271360064x
   2.518327 1  106B8040x       Rx   d 8 00 00 00 00 00 00 00 00  Length = 4318223 BitCount = 148 ID = 275480640x
   2.522674 1  C800040x        Rx   d 6 08 CB 00 00 84 F0  Length = 3624586 BitCount = 125 ID = 209715264x
   2.527389 1  106C0040x       Rx   d 5 00 06 0F 07 00  Length = 3448235 BitCount = 119 ID = 275513408x
   2.533183 1  10264040x       Rx   d 8 04 06 00 00 00 00 00 36  Length = 4198208 BitCount = 144 ID = 270942272x
   2.537116 1  1077C040x       Rx   d 4 30 30 01 F4  Length = 3148224 BitCount = 109 ID = 276283456x
   2.539275 1  13FFE0BBx       Rx   d 0  Length = 2034718 BitCount = 72 ID = 335536315x
   2.543683 1  10210040x       Rx   d 8 00 00 00 00 00 00 00 00  Length = 4284562 BitCount = 147 ID = 270598208x
   2.548338 1  10780040x       Rx   d 8 00 00 01 04 08 00 00 22  Length = 4288223 BitCount = 147 ID = 276299840x
   2.553382 1  10220040x       Rx   d 8 10 00 00 00 00 03 00 00  Length = 4318208 BitCount = 148 ID = 270663744x
   2.557765 1  10788040x       Rx   d 6 08 00 00 00 00 00  Length = 3778231 BitCount = 130 ID = 276332608x
   2.563260 1  1022E040x       Rx   d 8 10 00 00 00 10 00 00 00  Length = 4258223 BitCount = 146 ID = 270721088x
   2.567433 1  10806040x       Rx   d 5 00 00 00 00 19  Length = 3418235 BitCount = 118 ID = 276848704x
   2.573346 1  10230040x       Rx   d 8 20 00 00 00 20 00 00 00  Length = 4258208 BitCount = 146 ID = 270729280x
   2.583279 1  1043A040x       Rx   d 8 00 00 26 00 00 00 00 00  Length = 4288208 BitCount = 147 ID = 272867392x
   2.593213 1  10240040x       Rx   d 8 83 FE 88 01 00 F0 0F FC  Length = 4198208 BitCount = 144 ID = 270794816x
   2.602250 1  102C0040x       Rx   d 5 AE EF 44 59 03  Length = 3298224 BitCount = 114 ID = 271319104x
   2.613174 1  102CA040x       Rx   d 8 00 40 15 61 2E 00 F1 00  Length = 4078212 BitCount = 140 ID = 271360064x
   2.621339 1  106B0040x       Rx   d 1 00  Length = 2308248 BitCount = 81 ID = 275447872x
   2.625148 1  10304058x       Rx   d 3 44 59 01  Length = 2724642 BitCount = 95 ID = 271597656x
   2.629076 1  10734099x       Rx   d 6 24 44 00 7D 00 00  Length = 3594590 BitCount = 124 ID = 275988633x
   2.633459 1  10264040x       Rx   d 8 04 06 00 00 00 00 00 38  Length = 4258208 BitCount = 146 ID = 270942272x
   2.636370 1  10308060x       Rx   d 3 44 59 01  Length = 2784638 BitCount = 97 ID = 271614048x
   2.639249 1  10306099x       Rx   d 3 44 59 01  Length = 2754642 BitCount = 96 ID = 271605913x
   2.643658 1  10210040x       Rx   d 8 00 00 00 00 00 00 00 00  Length = 4284562 BitCount = 147 ID = 270598208x
   2.653384 1  10220040x       Rx   d 8 10 00 00 00 00 06 00 00  Length = 4288208 BitCount = 147 ID = 270663744x
   2.663260 1  1022E040x       Rx   d 8 30 00 00 00 30 00 00 00  Length = 4288208 BitCount = 147 ID = 270721088x
   2.665515 1  13FFE068x       Rx   d 0  Length = 2068260 BitCount = 73 ID = 335536232x
   2.673373 1  10230040x       Rx   d 8 00 00 00 00 00 00 00 00  Length = 4284562 BitCount = 147 ID = 270729280x
   2.677578 1  106D0080x       Rx   d 2 00 00  Length = 2578255 BitCount = 90 ID = 275579008x
   2.693268 1  1022A040x       Rx   d 8 00 B0 00 12 42 00 00 22  Length = 4134566 BitCount = 142 ID = 270704704x
   2.697713 1  1022C040x       Rx   d 6 00 10 00 20 00 00  Length = 3688216 BitCount = 127 ID = 270712896x
   2.703298 1  10240040x       Rx   d 8 83 FF 88 01 00 F0 0F FC  Length = 4228208 BitCount = 145 ID = 270794816x
   2.708372 1  106B8040x       Rx   d 8 00 00 00 00 00 00 00 00  Length = 4318208 BitCount = 148 ID = 275480640x
   2.712875 1  10248040x       Rx   d 7 00 00 6C CF CC 2D 00  Length = 3838212 BitCount = 132 ID = 270827584x
   2.718184 1  102CA040x       Rx   d 8 00 40 14 9C 2E 00 F1 00  Length = 4104566 BitCount = 141 ID = 271360064x
   2.723139 1  102CC040x       Rx   d 8 00 09 CF 67 00 87 06 9C  Length = 4078212 BitCount = 140 ID = 271368256x
   2.726053 1  13FFE040x       Rx   d 0  Length = 2068275 BitCount = 73 ID = 335536192x
   2.733256 1  10264040x       Rx   d 8 04 06 00 00 00 00 00 3A  Length = 4198208 BitCount = 144 ID = 270942272x
   2.738151 1  102CE040x       Rx   d 8 90 00 68 7F 01 00 26 92  Length = 4078227 BitCount = 140 ID = 271376448x
   2.743494 1  10210040x       Rx   d 8 00 00 00 00 00 00 00 00  Length = 4288208 BitCount = 147 ID = 270598208x
   2.746319 1  106B0040x       Rx   d 1 00  Length = 2308248 BitCount = 81 ID = 275447872x
   2.753405 1  10220040x       Rx   d 8 10 00 00 00 00 05 00 00  Length = 4288208 BitCount = 147 ID = 270663744x
   2.763281 1  1022E040x       Rx   d 8 10 00 00 00 10 00 00 00  Length = 4258208 BitCount = 146 ID = 270721088x
   2.768381 1  10780040x       Rx   d 8 00 00 01 04 08 00 00 22  Length = 4284562 BitCount = 147 ID = 276299840x
   2.772762 1  C800040x        Rx   d 6 08 CB 00 00 84 F4  Length = 3624586 BitCount = 125 ID = 209715264x
   2.778377 1  10230040x       Rx   d 8 20 00 00 00 20 00 00 00  Length = 4258208 BitCount = 146 ID = 270729280x
   2.793353 1  10240040x       Rx   d 8 83 FE 88 01 00 F0 0F FC  Length = 4198208 BitCount = 144 ID = 270794816x
   2.813188 1  102CA040x       Rx   d 8 00 40 14 04 2E 00 F1 00  Length = 4074566 BitCount = 140 ID = 271360064x
   2.833356 1  10264040x       Rx   d 8 04 06 00 00 00 00 00 30  Length = 4288208 BitCount = 147 ID = 270942272x
   2.838460 1  1043A040x       Rx   d 8 00 00 28 00 00 00 00 00  Length = 4288208 BitCount = 147 ID = 272867392x
   2.843439 1  10210040x       Rx   d 8 00 00 00 00 00 00 00 00  Length = 4284573 BitCount = 147 ID = 270598208x
   2.853345 1  10220040x       Rx   d 8 10 00 00 00 00 06 00 00  Length = 4288208 BitCount = 147 ID = 270663744x
   2.863370 1  1022E040x       Rx   d 8 30 00 00 00 30 00 00 00  Length = 4288208 BitCount = 147 ID = 270721088x
   2.866343 1  106B0040x       Rx   d 1 00  Length = 2308248 BitCount = 81 ID = 275447872x
   2.869943 1  10448060x       Rx   d 4 00 00 45 00  Length = 3054618 BitCount = 106 ID = 272924768x
   2.874353 1  10230040x       Rx   d 8 00 00 00 00 00 00 00 00  Length = 4284562 BitCount = 147 ID = 270729280x
   2.893291 1  10240040x       Rx   d 8 83 FE 88 01 00 F0 0F FC  Length = 4198208 BitCount = 144 ID = 270794816x
   2.898392 1  106B8040x       Rx   d 8 00 00 00 00 00 00 00 00  Length = 4318208 BitCount = 148 ID = 275480640x
   2.902354 1  102C0040x       Rx   d 5 AE EF 44 59 03  Length = 3298224 BitCount = 114 ID = 271319104x
   2.913278 1  102CA040x       Rx   d 8 00 40 13 70 2E 00 F1 00  Length = 4138208 BitCount = 142 ID = 271360064x
   2.925100 1  10304058x       Rx   d 3 44 59 01  Length = 2728251 BitCount = 95 ID = 271597656x
   2.933291 1  10264040x       Rx   d 8 04 06 00 00 00 00 00 3E  Length = 4228208 BitCount = 145 ID = 270942272x
   2.938215 1  10306099x       Rx   d 3 44 59 01  Length = 2758251 BitCount = 96 ID = 271605913x
   2.943378 1  10210040x       Rx   d 8 00 00 00 00 00 00 00 00  Length = 4288223 BitCount = 147 ID = 270598208x
   2.948271 1  1022A040x       Rx   d 8 00 B0 00 12 42 00 00 22  Length = 4138223 BitCount = 142 ID = 270704704x
   2.951183 1  10308060x       Rx   d 3 44 59 01  Length = 2788236 BitCount = 97 ID = 271614048x
   2.955627 1  10220040x       Rx   d 8 10 00 00 00 00 08 00 00  Length = 4318223 BitCount = 148 ID = 270663744x
   2.962772 1  1022C040x       Rx   d 6 00 10 00 20 00 00  Length = 3688231 BitCount = 127 ID = 270712896x
   2.968328 1  1022E040x       Rx   d 8 10 00 00 00 10 00 00 00  Length = 4258208 BitCount = 146 ID = 270721088x
   2.973311 1  10230040x       Rx   d 8 20 00 00 00 20 00 00 00  Length = 4258208 BitCount = 146 ID = 270729280x
   2.978294 1  102CC040x       Rx   d 8 00 09 CF 67 00 87 06 9E  Length = 4078212 BitCount = 140 ID = 271368256x
   2.983275 1  102CE040x       Rx   d 8 90 00 68 7F 01 00 26 93  Length = 4138208 BitCount = 142 ID = 271376448x
   2.988289 1  102D0040x       Rx   d 8 01 68 01 ED 7C 73 00 FF  Length = 4168208 BitCount = 143 ID = 271384640x
   2.993330 1  10240040x       Rx   d 8 83 FE 88 01 00 F0 0F FC  Length = 4198223 BitCount = 144 ID = 270794816x
   2.996873 1  10424040x       Rx   d 3 04 8A 8F  Length = 2788236 BitCount = 97 ID = 272777280x
   3.001378 1  106B0040x       Rx   d 1 00  Length = 2308248 BitCount = 81 ID = 275447872x
   3.003350 1  Statistic: D 4 R 0 XD 154 XR 0 E 0 O 0 B 61.30%
   3.003350 2  Statistic: D 0 R 0 XD 0 XR 0 E 0 O 0 B 0.00%
   3.003350 3  Statistic: D 0 R 0 XD 0 XR 0 E 0 O 0 B 0.00%
   3.007530 1  10806040x       Rx   d 5 00 00 00 00 19  Length = 3414598 BitCount = 118 ID = 276848704x
   3.013205 1  102CA040x       Rx   d 8 00 40 12 CF 2E 00 F1 00  Length = 4048212 BitCount = 139 ID = 271360064x
   3.018267 CAN 1 Status:chip status error active  - TxErr: 0 RxErr: 1
   3.018274 1  ErrorFrame	Flags = 0xfffe	CodeExt = 0x2072	Code = 0x81	ID = 0x90780040	DLC = 8	Position = 120	Length = 4104390	Data = 0  0  0x1  0x4  0x8  0  0  0x22
   3.022856 CAN 1 Status:chip status error active
   3.023073 1  10780040x       Rx   d 8 00 00 01 04 08 00 00 22  Length = 4284562 BitCount = 147 ID = 276299840x
   3.027728 1  C800040x        Rx   d 6 08 CB 00 00 84 F6  Length = 3598216 BitCount = 124 ID = 209715264x
   3.033342 1  10264040x       Rx   d 8 04 06 00 00 00 00 00 33  Length = 4228208 BitCount = 145 ID = 270942272x
   3.037871 1  10788040x       Rx   d 6 08 00 00 00 00 00  Length = 3774582 BitCount = 130 ID = 276332608x
   3.043516 1  10210040x       Rx   d 8 00 00 00 00 00 00 00 00  Length = 4288208 BitCount = 147 ID = 270598208x
   3.053391 1  10220040x       Rx   d 8 10 00 00 00 00 05 00 00  Length = 4288208 BitCount = 147 ID = 270663744x
   3.063385 1  1022E040x       Rx   d 8 30 00 00 00 30 00 00 00  Length = 4288208 BitCount = 147 ID = 270721088x
   3.073439 1  10230040x       Rx   d 8 00 00 00 00 00 00 00 00  Length = 4288223 BitCount = 147 ID = 270729280x
   3.083434 1  1043A040x       Rx   d 8 00 00 2A 00 00 00 00 00  Length = 4288223 BitCount = 147 ID = 272867392x
   3.093428 1  10240040x       Rx   d 8 83 FF 88 01 00 F0 0F FC  Length = 4228208 BitCount = 145 ID = 270794816x
   3.098442 1  106B8040x       Rx   d 8 00 00 00 00 00 00 00 00  Length = 4318208 BitCount = 148 ID = 275480640x
   3.113297 1  102CA040x       Rx   d 8 00 40 12 53 2E 00 F1 00  Length = 4108212 BitCount = 141 ID = 271360064x
   3.116423 1  106B0040x       Rx   d 1 00  Length = 2308263 BitCount = 81 ID = 275447872x
   3.129080 1  10734099x       Rx   d 6 24 44 00 7D 00 00  Length = 3594590 BitCount = 124 ID = 275988633x
   3.133401 1  10264040x       Rx   d 8 04 06 00 00 00 00 00 35  Length = 4194562 BitCount = 144 ID = 270942272x
   3.135626 1  13FFE058x       Rx   d 0  Length = 2098256 BitCount = 74 ID = 335536216x
   3.143485 1  10210040x       Rx   d 8 00 00 00 00 00 00 00 00  Length = 4284562 BitCount = 147 ID = 270598208x
   3.153451 1  10220040x       Rx   d 8 10 00 00 00 00 04 00 00  Length = 4318208 BitCount = 148 ID = 270663744x
   3.163386 1  1022E040x       Rx   d 8 10 00 00 00 10 00 00 00  Length = 4258223 BitCount = 146 ID = 270721088x
   3.173440 1  10230040x       Rx   d 8 20 00 00 00 20 00 00 00  Length = 4258208 BitCount = 146 ID = 270729280x
   3.193333 1  1022A040x       Rx   d 8 00 B0 00 12 42 00 00 22  Length = 4134566 BitCount = 142 ID = 270704704x
   3.197838 1  1022C040x       Rx   d 6 00 10 00 20 00 00  Length = 3688216 BitCount = 127 ID = 270712896x
   3.203393 1  10240040x       Rx   d 8 83 FF 88 01 00 F0 0F FC  Length = 4228208 BitCount = 145 ID = 270794816x
   3.207417 1  102C0040x       Rx   d 5 AE EF 44 59 03  Length = 3298239 BitCount = 114 ID = 271319104x
   3.213030 1  10248040x       Rx   d 7 00 00 6C CF CC 2C 00  Length = 3868212 BitCount = 133 ID = 270827584x
   3.218250 1  102CA040x       Rx   d 8 00 40 11 DD 2D 00 F1 00  Length = 4044570 BitCount = 139 ID = 271360064x
   3.223441 1  102CC040x       Rx   d 8 00 09 CF 67 00 87 06 A0  Length = 4074566 BitCount = 140 ID = 271368256x
   3.226952 1  10424040x       Rx   d 3 04 8A 90  Length = 2814638 BitCount = 98 ID = 272777280x
   3.229866 1  10308060x       Rx   d 3 44 59 01  Length = 2788236 BitCount = 97 ID = 271614048x
   3.234249 1  10264040x       Rx   d 8 04 06 00 00 00 00 00 38  Length = 4258208 BitCount = 146 ID = 270942272x
   3.237097 1  10304058x       Rx   d 3 44 59 01  Length = 2724657 BitCount = 95 ID = 271597656x
   3.239975 1  10306099x       Rx   d 3 44 59 01  Length = 2754642 BitCount = 96 ID = 271605913x
   3.244390 1  10210040x       Rx   d 8 00 00 00 00 00 00 00 00  Length = 4288208 BitCount = 147 ID = 270598208x
   3.253486 1  10220040x       Rx   d 8 10 00 00 00 00 06 00 00  Length = 4288223 BitCount = 147 ID = 270663744x
   3.258319 1  102CE040x       Rx   d 8 90 00 68 7F 00 00 26 98  Length = 4108223 BitCount = 141 ID = 271376448x
   3.260512 1  13FFE0AFx       Rx   d 0  Length = 2068260 BitCount = 73 ID = 335536303x
   3.264921 1  1022E040x       Rx   d 8 30 00 00 00 30 00 00 00  Length = 4284562 BitCount = 147 ID = 270721088x
   3.272937 1  C800040x        Rx   d 6 08 CB 00 00 84 FA  Length = 3628216 BitCount = 125 ID = 209715264x
   3.278462 1  10230040x       Rx   d 8 00 00 00 00 00 00 00 00  Length = 4288223 BitCount = 147 ID = 270729280x
   3.281465 1  106B0040x       Rx   d 1 00  Length = 2308263 BitCount = 81 ID = 275447872x
   3.288515 1  10780040x       Rx   d 8 00 00 01 04 08 00 00 22  Length = 4284562 BitCount = 147 ID = 276299840x
   3.293440 1  10240040x       Rx   d 8 80 00 88 01 00 F0 0F FC  Length = 4228208 BitCount = 145 ID = 270794816x
   3.298509 1  106B8040x       Rx   d 8 00 00 00 00 00 00 00 00  Length = 4314558 BitCount = 148 ID = 275480640x
   3.313303 1  102CA040x       Rx   d 8 00 40 11 7D 2D 00 F1 00  Length = 4074566 BitCount = 140 ID = 271360064x
   3.322755 1  621             Rx   d 8 00 52 00 00 00 00 00 00  Length = 3594590 BitCount = 124 ID = 1569
   3.333412 1  10264040x       Rx   d 8 04 06 00 00 00 00 00 39  Length = 4228223 BitCount = 145 ID = 270942272x
   3.338485 1  1043A040x       Rx   d 8 00 00 2B 00 00 00 00 00  Length = 4288223 BitCount = 147 ID = 272867392x
   3.343584 1  10210040x       Rx   d 8 00 00 00 00 00 00 00 00  Length = 4284562 BitCount = 147 ID = 270598208x
   3.348209 1  1080A040x       Rx   d 7 00 00 00 00 00 00 00  Length = 4018212 BitCount = 138 ID = 276865088x
   3.353549 1  10220040x       Rx   d 8 10 00 00 00 00 04 00 00  Length = 4314573 BitCount = 148 ID = 270663744x
   3.363515 1  1022E040x       Rx   d 8 10 00 00 00 10 00 00 00  Length = 4258208 BitCount = 146 ID = 270721088x
   3.373419 1  10230040x       Rx   d 8 20 00 00 00 20 00 00 00  Length = 4258208 BitCount = 146 ID = 270729280x
   3.393433 1  10240040x       Rx   d 8 83 FF 88 01 00 F0 0F FC  Length = 4224562 BitCount = 145 ID = 270794816x
   3.396468 1  106B0040x       Rx   d 1 00  Length = 2308263 BitCount = 81 ID = 275447872x
   3.413363 1  102CA040x       Rx   d 8 00 40 11 35 2F 04 F1 00  Length = 4108212 BitCount = 141 ID = 271360064x
   3.433406 1  10264040x       Rx   d 8 04 06 00 00 00 00 00 2B  Length = 4194562 BitCount = 144 ID = 270942272x
   3.443553 1  10210040x       Rx   d 8 00 00 00 00 00 00 00 00  Length = 4288208 BitCount = 147 ID = 270598208x
   3.448384 1  1022A040x       Rx   d 8 00 B0 00 12 42 00 00 22  Length = 4138208 BitCount = 142 ID = 270704704x
   3.452108 1  108E0080x       Rx   d 6 0E 01 17 02 0C D9  Length = 3598216 BitCount = 124 ID = 277741696x
   3.456518 1  10220040x       Rx   d 8 10 00 00 00 00 05 00 00  Length = 4284562 BitCount = 147 ID = 270663744x
   3.462973 1  1022C040x       Rx   d 6 00 10 00 20 00 00  Length = 3688216 BitCount = 127 ID = 270712896x
   3.468467 1  1022E040x       Rx   d 8 30 00 00 00 30 00 00 00  Length = 4288208 BitCount = 147 ID = 270721088x
   3.473570 1  10230040x       Rx   d 8 00 00 00 00 00 00 00 00  Length = 4288208 BitCount = 147 ID = 270729280x
   3.476810 1  10250040x       Rx   d 2 02 38  Length = 2544658 BitCount = 89 ID = 270860352x
   3.483294 1  102CC040x       Rx   d 8 00 01 CF 67 00 87 06 B0  Length = 4048212 BitCount = 139 ID = 271368256x
   3.488338 1  102CE040x       Rx   d 8 90 00 67 7F 00 00 26 B9  Length = 4078227 BitCount = 140 ID = 271376448x
   3.490561 1  13FFE060x       Rx   d 0  Length = 2098256 BitCount = 74 ID = 335536224x
   3.494909 1  10240040x       Rx   d 8 83 FF 88 01 00 F0 0F FC  Length = 4224577 BitCount = 145 ID = 270794816x
   3.497164 1  13FFE080x       Rx   d 0  Length = 2068260 BitCount = 73 ID = 335536256x
   3.502507 1  102C0040x       Rx   d 5 AE EF 44 59 03  Length = 3298224 BitCount = 114 ID = 271319104x
   3.508449 1  102D0040x       Rx   d 8 01 68 01 ED 7C 77 00 FF  Length = 4194577 BitCount = 144 ID = 271384640x
   3.513374 1  102CA040x       Rx   d 8 00 40 11 32 39 0C F1 00  Length = 4048212 BitCount = 139 ID = 271360064x
   3.518447 1  102E0040x       Rx   d 8 00 43 CA 71 8A 00 63 81  Length = 4108212 BitCount = 141 ID = 271450176x
   3.520639 1  13FFE099x       Rx   d 0  Length = 2068260 BitCount = 73 ID = 335536281x
   3.524421 1  C800040x        Rx   d 6 08 CB 00 00 84 FC  Length = 3658231 BitCount = 126 ID = 209715264x
   3.527271 1  10304058x       Rx   d 3 44 59 01  Length = 2724642 BitCount = 95 ID = 271597656x
   3.533451 1  10264040x       Rx   d 8 04 06 00 00 00 00 00 3B  Length = 4224562 BitCount = 145 ID = 270942272x
   3.537652 1  10466040x       Rx   d 5 00 00 00 00 00  Length = 3444598 BitCount = 119 ID = 273047616x
   3.540537 1  10306099x       Rx   d 3 44 59 01  Length = 2758236 BitCount = 96 ID = 271605913x
   3.544950 1  10210040x       Rx   d 8 00 00 00 00 00 00 00 00  Length = 4288208 BitCount = 147 ID = 270598208x
   3.549691 1  10308060x       Rx   d 3 44 59 01  Length = 2788236 BitCount = 97 ID = 271614048x
   3.554104 1  10220040x       Rx   d 8 10 00 00 00 00 06 00 00  Length = 4288223 BitCount = 147 ID = 270663744x
   3.556535 1  106B0040x       Rx   d 1 00  Length = 2308248 BitCount = 81 ID = 275447872x
   3.563498 1  1022E040x       Rx   d 8 10 00 00 00 10 00 00 00  Length = 4258208 BitCount = 146 ID = 270721088x
   3.568573 1  106B8040x       Rx   d 8 00 00 00 00 00 00 00 00  Length = 4318208 BitCount = 148 ID = 275480640x
   3.573585 1  10230040x       Rx   d 8 20 00 00 00 20 00 00 00  Length = 4258208 BitCount = 146 ID = 270729280x
   3.577668 1  106C0040x       Rx   d 5 00 06 0F 07 00  Length = 3448220 BitCount = 119 ID = 275513408x
   3.583607 1  1043A040x       Rx   d 8 00 00 30 00 00 00 00 00  Length = 4344573 BitCount = 149 ID = 272867392x
   3.587362 1  1077C040x       Rx   d 4 30 30 01 F4  Length = 3148224 BitCount = 109 ID = 276283456x
   3.593515 1  10240040x       Rx   d 8 83 FF 88 01 00 F0 0F FC  Length = 4228208 BitCount = 145 ID = 270794816x
   3.598587 1  10780040x       Rx   d 8 00 00 01 04 08 00 00 22  Length = 4288208 BitCount = 147 ID = 276299840x
   3.603024 1  10788040x       Rx   d 6 08 00 00 00 00 00  Length = 3774593 BitCount = 130 ID = 276332608x
   3.607679 1  10806040x       Rx   d 5 00 00 00 00 19  Length = 3418220 BitCount = 118 ID = 276848704x
   3.613474 1  102CA040x       Rx   d 8 00 40 11 A7 45 11 F1 00  Length = 4108212 BitCount = 141 ID = 271360064x
   3.629071 1  10734099x       Rx   d 6 24 44 00 7D 00 00  Length = 3594590 BitCount = 124 ID = 275988633x
   3.633324 CAN 1 Status:chip status error active  - TxErr: 0 RxErr: 1
   3.633331 1  ErrorFrame	Flags = 0xfffe	CodeExt = 0x2072	Code = 0x81	ID = 0x90264040	DLC = 8	Position = 120	Length = 4044375	Data = 0x4  0x6  0  0  0  0  0  0x43
   3.637853 CAN 1 Status:chip status error active
   3.638071 1  10264040x       Rx   d 8 04 06 00 00 00 00 00 43  Length = 4224577 BitCount = 145 ID = 270942272x
   3.643596 1  10210040x       Rx   d 8 00 00 00 00 00 00 00 00  Length = 4288208 BitCount = 147 ID = 270598208x
   3.648274 1  106D4099x       Rx   d 3 00 00 81  Length = 2814649 BitCount = 98 ID = 275595417x
   3.653555 1  10220040x       Rx   d 8 10 00 00 00 00 07 00 00  Length = 4314558 BitCount = 148 ID = 270663744x
   3.663581 1  1022E040x       Rx   d 8 30 00 00 00 30 00 00 00  Length = 4288208 BitCount = 147 ID = 270721088x
   3.673575 1  10230040x       Rx   d 8 00 00 00 00 00 00 00 00  Length = 4288208 BitCount = 147 ID = 270729280x
   3.676548 1  106B0040x       Rx   d 1 00  Length = 2308248 BitCount = 81 ID = 275447872x
   3.693444 1  1022A040x       Rx   d 8 00 B0 00 12 42 00 00 22  Length = 4138208 BitCount = 142 ID = 270704704x
   3.697947 1  1022C040x       Rx   d 6 00 10 00 20 00 00  Length = 3688216 BitCount = 127 ID = 270712896x
   3.703533 1  10240040x       Rx   d 8 83 FF 88 01 00 F0 0F FC  Length = 4228208 BitCount = 145 ID = 270794816x
   3.708606 1  106B8040x       Rx   d 8 00 00 00 00 00 00 00 00  Length = 4318208 BitCount = 148 ID = 275480640x
   3.713139 1  10248040x       Rx   d 7 00 00 6C CF CC 2B 00  Length = 3868227 BitCount = 133 ID = 270827584x
   3.718392 1  102CA040x       Rx   d 8 00 40 12 D6 4A 16 F1 00  Length = 4048227 BitCount = 139 ID = 271360064x
   3.723404 1  102CC040x       Rx   d 8 00 01 CF 67 00 87 06 D2  Length = 4048212 BitCount = 139 ID = 271368256x
   3.733488 1  10264040x       Rx   d 8 04 06 00 00 00 00 00 4F  Length = 4228208 BitCount = 145 ID = 270942272x
   3.738411 1  102CE040x       Rx   d 8 90 00 67 7F 00 00 26 EA  Length = 4078212 BitCount = 140 ID = 271376448x
   3.740568 1  13FFE0BBx       Rx   d 0  Length = 2034733 BitCount = 72 ID = 335536315x
   3.744977 1  10210040x       Rx   d 8 00 00 00 00 00 00 00 00  Length = 4284562 BitCount = 147 ID = 270598208x
   3.753589 1  10220040x       Rx   d 8 10 00 00 00 00 05 00 00  Length = 4284562 BitCount = 147 ID = 270663744x
   3.763525 1  1022E040x       Rx   d 8 10 00 00 00 10 00 00 00  Length = 4258208 BitCount = 146 ID = 270721088x
   3.768629 1  10780040x       Rx   d 8 00 00 01 04 08 00 00 22  Length = 4288208 BitCount = 147 ID = 276299840x
   3.773006 1  C800040x        Rx   d 6 08 CB 00 00 85 01  Length = 3624586 BitCount = 125 ID = 209715264x
   3.778621 1  10230040x       Rx   d 8 20 00 00 00 20 00 00 00  Length = 4258208 BitCount = 146 ID = 270729280x
   3.793627 1  10240040x       Rx   d 8 83 FF 88 01 00 F0 0F FC  Length = 4228208 BitCount = 145 ID = 270794816x
   3.796572 1  106B0040x       Rx   d 1 00  Length = 2308248 BitCount = 81 ID = 275447872x
   3.802575 1  102C0040x       Rx   d 5 AE EF 44 59 03  Length = 3298224 BitCount = 114 ID = 271319104x
   3.813408 1  102CA040x       Rx   d 8 00 40 14 87 50 1E F1 00  Length = 4048227 BitCount = 139 ID = 271360064x
   3.824834 1  10304058x       Rx   d 3 44 59 01  Length = 2724642 BitCount = 95 ID = 271597656x
   3.829638 1  10308060x       Rx   d 3 44 59 01  Length = 2788247 BitCount = 97 ID = 271614048x
   3.833961 1  10264040x       Rx   d 8 04 06 00 00 00 00 00 45  Length = 4198208 BitCount = 144 ID = 270942272x
   3.838642 1  1043A040x       Rx   d 8 00 00 43 00 00 00 00 00  Length = 4318208 BitCount = 148 ID = 272867392x
   3.841522 1  10306099x       Rx   d 3 44 59 01  Length = 2754642 BitCount = 96 ID = 271605913x
   3.845932 1  10210040x       Rx   d 8 00 00 00 00 00 00 00 00  Length = 4284562 BitCount = 147 ID = 270598208x
   3.853734 1  10220040x       Rx   d 8 10 00 00 00 00 03 00 00  Length = 4314558 BitCount = 148 ID = 270663744x
   3.857549 1  10708040x       Rx   d 5 02 24 02 24 38  Length = 3268224 BitCount = 113 ID = 275808320x
   3.863578 1  1022E040x       Rx   d 8 30 00 00 00 30 00 00 00  Length = 4284573 BitCount = 147 ID = 270721088x
   3.865773 1  13FFE068x       Rx   d 0  Length = 2068260 BitCount = 73 ID = 335536232x
   3.869943 1  10448060x       Rx   d 4 00 00 45 00  Length = 3054633 BitCount = 106 ID = 272924768x
   3.874359 1  10230040x       Rx   d 8 00 00 00 00 00 00 00 00  Length = 4288208 BitCount = 147 ID = 270729280x
   3.877573 1  106D0080x       Rx   d 2 00 00  Length = 2578240 BitCount = 90 ID = 275579008x
   3.893629 1  10240040x       Rx   d 8 83 FE 88 01 00 F0 0F FC  Length = 4198208 BitCount = 144 ID = 270794816x
   3.898641 1  106B8040x       Rx   d 8 00 00 00 00 00 00 00 00  Length = 4318208 BitCount = 148 ID = 275480640x
   3.901340 1  13FFE040x       Rx   d 0  Length = 2064714 BitCount = 73 ID = 335536192x
   3.913402 1  102CA040x       Rx   d 8 00 40 16 AA 54 22 F1 00  Length = 4014570 BitCount = 138 ID = 271360064x
   3.916674 1  106B0040x       Rx   d 1 00  Length = 2304697 BitCount = 81 ID = 275447872x
   3.933571 1  10264040x       Rx   d 8 04 06 00 00 00 00 00 81  Length = 4228208 BitCount = 145 ID = 270942272x
   3.937380 1  10324058x       Rx   d 6 00 00 03 FF 00 00  Length = 3684597 BitCount = 127 ID = 271728728x
   3.943620 1  10210040x       Rx   d 8 00 00 00 00 00 00 00 00  Length = 4284562 BitCount = 147 ID = 270598208x
   3.948515 1  1022A040x       Rx   d 8 00 B0 00 12 42 00 00 22  Length = 4138223 BitCount = 142 ID = 270704704x
   3.953646 1  10220040x       Rx   d 8 10 00 00 00 00 06 00 00  Length = 4288208 BitCount = 147 ID = 270663744x
   3.958029 1  1022C040x       Rx   d 6 00 10 00 20 00 00  Length = 3688216 BitCount = 127 ID = 270712896x
   3.963585 1  1022E040x       Rx   d 8 10 00 00 00 10 00 00 00  Length = 4258208 BitCount = 146 ID = 270721088x
   3.973549 1  10230040x       Rx   d 8 20 00 00 00 20 00 00 00  Length = 4258208 BitCount = 146 ID = 270729280x
   3.978502 1  102CC040x       Rx   d 8 00 01 CF 67 00 87 06 F9  Length = 4108212 BitCount = 141 ID = 271368256x
   3.983546 1  102CE040x       Rx   d 8 90 00 67 7F 00 00 26 F8  Length = 4138223 BitCount = 142 ID = 271376448x
   3.988587 1  102D0040x       Rx   d 8 01 68 01 ED 7C 79 00 FF  Length = 4138208 BitCount = 142 ID = 271384640x
   3.993600 1  10240040x       Rx   d 8 83 FF 88 01 00 F0 0F FC  Length = 4228223 BitCount = 145 ID = 270794816x
   4.002749 Li SleepModeEvent 0 entering sleep mode due to bus idle timeout
   4.002752 1  10806040x       Rx   d 5 00 00 00 00 19  Length = 3418220 BitCount = 118 ID = 276848704x
   4.003351 1  Statistic: D 1 R 0 XD 154 XR 0 E 2 O 0 B 61.32%
   4.003351 2  Statistic: D 0 R 0 XD 0 XR 0 E 0 O 0 B 0.00%
   4.003351 3  Statistic: D 0 R 0 XD 0 XR 0 E 0 O 0 B 0.00%
   4.013246 CAN 1 Status:chip status error active  - TxErr: 0 RxErr: 1
   4.013253 1  ErrorFrame	Flags = 0xfffe	CodeExt = 0x2072	Code = 0x81	ID = 0x902ca040	DLC = 8	Position = 120	Length = 3864375	Data = 0  0x40  0x19  0x85  0x56  0x2a  0xf1  0
   4.017598 CAN 1 Status:chip status error active
   4.017816 1  102CA040x       Rx   d 8 00 40 19 85 56 2A F1 00  Length = 4048212 BitCount = 139 ID = 271360064x
   4.023004 1  C800040x        Rx   d 6 08 CB 00 00 85 05  Length = 3624586 BitCount = 125 ID = 209715264x
   4.028769 1  10780040x       Rx   d 8 00 00 01 04 08 00 00 22  Length = 4288208 BitCount = 147 ID = 276299840x
   4.033572 1  10264040x       Rx   d 8 04 06 00 00 00 00 00 6F  Length = 4198208 BitCount = 144 ID = 270942272x
   4.036665 1  106B0040x       Rx   d 1 00  Length = 2308248 BitCount = 81 ID = 275447872x
   4.043684 1  10210040x       Rx   d 8 00 00 00 00 00 00 00 00  Length = 4284562 BitCount = 147 ID = 270598208x
   4.048129 1  10788040x       Rx   d 6 08 00 00 00 00 00  Length = 3778216 BitCount = 130 ID = 276332608x
   4.053685 1  10220040x       Rx   d 8 10 00 00 00 00 04 00 00  Length = 4318223 BitCount = 148 ID = 270663744x
   4.063619 1  1022E040x       Rx   d 8 30 00 00 00 30 00 00 00  Length = 4288223 BitCount = 147 ID = 270721088x
   4.073614 1  10230040x       Rx   d 8 00 00 00 00 00 00 00 00  Length = 4288208 BitCount = 147 ID = 270729280x
   4.083758 1  1043A040x       Rx   d 8 00 00 50 00 00 00 00 00  Length = 4378208 BitCount = 150 ID = 272867392x
   4.093603 1  10240040x       Rx   d 8 83 FF 88 01 00 F0 0F FC  Length = 4228208 BitCount = 145 ID = 270794816x
   4.098764 1  106B8040x       Rx   d 8 00 00 00 00 00 00 00 00  Length = 4314558 BitCount = 148 ID = 275480640x
   4.102639 1  102C0040x       Rx   d 5 AE EF 44 59 03  Length = 3298224 BitCount = 114 ID = 271319104x
   4.113473 1  102CA040x       Rx   d 8 00 40 1C 12 54 2C F1 00  Length = 4048212 BitCount = 139 ID = 271360064x
   4.124781 1  10304058x       Rx   d 3 44 59 01  Length = 2724642 BitCount = 95 ID = 271597656x
   4.129073 1  10734099x       Rx   d 6 24 44 00 7D 00 00  Length = 3598216 BitCount = 124 ID = 275988633x
   4.133601 1  10264040x       Rx   d 8 04 06 00 00 00 00 00 9A  Length = 4224562 BitCount = 145 ID = 270942272x
   4.138190 1  10306099x       Rx   d 3 44 59 01  Length = 2754657 BitCount = 96 ID = 271605913x
   4.143685 1  10210040x       Rx   d 8 00 00 00 00 00 00 00 00  Length = 4288208 BitCount = 147 ID = 270598208x
   4.149716 1  10308060x       Rx   d 3 44 59 01  Length = 2784638 BitCount = 97 ID = 271614048x
   4.154129 1  10220040x       Rx   d 8 10 00 00 00 00 06 00 00  Length = 4288223 BitCount = 147 ID = 270663744x
   4.156647 1  106B0040x       Rx   d 1 00  Length = 2304686 BitCount = 81 ID = 275447872x
   4.163612 1  1022E040x       Rx   d 8 10 00 00 00 10 00 00 00  Length = 4258208 BitCount = 146 ID = 270721088x
   4.173604 1  10230040x       Rx   d 8 20 00 00 00 20 00 00 00  Length = 4258208 BitCount = 146 ID = 270729280x
   4.193557 1  1022A040x       Rx   d 8 00 B0 00 12 42 00 00 22  Length = 4134566 BitCount = 142 ID = 270704704x
   4.198062 1  1022C040x       Rx   d 6 00 10 00 20 00 00  Length = 3688216 BitCount = 127 ID = 270712896x
   4.203618 1  10240040x       Rx   d 8 83 FE 88 01 00 F0 0F FC  Length = 4198208 BitCount = 144 ID = 270794816x
   4.213248 1  10248040x       Rx   d 7 00 00 6C CF CC 2C 00  Length = 3864578 BitCount = 133 ID = 270827584x
   4.218560 1  102CA040x       Rx   d 8 00 40 1E 22 51 2C F1 00  Length = 4044570 BitCount = 139 ID = 271360064x
   4.223512 1  102CC040x       Rx   d 8 00 01 CF 67 00 87 06 D3  Length = 4078212 BitCount = 140 ID = 271368256x
   4.227176 1  10424040x       Rx   d 3 04 8A 8F  Length = 2788247 BitCount = 97 ID = 272777280x
   4.233631 1  10264040x       Rx   d 8 04 06 00 00 00 00 00 B4  Length = 4228208 BitCount = 145 ID = 270942272x
   4.238554 1  102CE040x       Rx   d 8 90 00 67 7F 01 00 26 D5  Length = 4108223 BitCount = 141 ID = 271376448x
   4.243717 1  10210040x       Rx   d 8 00 00 00 00 00 00 00 00  Length = 4288223 BitCount = 147 ID = 270598208x
   4.253710 1  10220040x       Rx   d 8 10 00 00 00 00 08 00 00  Length = 4318208 BitCount = 148 ID = 270663744x
   4.263644 1  1022E040x       Rx   d 8 30 00 00 00 30 00 00 00  Length = 4288208 BitCount = 147 ID = 270721088x
   4.268778 1  10780040x       Rx   d 8 00 00 01 04 08 00 00 22  Length = 4288208 BitCount = 147 ID = 276299840x
   4.273039 1  C800040x        Rx   d 6 08 CB 00 00 85 10  Length = 3598231 BitCount = 124 ID = 209715264x
   4.278682 1  10230040x       Rx   d 8 00 00 00 00 00 00 00 00  Length = 4288208 BitCount = 147 ID = 270729280x
   4.281685 1  106B0040x       Rx   d 1 00  Length = 2308248 BitCount = 81 ID = 275447872x
   4.293630 1  10240040x       Rx   d 8 83 FE 88 01 00 F0 0F FC  Length = 4198208 BitCount = 144 ID = 270794816x
   4.298761 1  106B8040x       Rx   d 8 00 00 00 00 00 00 00 00  Length = 4318208 BitCount = 148 ID = 275480640x
   4.313557 1  102CA040x       Rx   d 8 00 40 1F 63 50 2E F1 00  Length = 4078212 BitCount = 140 ID = 271360064x
   4.322979 1  621             Rx   d 8 00 52 00 00 00 00 00 00  Length = 3594590 BitCount = 124 ID = 1569
   4.333636 1  10264040x       Rx   d 8 04 06 00 00 00 00 00 A2  Length = 4198208 BitCount = 144 ID = 270942272x
   4.335860 1  13FFE058x       Rx   d 0  Length = 2098256 BitCount = 74 ID = 335536216x
   4.340303 1  1043A040x       Rx   d 8 00 00 43 00 00 00 00 00  Length = 4318208 BitCount = 148 ID = 272867392x
   4.348739 1  10210040x       Rx   d 8 00 00 00 00 00 00 00 00  Length = 4288208 BitCount = 147 ID = 270598208x
   4.353720 1  10220040x       Rx   d 8 10 00 00 00 00 05 00 00  Length = 4288208 BitCount = 147 ID = 270663744x
   4.358464 1  1080A040x       Rx   d 7 00 00 00 00 00 00 00  Length = 4018227 BitCount = 138 ID = 276865088x
   4.363683 1  1022E040x       Rx   d 8 10 00 00 00 10 00 00 00  Length = 4254562 BitCount = 146 ID = 270721088x
   4.373649 1  10230040x       Rx   d 8 20 00 00 00 20 00 00 00  Length = 4258208 BitCount = 146 ID = 270729280x
   4.393663 1  10240040x       Rx   d 8 83 FF 88 01 00 F0 0F FC  Length = 4224562 BitCount = 145 ID = 270794816x
   4.396728 1  106B0040x       Rx   d 1 00  Length = 2308248 BitCount = 81 ID = 275447872x
   4.402697 1  102C0040x       Rx   d 5 AE EF 44 59 03  Length = 3294617 BitCount = 114 ID = 271319104x
   4.407682 1  10708040x       Rx   d 5 02 24 02 24 39  Length = 3268224 BitCount = 113 ID = 275808320x
   4.413593 1  102CA040x       Rx   d 8 00 40 20 57 4E 32 F1 00  Length = 4078212 BitCount = 140 ID = 271360064x
   4.424809 1  10304058x       Rx   d 3 44 59 01  Length = 2724642 BitCount = 95 ID = 271597656x
   4.429643 1  10308060x       Rx   d 3 44 59 01  Length = 2788236 BitCount = 97 ID = 271614048x
   4.434023 1  10264040x       Rx   d 8 04 06 00 00 00 00 00 A8  Length = 4254562 BitCount = 146 ID = 270942272x
   4.438196 1  10306099x       Rx   d 3 44 59 01  Length = 2758236 BitCount = 96 ID = 271605913x
   4.443745 1  10210040x       Rx   d 8 00 00 00 00 00 00 00 00  Length = 4284562 BitCount = 147 ID = 270598208x
   4.448638 1  1022A040x       Rx   d 8 00 B0 00 12 42 00 00 22  Length = 4138208 BitCount = 142 ID = 270704704x
   4.452358 1  108E0080x       Rx   d 6 0E 01 17 02 0C DA  Length = 3594590 BitCount = 124 ID = 277741696x
   4.456770 1  10220040x       Rx   d 8 10 00 00 00 00 05 00 00  Length = 4288223 BitCount = 147 ID = 270663744x
   4.458962 1  13FFE0AFx       Rx   d 0  Length = 2068275 BitCount = 73 ID = 335536303x
   4.463134 1  1022C040x       Rx   d 6 00 10 00 20 00 00  Length = 3688216 BitCount = 127 ID = 270712896x
   4.468837 1  1022E040x       Rx   d 8 30 00 00 00 30 00 00 00  Length = 4288208 BitCount = 147 ID = 270721088x
   4.473730 1  10230040x       Rx   d 8 00 00 00 00 00 00 00 00  Length = 4288223 BitCount = 147 ID = 270729280x
   4.477180 1  10250040x       Rx   d 2 02 38  Length = 2544658 BitCount = 89 ID = 270860352x
   4.483605 1  102CC040x       Rx   d 8 00 01 CF 67 00 87 06 C7  Length = 4078227 BitCount = 140 ID = 271368256x
   4.488708 1  102CE040x       Rx   d 8 90 00 68 7F 02 00 26 C9  Length = 4078212 BitCount = 140 ID = 271376448x
   4.493719 1  10240040x       Rx   d 8 83 FF 88 01 00 F0 0F FC  Length = 4228223 BitCount = 145 ID = 270794816x
   4.498849 1  102D0040x       Rx   d 8 01 69 01 ED 7C 70 00 FF  Length = 4134566 BitCount = 142 ID = 271384640x
   4.503653 1  102E0040x       Rx   d 8 00 3A CA 72 8A 00 62 82  Length = 4108223 BitCount = 141 ID = 271450176x
   4.507257 1  10424040x       Rx   d 3 04 8A 90  Length = 2818232 BitCount = 98 ID = 272777280x
   4.513622 1  102CA040x       Rx   d 8 00 40 21 36 4E 32 F1 00  Length = 4078212 BitCount = 140 ID = 271360064x
   4.516865 1  106B0040x       Rx   d 1 00  Length = 2308263 BitCount = 81 ID = 275447872x
   4.523139 1  C800040x        Rx   d 6 08 CB 00 00 85 17  Length = 3628216 BitCount = 125 ID = 209715264x
   4.528874 1  106B8040x       Rx   d 8 00 00 00 00 00 00 00 00  Length = 4318208 BitCount = 148 ID = 275480640x
   4.533707 1  10264040x       Rx   d 8 04 06 00 00 00 00 00 9A  Length = 4228208 BitCount = 145 ID = 270942272x
   4.537906 1  106C0040x       Rx   d 5 00 06 0F 07 00  Length = 3444598 BitCount = 119 ID = 275513408x
   4.543821 1  10210040x       Rx   d 8 00 00 00 00 00 00 00 00  Length = 4288208 BitCount = 147 ID = 270598208x
   4.547599 1  1077C040x       Rx   d 4 30 30 01 F4  Length = 3144629 BitCount = 109 ID = 276283456x
   4.553784 1  10220040x       Rx   d 8 10 00 00 00 00 06 00 00  Length = 4288208 BitCount = 147 ID = 270663744x
   4.558825 1  10780040x       Rx   d 8 00 00 01 04 08 00 00 22  Length = 4284562 BitCount = 147 ID = 276299840x
   4.563720 1  1022E040x       Rx   d 8 10 00 00 00 10 00 00 00  Length = 4258208 BitCount = 146 ID = 270721088x
   4.568283 1  10788040x       Rx   d 6 08 00 00 00 00 00  Length = 3778216 BitCount = 130 ID = 276332608x
   4.573749 1  10230040x       Rx   d 8 20 00 00 00 20 00 00 00  Length = 4258223 BitCount = 146 ID = 270729280x
   4.577952 1  10806040x       Rx   d 5 00 00 00 00 19  Length = 3418220 BitCount = 118 ID = 276848704x
   4.583832 1  1043A040x       Rx   d 8 00 00 3F 00 00 00 00 00  Length = 4314558 BitCount = 148 ID = 272867392x
   4.593738 1  10240040x       Rx   d 8 83 FF 88 01 00 F0 0F FC  Length = 4228208 BitCount = 145 ID = 270794816x
   4.613635 1  102CA040x       Rx   d 8 00 40 21 F8 4D 2D F1 00  Length = 4078212 BitCount = 140 ID = 271360064x
   4.629051 1  10734099x       Rx   d 6 24 44 00 7D 00 00  Length = 3594590 BitCount = 124 ID = 275988633x
   4.633766 1  10264040x       Rx   d 8 04 06 00 00 00 00 00 8D  Length = 4258223 BitCount = 146 ID = 270942272x
   4.636829 1  106B0040x       Rx   d 1 00  Length = 2308248 BitCount = 81 ID = 275447872x
   4.643822 1  10210040x       Rx   d 8 00 00 00 00 00 00 00 00  Length = 4288208 BitCount = 147 ID = 270598208x
   4.648319 1  106D4099x       Rx   d 3 00 00 82  Length = 2874630 BitCount = 100 ID = 275595417x
   4.653814 1  10220040x       Rx   d 8 10 00 00 00 00 04 00 00  Length = 4318208 BitCount = 148 ID = 270663744x
   4.663749 1  1022E040x       Rx   d 8 30 00 00 00 30 00 00 00  Length = 4288208 BitCount = 147 ID = 270721088x
   4.673743 1  10230040x       Rx   d 8 00 00 00 00 00 00 00 00  Length = 4288223 BitCount = 147 ID = 270729280x
   4.689134 1  10244060x       Rx   d 1 02  Length = 2304686 BitCount = 81 ID = 270811232x
   4.691358 1  13FFE060x       Rx   d 0  Length = 2098256 BitCount = 74 ID = 335536224x
   4.695619 1  1022A040x       Rx   d 8 00 B0 00 12 42 00 00 22  Length = 4138208 BitCount = 142 ID = 270704704x
   4.697810 1  13FFE080x       Rx   d 0  Length = 2068260 BitCount = 73 ID = 335536256x
   4.703185 1  1022C040x       Rx   d 6 00 10 00 20 00 00  Length = 3688231 BitCount = 127 ID = 270712896x
   4.708770 1  10240040x       Rx   d 8 83 FF 88 01 00 F0 0F FC  Length = 4228223 BitCount = 145 ID = 270794816x
   4.713423 1  10248040x       Rx   d 7 00 00 6C CF CC 32 00  Length = 3868212 BitCount = 133 ID = 270827584x
   4.717863 1  102C0040x       Rx   d 5 AE EF 44 59 03  Length = 3294606 BitCount = 114 ID = 271319104x
   4.720988 1  10814099x       Rx   d 4 20 44 30 00  Length = 2998228 BitCount = 104 ID = 276906137x
   4.725159 1  102CA040x       Rx   d 8 00 40 22 71 47 23 F1 00  Length = 4048227 BitCount = 139 ID = 271360064x
   4.727351 1  13FFE099x       Rx   d 0  Length = 2068260 BitCount = 73 ID = 335536281x
   4.733800 1  10264040x       Rx   d 8 04 06 00 00 00 00 00 82  Length = 4254562 BitCount = 146 ID = 270942272x
   4.738633 1  102CC040x       Rx   d 8 00 01 CF 67 00 87 06 B8  Length = 4078212 BitCount = 140 ID = 271368256x
   4.741512 1  10306099x       Rx   d 3 44 59 01  Length = 2754642 BitCount = 96 ID = 271605913x
   4.745927 1  10210040x       Rx   d 8 00 00 00 00 00 00 00 00  Length = 4288208 BitCount = 147 ID = 270598208x
   4.748777 1  10304058x       Rx   d 3 44 59 01  Length = 2724642 BitCount = 95 ID = 271597656x
   4.751691 1  10308060x       Rx   d 3 44 59 01  Length = 2788236 BitCount = 97 ID = 271614048x
   4.756104 1  10220040x       Rx   d 8 10 00 00 00 00 05 00 00  Length = 4288208 BitCount = 147 ID = 270663744x
   4.763845 1  1022E040x       Rx   d 8 10 00 00 00 10 00 00 00  Length = 4258208 BitCount = 146 ID = 270721088x
   4.768677 1  102CE040x       Rx   d 8 90 00 68 7F 03 00 26 B1  Length = 4078212 BitCount = 140 ID = 271376448x
   4.773176 1  C800040x        Rx   d 6 08 CB 00 00 85 21  Length = 3594590 BitCount = 124 ID = 209715264x
   4.778791 1  10230040x       Rx   d 8 20 00 00 00 20 00 00 00  Length = 4258208 BitCount = 146 ID = 270729280x
   4.782301 1  10424040x       Rx   d 3 04 8A 8F  Length = 2784653 BitCount = 97 ID = 272777280x
   4.786836 1  106B0040x       Rx   d 1 00  Length = 2308248 BitCount = 81 ID = 275447872x
   4.793767 1  10240040x       Rx   d 8 83 FE 88 01 00 F0 0F FC  Length = 4194577 BitCount = 144 ID = 270794816x
   4.798868 1  106B8040x       Rx   d 8 00 00 00 00 00 00 00 00  Length = 4314558 BitCount = 148 ID = 275480640x
   4.803913 1  10780040x       Rx   d 8 00 00 01 04 08 00 00 22  Length = 4288223 BitCount = 147 ID = 276299840x
   4.808471 1  10EC4040x       Rx   d 8 4C 41 5A 41 36 39 53 44  Length = 3954589 BitCount = 136 ID = 283918400x
   4.813662 1  102CA040x       Rx   d 8 00 40 22 13 3A 16 F1 00  Length = 4044570 BitCount = 139 ID = 271360064x
   4.818407 1  10EC8040x       Rx   d 8 48 42 37 30 31 34 39 36  Length = 3898212 BitCount = 134 ID = 283934784x
   4.833773 1  10264040x       Rx   d 8 04 06 00 00 00 00 00 75  Length = 4198208 BitCount = 144 ID = 270942272x
   4.838844 1  1043A040x       Rx   d 8 00 00 34 00 00 00 00 00  Length = 4288208 BitCount = 147 ID = 272867392x
   4.843943 1  10210040x       Rx   d 8 00 00 00 00 00 00 00 00  Length = 4284562 BitCount = 147 ID = 270598208x
   4.853880 1  10220040x       Rx   d 8 10 00 00 00 00 07 00 00  Length = 4318208 BitCount = 148 ID = 270663744x
   4.863874 1  1022E040x       Rx   d 8 30 00 00 00 30 00 00 00  Length = 4288223 BitCount = 147 ID = 270721088x
   4.869907 1  10448060x       Rx   d 4 00 00 45 00  Length = 3058228 BitCount = 106 ID = 272924768x
   4.874315 1  10230040x       Rx   d 8 00 00 00 00 00 00 00 00  Length = 4284562 BitCount = 147 ID = 270729280x
   4.893884 1  10240040x       Rx   d 8 83 FE 88 01 00 F0 0F FC  Length = 4198208 BitCount = 144 ID = 270794816x
   4.898893 1  106B8040x       Rx   d 8 00 00 00 00 00 00 00 00  Length = 4314558 BitCount = 148 ID = 275480640x
   4.901868 1  106B0040x       Rx   d 1 00  Length = 2308248 BitCount = 81 ID = 275447872x
   4.913662 1  102CA040x       Rx   d 8 00 40 21 7F 39 0A F1 00  Length = 4048212 BitCount = 139 ID = 271360064x
   4.933608 CAN 1 Status:chip status error active  - TxErr: 0 RxErr: 1
   4.933616 1  ErrorFrame	Flags = 0xfffe	CodeExt = 0x2072	Code = 0x81	ID = 0x90264040	DLC = 8	Position = 120	Length = 4044390	Data = 0x4  0x6  0  0  0  0  0  0x72
   4.938137 CAN 1 Status:chip status error active
   4.938355 1  10264040x       Rx   d 8 04 06 00 00 00 00 00 72  Length = 4224562 BitCount = 145 ID = 270942272x
   4.943910 1  10210040x       Rx   d 8 00 00 00 00 00 00 00 00  Length = 4288208 BitCount = 147 ID = 270598208x
   4.946070 1  13FFE0BBx       Rx   d 0  Length = 2034733 BitCount = 72 ID = 335536315x
   4.950328 1  1022A040x       Rx   d 8 00 B0 00 12 42 00 00 22  Length = 4134566 BitCount = 142 ID = 270704704x
   4.958914 1  10220040x       Rx   d 8 10 00 00 00 00 08 00 00  Length = 4318208 BitCount = 148 ID = 270663744x
   4.963351 1  1022C040x       Rx   d 6 00 10 00 20 00 00  Length = 3684586 BitCount = 127 ID = 270712896x
   4.968816 1  1022E040x       Rx   d 8 10 00 00 00 10 00 00 00  Length = 4258208 BitCount = 146 ID = 270721088x
   4.973919 1  10230040x       Rx   d 8 20 00 00 00 20 00 00 00  Length = 4258208 BitCount = 146 ID = 270729280x
   4.978692 1  102CC040x       Rx   d 8 00 01 CF 67 00 87 06 94  Length = 4048212 BitCount = 139 ID = 271368256x
   4.983706 1  102CE040x       Rx   d 8 90 00 68 7F 03 00 26 93  Length = 4078227 BitCount = 140 ID = 271376448x
   4.988717 1  102D0040x       Rx   d 8 01 69 01 ED 7C 68 00 FF  Length = 4108223 BitCount = 141 ID = 271384640x
   4.993876 1  10240040x       Rx   d 8 83 FE 88 01 00 F0 0F FC  Length = 4194577 BitCount = 144 ID = 270794816x
   4.997388 1  10424040x       Rx   d 3 04 8A 90  Length = 2814638 BitCount = 98 ID = 272777280x
   5.002853 1  102C0040x       Rx   d 5 AE EF 44 59 03  Length = 3298224 BitCount = 114 ID = 271319104x
   5.003351 1  Statistic: D 1 R 0 XD 156 XR 0 E 2 O 0 B 61.95%
   5.003351 2  Statistic: D 0 R 0 XD 0 XR 0 E 0 O 0 B 0.00%
   5.003351 3  Statistic: D 0 R 0 XD 0 XR 0 E 0 O 0 B 0.00%
   5.008016 1  10806040x       Rx   d 5 00 00 00 00 19  Length = 3418235 BitCount = 118 ID = 276848704x
   5.013747 1  102CA040x       Rx   d 8 00 40 20 6C 2B 00 F1 00  Length = 4078227 BitCount = 140 ID = 271360064x
   5.016900 1  106B0040x       Rx   d 1 00  Length = 2308248 BitCount = 81 ID = 275447872x
   5.023233 1  C800040x        Rx   d 6 08 CB 00 00 85 26  Length = 3598216 BitCount = 124 ID = 209715264x
   5.026083 1  10304058x       Rx   d 3 44 59 01  Length = 2724642 BitCount = 95 ID = 271597656x
   5.030493 1  10780040x       Rx   d 8 00 00 01 04 08 00 00 22  Length = 4284562 BitCount = 147 ID = 276299840x
   5.033408 1  10308060x       Rx   d 3 44 59 01  Length = 2788236 BitCount = 97 ID = 271614048x
   5.038811 1  10264040x       Rx   d 8 04 06 00 00 00 00 00 50  Length = 4198223 BitCount = 144 ID = 270942272x
   5.041691 1  10306099x       Rx   d 3 44 59 01  Length = 2754642 BitCount = 96 ID = 271605913x
   5.046101 1  10210040x       Rx   d 8 00 00 00 00 00 00 00 00  Length = 4284562 BitCount = 147 ID = 270598208x
   5.053963 1  10220040x       Rx   d 8 10 00 00 00 00 04 00 00  Length = 4314558 BitCount = 148 ID = 270663744x
   5.058378 1  10788040x       Rx   d 6 08 00 00 00 00 00  Length = 3778216 BitCount = 130 ID = 276332608x
   5.063873 1  1022E040x       Rx   d 8 30 00 00 00 30 00 00 00  Length = 4288208 BitCount = 147 ID = 270721088x
   5.066068 1  13FFE068x       Rx   d 0  Length = 2068260 BitCount = 73 ID = 335536232x
   5.069816 1  624             Rx   d 8 00 20 00 00 00 00 00 00  Length = 3624601 BitCount = 125 ID = 1572
   5.074230 1  10230040x       Rx   d 8 00 00 00 00 00 00 00 00  Length = 4288223 BitCount = 147 ID = 270729280x
   5.077593 1  106D0080x       Rx   d 2 00 00  Length = 2578240 BitCount = 90 ID = 275579008x
   5.083896 1  1043A040x       Rx   d 8 00 00 25 00 00 00 00 00  Length = 4288208 BitCount = 147 ID = 272867392x
   5.093833 1  10240040x       Rx   d 8 83 FE 88 01 00 F0 0F FC  Length = 4198223 BitCount = 144 ID = 270794816x
   5.098936 1  106B8040x       Rx   d 8 00 00 00 00 00 00 00 00  Length = 4318208 BitCount = 148 ID = 275480640x
   5.101663 1  13FFE040x       Rx   d 0  Length = 2064714 BitCount = 73 ID = 335536192x
   5.113726 1  102CA040x       Rx   d 8 00 40 1E EA 37 00 F1 00  Length = 4044570 BitCount = 139 ID = 271360064x
   5.129056 1  10734099x       Rx   d 6 24 44 00 7D 00 00  Length = 3594590 BitCount = 124 ID = 275988633x
   5.133801 1  10264040x       Rx   d 8 04 06 00 00 00 00 00 45  Length = 4198208 BitCount = 144 ID = 270942272x
   5.136894 1  106B0040x       Rx   d 1 00  Length = 2308248 BitCount = 81 ID = 275447872x
   5.144033 1  10210040x       Rx   d 8 00 00 00 00 00 00 00 00  Length = 4284562 BitCount = 147 ID = 270598208x
   5.153969 1  10220040x       Rx   d 8 10 00 00 00 00 04 00 00  Length = 4318208 BitCount = 148 ID = 270663744x
   5.163874 1  1022E040x       Rx   d 8 10 00 00 00 10 00 00 00  Length = 4258223 BitCount = 146 ID = 270721088x
   5.173958 1  10230040x       Rx   d 8 20 00 00 00 20 00 00 00  Length = 4258223 BitCount = 146 ID = 270729280x
   5.193822 1  1022A040x       Rx   d 8 00 B0 00 12 42 00 00 22  Length = 4134566 BitCount = 142 ID = 270704704x
   5.198327 1  1022C040x       Rx   d 6 00 10 00 20 00 00  Length = 3688216 BitCount = 127 ID = 270712896x
   5.203882 1  10240040x       Rx   d 8 83 FE 88 01 00 F0 0F FC  Length = 4198208 BitCount = 144 ID = 270794816x
   5.211892 1  10242040x       Rx   d 1 02  Length = 2304697 BitCount = 81 ID = 270803008x
   5.218527 1  10248040x       Rx   d 7 00 00 6C CF CC 2E 00  Length = 3868212 BitCount = 133 ID = 270827584x
   5.223985 1  102CA040x       Rx   d 8 00 40 1D 50 35 00 F1 00  Length = 4104566 BitCount = 141 ID = 271360064x
   5.228760 1  102CC040x       Rx   d 8 00 01 CF 67 00 87 06 7E  Length = 4078212 BitCount = 140 ID = 271368256x
   5.233889 1  10264040x       Rx   d 8 04 06 00 00 00 00 00 41  Length = 4224562 BitCount = 145 ID = 270942272x
   5.238814 1  102CE040x       Rx   d 8 90 00 69 7F 02 00 26 8F  Length = 4108212 BitCount = 141 ID = 271376448x
   5.243876 CAN 1 Status:chip status error active  - TxErr: 0 RxErr: 1
   5.243884 1  ErrorFrame	Flags = 0xfffe	CodeExt = 0x2072	Code = 0x81	ID = 0x90210040	DLC = 8	Position = 120	Length = 4104375	Data = 0  0  0  0  0  0  0  0
   5.248465 CAN 1 Status:chip status error active
   5.248495 CAN 1 Status:chip status error active  - TxErr: 0 RxErr: 1
   5.248503 1  ErrorFrame	Flags = 0xfffe	CodeExt = 0x2072	Code = 0x81	ID = 0x90210040	DLC = 8	Position = 120	Length = 4104375	Data = 0  0  0  0  0  0  0  0
   5.253085 CAN 1 Status:chip status error active
   5.253302 1  10210040x       Rx   d 8 00 00 00 00 00 00 00 00  Length = 4284562 BitCount = 147 ID = 270598208x
   5.258977 1  10220040x       Rx   d 8 10 00 00 00 00 07 00 00  Length = 4318208 BitCount = 148 ID = 270663744x
   5.263961 1  1022E040x       Rx   d 8 30 00 00 00 30 00 00 00  Length = 4288208 BitCount = 147 ID = 270721088x
   5.266932 1  106B0040x       Rx   d 1 00  Length = 2308263 BitCount = 81 ID = 275447872x
   5.273267 1  C800040x        Rx   d 6 08 CB 00 00 85 2B  Length = 3598216 BitCount = 124 ID = 209715264x
   5.278940 1  10230040x       Rx   d 8 00 00 00 00 00 00 00 00  Length = 4288208 BitCount = 147 ID = 270729280x
   5.284014 1  10780040x       Rx   d 8 00 00 01 04 08 00 00 22  Length = 4288223 BitCount = 147 ID = 276299840x
   5.293888 1  10240040x       Rx   d 8 83 FE 88 01 00 F0 0F FC  Length = 4198208 BitCount = 144 ID = 270794816x
   5.298991 1  106B8040x       Rx   d 8 00 00 00 00 00 00 00 00  Length = 4318208 BitCount = 148 ID = 275480640x
   5.303102 1  102C0040x       Rx   d 5 AE EF 44 59 03  Length = 3298239 BitCount = 114 ID = 271319104x
   5.313787 1  102CA040x       Rx   d 8 00 40 1A EC 23 00 F1 00  Length = 4078212 BitCount = 140 ID = 271360064x
   5.323271 1  621             Rx   d 8 00 52 00 00 00 00 00 00  Length = 3598216 BitCount = 124 ID = 1569
   5.326119 1  10304058x       Rx   d 3 44 59 01  Length = 2724642 BitCount = 95 ID = 271597656x
   5.333860 1  10264040x       Rx   d 8 04 06 00 00 00 00 00 3D  Length = 4194562 BitCount = 144 ID = 270942272x
   5.339021 1  1043A040x       Rx   d 8 00 00 20 00 00 00 00 00  Length = 4344558 BitCount = 149 ID = 272867392x
   5.341901 1  10306099x       Rx   d 3 44 59 01  Length = 2754657 BitCount = 96 ID = 271605913x
   5.346311 1  10210040x       Rx   d 8 00 00 00 00 00 00 00 00  Length = 4284573 BitCount = 147 ID = 270598208x
   5.350455 1  62C             Rx   d 8 00 40 00 00 00 00 00 00  Length = 3628231 BitCount = 125 ID = 1580
   5.354863 1  10220040x       Rx   d 8 10 00 00 00 00 05 00 00  Length = 4284562 BitCount = 147 ID = 270663744x
   5.357586 CAN 1 Status:chip status error active  - TxErr: 0 RxErr: 1
   5.357594 1  ErrorFrame	Flags = 0xfffe	CodeExt = 0x2072	Code = 0x81	ID = 0x90308060	DLC = 3	Position = 80	Length = 2604375	Data = 0x44  0x59  0x1
   5.360678 CAN 1 Status:chip status error active
   5.360896 1  10308060x       Rx   d 3 44 59 01  Length = 2788236 BitCount = 97 ID = 271614048x
   5.365280 1  1022E040x       Rx   d 8 10 00 00 00 10 00 00 00  Length = 4258208 BitCount = 146 ID = 270721088x
   5.373922 1  10230040x       Rx   d 8 20 00 00 00 20 00 00 00  Length = 4254562 BitCount = 146 ID = 270729280x
   5.378697 1  1080A040x       Rx   d 7 00 00 00 00 00 00 00  Length = 4018212 BitCount = 138 ID = 276865088x
   5.382386 1  631             Rx   d 8 00 40 00 00 00 00 00 00  Length = 3564590 BitCount = 123 ID = 1585
   5.384817 1  106B0040x       Rx   d 1 00  Length = 2304686 BitCount = 81 ID = 275447872x
   5.393912 1  10240040x       Rx   d 8 83 FE 88 01 00 F0 0F FC  Length = 4198208 BitCount = 144 ID = 270794816x
   5.413896 1  102CA040x       Rx   d 8 00 40 18 39 24 00 F1 00  Length = 4134566 BitCount = 142 ID = 271360064x
   5.433944 1  10264040x       Rx   d 8 04 06 00 00 00 00 00 0A  Length = 4258208 BitCount = 146 ID = 270942272x
   5.444147 1  10210040x       Rx   d 8 00 00 00 00 00 00 00 00  Length = 4284562 BitCount = 147 ID = 270598208x
   5.448862 1  1022A040x       Rx   d 8 00 B0 00 12 42 00 00 22  Length = 4138208 BitCount = 142 ID = 270704704x
   5.452586 1  108E0080x       Rx   d 6 0E 01 17 02 0C DB  Length = 3598216 BitCount = 124 ID = 277741696x
   5.456996 1  10220040x       Rx   d 8 10 00 00 00 00 06 00 00  Length = 4284562 BitCount = 147 ID = 270663744x
   5.463482 1  1022C040x       Rx   d 6 00 10 00 20 00 00  Length = 3688216 BitCount = 127 ID = 270712896x
   5.468975 1  1022E040x       Rx   d 8 30 00 00 00 30 00 00 00  Length = 4288223 BitCount = 147 ID = 270721088x
   5.474077 1  10230040x       Rx   d 8 00 00 00 00 00 00 00 00  Length = 4284562 BitCount = 147 ID = 270729280x
   5.477322 1  10250040x       Rx   d 2 02 38  Length = 2548240 BitCount = 89 ID = 270860352x
   5.483773 1  102CC040x       Rx   d 8 80 09 CF 67 00 87 06 62  Length = 4018212 BitCount = 138 ID = 271368256x
   5.488844 1  102CE040x       Rx   d 8 90 00 68 7F 02 00 26 90  Length = 4074566 BitCount = 140 ID = 271376448x
   5.493949 1  10240040x       Rx   d 8 83 FE 88 01 00 F0 0F FC  Length = 4198208 BitCount = 144 ID = 270794816x
   5.498811 1  102D0040x       Rx   d 8 01 69 01 ED 7C 66 00 FF  Length = 4078212 BitCount = 140 ID = 271384640x
   5.503974 1  102E0040x       Rx   d 8 00 39 CA 72 8A 00 62 82  Length = 4168208 BitCount = 143 ID = 271450176x
   5.508145 1  10466040x       Rx   d 5 00 00 00 00 00  Length = 3448220 BitCount = 119 ID = 273047616x
   5.513908 1  102CA040x       Rx   d 8 00 40 15 6D 28 00 F1 00  Length = 4108212 BitCount = 141 ID = 271360064x
   5.516999 1  106B0040x       Rx   d 1 00  Length = 2308248 BitCount = 81 ID = 275447872x
   5.523231 CAN 1 Status:chip status error active  - TxErr: 0 RxErr: 1
   5.523239 1  ErrorFrame	Flags = 0xfffe	CodeExt = 0x2072	Code = 0x81	ID = 0x8c800040	DLC = 6	Position = 104	Length = 3444375	Data = 0x8  0xcb  0  0  0x85  0x2d
   5.527164 CAN 1 Status:chip status error active
   5.527382 1  C800040x        Rx   d 6 08 CB 00 00 85 2D  Length = 3628216 BitCount = 125 ID = 209715264x
   5.534015 1  10264040x       Rx   d 8 04 06 00 00 00 00 00 00  Length = 4258208 BitCount = 146 ID = 270942272x
   5.536238 1  13FFE058x       Rx   d 0  Length = 2098256 BitCount = 74 ID = 335536216x
   5.540677 1  106B8040x       Rx   d 8 00 00 00 00 00 00 00 00  Length = 4314558 BitCount = 148 ID = 275480640x
   5.549023 1  10210040x       Rx   d 8 00 00 00 00 00 00 00 00  Length = 4288208 BitCount = 147 ID = 270598208x
   5.554062 1  10220040x       Rx   d 8 10 00 00 00 00 08 00 00  Length = 4314558 BitCount = 148 ID = 270663744x
   5.558147 1  106C0040x       Rx   d 5 00 06 0F 07 00  Length = 3448220 BitCount = 119 ID = 275513408x
   5.563970 1  1022E040x       Rx   d 8 10 00 00 00 10 00 00 00  Length = 4258208 BitCount = 146 ID = 270721088x
   5.567842 1  1077C040x       Rx   d 4 30 30 01 F4  Length = 3148224 BitCount = 109 ID = 276283456x
   5.574087 1  10230040x       Rx   d 8 20 00 00 00 20 00 00 00  Length = 4258208 BitCount = 146 ID = 270729280x
   5.579098 1  10780040x       Rx   d 8 00 00 01 04 08 00 00 22  Length = 4284562 BitCount = 147 ID = 276299840x
   5.584023 1  1043A040x       Rx   d 8 00 00 24 00 00 00 00 00  Length = 4288223 BitCount = 147 ID = 272867392x
   5.588527 1  10788040x       Rx   d 6 08 00 00 00 00 00  Length = 3778216 BitCount = 130 ID = 276332608x
   5.594022 1  10240040x       Rx   d 8 83 FE 88 01 00 F0 0F FC  Length = 4198208 BitCount = 144 ID = 270794816x
   5.598165 1  10806040x       Rx   d 5 00 00 00 00 19  Length = 3418220 BitCount = 118 ID = 276848704x
   5.603028 1  102C0040x       Rx   d 5 AE EF 44 59 03  Length = 3298224 BitCount = 114 ID = 271319104x
   5.613953 1  102CA040x       Rx   d 8 00 40 14 A6 30 00 F1 00  Length = 4108212 BitCount = 141 ID = 271360064x
   5.624513 1  10304058x       Rx   d 3 44 59 01  Length = 2728236 BitCount = 95 ID = 271597656x
   5.629042 1  10734099x       Rx   d 6 24 44 00 7D 00 00  Length = 3594590 BitCount = 124 ID = 275988633x
   5.631957 1  10308060x       Rx   d 3 44 59 01  Length = 2788247 BitCount = 97 ID = 271614048x
   5.636337 1  10264040x       Rx   d 8 04 06 00 00 00 00 00 00  Length = 4254562 BitCount = 146 ID = 270942272x
   5.639221 1  10306099x       Rx   d 3 44 59 01  Length = 2758236 BitCount = 96 ID = 271605913x
   5.644084 1  10210040x       Rx   d 8 00 00 00 00 00 00 00 00  Length = 4288208 BitCount = 147 ID = 270598208x
   5.647027 1  106B0040x       Rx   d 1 00  Length = 2308248 BitCount = 81 ID = 275447872x
   5.654053 1  10220040x       Rx   d 8 10 00 00 00 00 09 00 00  Length = 4288208 BitCount = 147 ID = 270663744x
   5.656366 1  13FFE0AFx       Rx   d 0  Length = 2068260 BitCount = 73 ID = 335536303x
   5.663989 1  1022E040x       Rx   d 8 30 00 00 00 30 00 00 00  Length = 4288208 BitCount = 147 ID = 270721088x
   5.674013 1  10230040x       Rx   d 8 00 00 00 00 00 00 00 00  Length = 4288208 BitCount = 147 ID = 270729280x
   5.694031 1  1022A040x       Rx   d 8 00 B0 00 12 42 00 00 22  Length = 4138208 BitCount = 142 ID = 270704704x
   5.698442 1  1022C040x       Rx   d 6 00 10 00 20 00 00  Length = 3684597 BitCount = 127 ID = 270712896x
   5.704027 1  10240040x       Rx   d 8 83 FF 88 01 00 F0 0F FC  Length = 4228208 BitCount = 145 ID = 270794816x
