date Tue May 17 08:26:29.968 pm 2016
base hex  timestamps absolute
internal events logged
// version 8.5.0
Begin Triggerblock Tue May 17 08:26:29.968 pm 2016
   0.000000 Start of measurement
   0.048790 CAN 1 Status:chip status error active
   0.048790 CAN 2 Status:chip status error active
   1.048791 1  Statistic: D 0 R 0 XD 0 XR 0 E 0 O 0 B 0.00%
   1.048791 2  Statistic: D 0 R 0 XD 0 XR 0 E 0 O 0 B 0.00%
   2.048791 1  Statistic: D 0 R 0 XD 0 XR 0 E 0 O 0 B 0.00%
   2.048791 2  Statistic: D 0 R 0 XD 0 XR 0 E 0 O 0 B 0.00%
   3.048791 1  Statistic: D 0 R 0 XD 0 XR 0 E 0 O 0 B 0.00%
   3.048791 2  Statistic: D 0 R 0 XD 0 XR 0 E 0 O 0 B 0.00%
   3.764043 1  100             Rx   d 0  Length = 1408304 BitCount = 51 ID = 256
   3.840844 1  13FFE099x       Rx   d 0  Length = 2064714 BitCount = 73 ID = 335536281x
   3.846184 1  622             Rx   d 8 01 40 00 00 00 00 00 00  Length = 3564590 BitCount = 123 ID = 1570
   3.848373 1  13FFE040x       Rx   d 0  Length = 2064714 BitCount = 73 ID = 335536192x
   3.852218 1  102340BCx       Rx   d 6 02 00 00 00 80 00  Length = 3718216 BitCount = 128 ID = 270745788x
   3.855525 1  1023C0BCx       Rx   d 4 00 00 00 00  Length = 3181853 BitCount = 110 ID = 270778556x
   3.857927 1  C2F6040x        Rx   d 1 00  Length = 2278263 BitCount = 80 ID = 204431424x
   3.860299 1  C6080AFx        Rx   d 1 00  Length = 2248252 BitCount = 79 ID = 207650991x
   3.862700 1  C2F8040x        Rx   d 1 00  Length = 2278252 BitCount = 80 ID = 204439616x
   3.866000 1  C7920AFx        Rx   d 5 A3 94 B0 D8 00  Length = 3178224 BitCount = 110 ID = 209264815x
   3.868402 1  C2FA040x        Rx   d 1 00  Length = 2278263 BitCount = 80 ID = 204447808x
   3.870834 1  10244060x       Rx   d 1 00  Length = 2308248 BitCount = 81 ID = 270811232x
   3.874316 1  C394040x        Rx   d 5 C0 20 FF FF 00  Length = 3358235 BitCount = 116 ID = 205078592x
   3.876716 1  102680AFx       Rx   d 1 04  Length = 2278252 BitCount = 80 ID = 270958767x
   3.879088 1  C630040x        Rx   d 1 80  Length = 2248252 BitCount = 79 ID = 207814720x
   3.882660 1  102580BBx       Rx   d 5 00 00 00 00 00  Length = 3448220 BitCount = 119 ID = 270893243x
   3.885029 1  C6AA040x        Rx   d 1 00  Length = 2248267 BitCount = 79 ID = 208314432x
   3.889471 1  102AA080x       Rx   d 8 00 00 00 00 00 00 00 00  Length = 4318208 BitCount = 148 ID = 271229056x
   3.892475 1  102C2080x       Rx   d 3 00 00 00  Length = 2881845 BitCount = 100 ID = 271327360x
   3.894846 1  C714040x        Rx   d 1 0F  Length = 2248252 BitCount = 79 ID = 208748608x
   3.898505 1  102C6060x       Rx   d 6 00 33 0E 00 45 CA  Length = 3534590 BitCount = 122 ID = 271343712x
   3.901537 1  102F0080x       Rx   d 3 00 00 00  Length = 2908232 BitCount = 101 ID = 271515776x
   3.909521 1  10320058x       Rx   d 8 00 00 00 00 00 00 00 00  Length = 4318208 BitCount = 148 ID = 271712344x
   3.913327 1  10324058x       Rx   d 6 00 00 07 EF 00 00  Length = 3684586 BitCount = 127 ID = 271728728x
   3.917737 1  10210040x       Rx   d 8 00 00 00 00 00 00 00 00  Length = 4284573 BitCount = 147 ID = 270598208x
   3.921456 1  10330058x       Rx   d 6 73 73 00 00 00 00  Length = 3594601 BitCount = 124 ID = 271777880x
   3.923829 1  10242040x       Rx   d 1 08  Length = 2248252 BitCount = 79 ID = 270803008x
   3.926010 CAN 1 Status:chip status error active  - TxErr: 0 RxErr: 1
   3.926018 1  ErrorFrame	Flags = 0xfffe	CodeExt = 0x2072	Code = 0x81	ID = 0x90336058	DLC = 1	Position = 64	Length = 2064375	Data = 0x5
   3.928891 CAN 1 Status:chip status error active
   3.929109 1  10250040x       Rx   d 2 00 01  Length = 2578240 BitCount = 90 ID = 270860352x
   3.933552 1  10320058x       Rx   d 8 00 00 00 00 00 00 00 00  Length = 4318223 BitCount = 148 ID = 271712344x
   3.937722 1  10254040x       Rx   d 7 00 00 00 00 00 00 00  Length = 4048212 BitCount = 139 ID = 270876736x
   3.941531 1  10324058x       Rx   d 6 00 00 07 EF 00 00  Length = 3684586 BitCount = 127 ID = 271728728x
   3.944535 1  10260040x       Rx   d 3 00 00 02  Length = 2881830 BitCount = 100 ID = 270925888x
   3.948252 1  10330058x       Rx   d 6 73 73 00 00 00 00  Length = 3594590 BitCount = 124 ID = 271777880x
   3.951227 1  10288040x       Rx   d 3 00 00 00  Length = 2848232 BitCount = 99 ID = 271089728x
   3.957767 1  1036A080x       Rx   d 7 00 00 00 00 00 00 00  Length = 4048212 BitCount = 139 ID = 272015488x
   3.961367 1  102C0040x       Rx   d 5 00 00 00 00 00  Length = 3478220 BitCount = 120 ID = 271319104x
   3.963739 1  103A00BBx       Rx   d 1 00  Length = 2248252 BitCount = 79 ID = 272236731x
   3.966979 1  103A40BBx       Rx   d 4 00 00 00 00  Length = 3118228 BitCount = 108 ID = 272253115x
   3.971204 CAN 1 Status:chip status error active  - TxErr: 0 RxErr: 1
   3.971211 1  ErrorFrame	Flags = 0xfffe	CodeExt = 0x2072	Code = 0x81	ID = 0x90210040	DLC = 8	Position = 120	Length = 4108125	Data = 0  0  0  0  0  0  0  0
   3.975790 CAN 1 Status:chip status error active
   3.976008 1  10210040x       Rx   d 8 00 00 00 00 00 00 00 00  Length = 4284562 BitCount = 147 ID = 270598208x
   3.978441 1  103BC060x       Rx   d 1 00  Length = 2308248 BitCount = 81 ID = 272351328x
   3.980873 1  103D20BCx       Rx   d 1 00  Length = 2308248 BitCount = 81 ID = 272441532x
   3.985349 1  10220040x       Rx   d 8 10 00 00 00 0F FC 00 00  Length = 4351873 BitCount = 149 ID = 270663744x
   3.988649 1  1023C0BCx       Rx   d 4 07 00 01 00  Length = 3178224 BitCount = 110 ID = 270778556x
   3.991022 1  102680AFx       Rx   d 1 05  Length = 2248252 BitCount = 79 ID = 270958767x
   3.995400 1  1022A040x       Rx   d 8 00 F0 00 00 00 00 00 00  Length = 4254562 BitCount = 146 ID = 270704704x
   3.997834 1  103D6060x       Rx   d 1 00  Length = 2308248 BitCount = 81 ID = 272457824x
   4.000296 1  103DA060x       Rx   d 1 00  Length = 2338248 BitCount = 82 ID = 272474208x
   4.004198 1  1022C040x       Rx   d 6 00 00 00 00 00 00  Length = 3778216 BitCount = 130 ID = 270712896x
   4.007106 1  10424060x       Rx   d 3 05 86 8A  Length = 2784638 BitCount = 97 ID = 272777312x
   4.011516 1  1022E040x       Rx   d 8 20 00 00 00 20 00 00 00  Length = 4284562 BitCount = 147 ID = 270721088x
   4.015566 1  10440099x       Rx   d 7 0C 00 00 00 83 83 41  Length = 3924589 BitCount = 135 ID = 272892057x
   4.019976 1  10230040x       Rx   d 8 18 00 00 00 18 00 00 00  Length = 4288208 BitCount = 147 ID = 270729280x
   4.022435 1  10380099x       Rx   d 1 00  Length = 2334682 BitCount = 82 ID = 272105625x
   4.025198 1  10444060x       Rx   d 2 00 00  Length = 2638240 BitCount = 92 ID = 272908384x
   4.029576 1  10240040x       Rx   d 8 80 00 88 01 00 00 00 00  Length = 4254562 BitCount = 146 ID = 270794816x
   4.032820 1  10448060x       Rx   d 4 00 00 00 00  Length = 3118228 BitCount = 108 ID = 272924768x
   4.035252 1  10242040x       Rx   d 1 00  Length = 2308248 BitCount = 81 ID = 270803008x
   4.038827 1  1044E0BCx       Rx   d 5 00 00 00 00 00  Length = 3451857 BitCount = 119 ID = 272949436x
   4.041228 1  1045C060x       Rx   d 1 00  Length = 2278252 BitCount = 80 ID = 273006688x
   4.045250 1  10248040x       Rx   d 7 00 00 60 F6 F5 FF 00  Length = 3898212 BitCount = 134 ID = 270827584x
   4.048252 1  104C00BCx       Rx   d 3 00 00 00  Length = 2878232 BitCount = 100 ID = 273416380x
   4.048792 1  Statistic: D 2 R 0 XD 61 XR 0 E 2 O 0 B 20.96%
   4.048792 2  Statistic: D 0 R 0 XD 0 XR 0 E 0 O 0 B 0.00%
   4.050626 1  105080BCx       Rx   d 1 00  Length = 2248252 BitCount = 79 ID = 273711292x
   4.053354 1  10250040x       Rx   d 2 00 03  Length = 2604654 BitCount = 91 ID = 270860352x
   4.056293 1  10624099x       Rx   d 3 00 00 00  Length = 2814638 BitCount = 98 ID = 274874521x
   4.060645 1  10264040x       Rx   d 8 04 0E 00 00 00 00 00 00  Length = 4228208 BitCount = 145 ID = 270942272x
   4.063344 1  106D0080x       Rx   d 2 00 00  Length = 2574658 BitCount = 90 ID = 275579008x
   4.066254 1  106D4099x       Rx   d 3 10 00 28  Length = 2784638 BitCount = 97 ID = 275595417x
   4.070662 1  10210040x       Rx   d 8 00 00 60 00 80 00 A0 00  Length = 4284562 BitCount = 147 ID = 270598208x
   4.073032 1  10724099x       Rx   d 1 00  Length = 2244705 BitCount = 79 ID = 275923097x
   4.075404 1  1072A099x       Rx   d 1 01  Length = 2248252 BitCount = 79 ID = 275947673x
   4.079849 1  10220040x       Rx   d 8 10 00 00 00 00 00 00 00  Length = 4321858 BitCount = 148 ID = 270663744x
   4.082516 1  1072C0BBx       Rx   d 2 00 00  Length = 2544658 BitCount = 89 ID = 275955899x
   4.086267 1  10734099x       Rx   d 6 10 00 00 7D 00 00  Length = 3624586 BitCount = 125 ID = 275988633x
   4.090678 1  1022E040x       Rx   d 8 08 00 00 00 08 00 00 00  Length = 4288208 BitCount = 147 ID = 270721088x
   4.093050 1  1076C099x       Rx   d 1 00  Length = 2248252 BitCount = 79 ID = 276218009x
   4.095453 1  102680AFx       Rx   d 1 04  Length = 2278252 BitCount = 80 ID = 270958767x
   4.097853 1  C2FE040x        Rx   d 1 40  Length = 2278252 BitCount = 80 ID = 204464192x
   4.100284 1  10774060x       Rx   d 1 00  Length = 2308248 BitCount = 81 ID = 276250720x
   4.104696 1  10230040x       Rx   d 8 18 00 00 00 18 00 00 00  Length = 4288208 BitCount = 147 ID = 270729280x
   4.107096 1  10812060x       Rx   d 1 00  Length = 2278252 BitCount = 80 ID = 276897888x
   4.110698 1  102C0040x       Rx   d 5 00 00 00 00 00  Length = 3478235 BitCount = 120 ID = 271319104x
   4.113902 1  10814099x       Rx   d 4 00 00 00 00  Length = 3081023 BitCount = 107 ID = 276906137x
   4.116276 1  1084A060x       Rx   d 1 00  Length = 2248267 BitCount = 79 ID = 277127264x
   4.120625 1  10240040x       Rx   d 8 80 00 88 01 00 44 00 00  Length = 4224577 BitCount = 145 ID = 270794816x
   4.122998 1  10A04060x       Rx   d 1 00  Length = 2248252 BitCount = 79 ID = 278937696x
   4.127350 1  10ACA0BBx       Rx   d 8 30 80 00 00 00 00 00 00  Length = 4228208 BitCount = 145 ID = 279748795x
   4.131668 1  102CA040x       Rx   d 8 00 00 00 00 4B 00 F1 00  Length = 4194562 BitCount = 144 ID = 271360064x
   4.136117 1  10ACA0BCx       Rx   d 8 00 00 00 00 00 00 00 00  Length = 4321858 BitCount = 148 ID = 279748796x
   4.139537 1  C7920AFx        Rx   d 5 C0 02 2F 7C 00  Length = 3298224 BitCount = 114 ID = 209264815x
   4.142842 1  1023C0BCx       Rx   d 4 07 00 01 00  Length = 3181838 BitCount = 110 ID = 270778556x
   4.147073 1  102CC040x       Rx   d 8 01 00 CF 00 00 50 06 8D  Length = 4108212 BitCount = 141 ID = 271368256x
   4.149507 1  103D20BCx       Rx   d 1 00  Length = 2308248 BitCount = 81 ID = 272441532x
   4.153885 1  10ACE060x       Rx   d 8 1E 00 00 00 00 00 00 00  Length = 4254562 BitCount = 146 ID = 279765088x
   4.158209 1  102CA040x       Rx   d 8 00 00 00 00 4B 00 F1 00  Length = 4198223 BitCount = 144 ID = 271360064x
   4.162470 1  10AE8060x       Rx   d 8 03 0E 01 01 04 05 00 00  Length = 4138208 BitCount = 142 ID = 279871584x
   4.166818 1  10264040x       Rx   d 8 04 0E 00 00 00 00 00 00  Length = 4224562 BitCount = 145 ID = 270942272x
   4.171074 1  10AEC099x       Rx   d 8 08 24 04 40 00 00 00 2A  Length = 4130920 BitCount = 142 ID = 279888025x
   4.175458 1  10210040x       Rx   d 8 00 00 20 00 80 00 20 00  Length = 4258223 BitCount = 146 ID = 270598208x
   4.178364 1  106D4099x       Rx   d 3 10 00 28  Length = 2784638 BitCount = 97 ID = 275595417x
   4.182717 1  10AEC0BBx       Rx   d 8 08 00 00 00 00 00 00 30  Length = 4228208 BitCount = 145 ID = 279888059x
   4.186890 1  C28C040x        Rx   d 8 01 A1 8D 9B C0 02 2F 7C  Length = 4048212 BitCount = 139 ID = 203997248x
   4.191146 1  10B02099x       Rx   d 8 00 06 07 01 00 00 00 06  Length = 4134566 BitCount = 142 ID = 279978137x
   4.195586 1  10220040x       Rx   d 8 10 00 00 00 00 00 00 00  Length = 4318208 BitCount = 148 ID = 270663744x
   4.197956 1  10724099x       Rx   d 1 00  Length = 2248252 BitCount = 79 ID = 275923097x
   4.200324 1  1072A099x       Rx   d 1 01  Length = 2244690 BitCount = 79 ID = 275947673x
   4.204703 1  1022E040x       Rx   d 8 38 00 00 00 38 00 00 00  Length = 4254562 BitCount = 146 ID = 270721088x
   4.208453 1  10734099x       Rx   d 6 10 00 00 7D 00 00  Length = 3624586 BitCount = 125 ID = 275988633x
   4.212892 1  10230040x       Rx   d 8 08 00 00 00 08 00 00 00  Length = 4314558 BitCount = 148 ID = 270729280x
   4.215266 1  1076C099x       Rx   d 1 00  Length = 2248252 BitCount = 79 ID = 276218009x
   4.219677 1  1022A040x       Rx   d 8 00 B0 00 00 00 00 00 00  Length = 4288208 BitCount = 147 ID = 270704704x
   4.223934 1  10B02099x       Rx   d 8 00 06 07 01 00 00 00 05  Length = 4134566 BitCount = 142 ID = 279978137x
   4.227837 1  1022C040x       Rx   d 6 00 00 00 00 00 00  Length = 3781850 BitCount = 130 ID = 270712896x
   4.231043 1  10814099x       Rx   d 4 00 00 00 00  Length = 3084618 BitCount = 107 ID = 276906137x
   4.235392 1  10240040x       Rx   d 8 80 00 88 01 00 44 00 00  Length = 4224577 BitCount = 145 ID = 270794816x
   4.238306 1  10B0A060x       Rx   d 3 00 1E 04  Length = 2788236 BitCount = 97 ID = 280010848x
   4.242567 1  10AE8060x       Rx   d 8 03 0E 01 01 04 05 00 00  Length = 4138208 BitCount = 142 ID = 279871584x
   4.245268 1  10250040x       Rx   d 2 00 01  Length = 2578240 BitCount = 90 ID = 270860352x
   4.247490 1  13FFE058x       Rx   d 0  Length = 2098256 BitCount = 74 ID = 335536216x
   4.249708 1  13FFE060x       Rx   d 0  Length = 2094710 BitCount = 74 ID = 335536224x
   4.251900 1  13FFE068x       Rx   d 0  Length = 2068260 BitCount = 73 ID = 335536232x
   4.256224 1  102CA040x       Rx   d 8 00 00 00 00 4B 00 F1 00  Length = 4198223 BitCount = 144 ID = 271360064x
   4.258415 1  13FFE080x       Rx   d 0  Length = 2068275 BitCount = 73 ID = 335536256x
   4.260634 1  13FFE058x       Rx   d 0  Length = 2094725 BitCount = 74 ID = 335536216x
   4.264986 1  10264040x       Rx   d 8 04 0E 00 00 00 00 00 00  Length = 4228208 BitCount = 145 ID = 270942272x
   4.269366 1  10ACE060x       Rx   d 8 1E 00 00 00 00 00 00 00  Length = 4258208 BitCount = 146 ID = 279765088x
   4.271559 1  13FFE068x       Rx   d 0  Length = 2068260 BitCount = 73 ID = 335536232x
   4.275967 1  10210040x       Rx   d 8 00 00 20 00 00 00 20 00  Length = 4284562 BitCount = 147 ID = 270598208x
   4.280317 1  10AE8060x       Rx   d 8 00 16 01 08 00 00 00 00  Length = 4224562 BitCount = 145 ID = 279871584x
   4.284761 1  10220040x       Rx   d 8 10 00 00 00 00 00 00 00  Length = 4318208 BitCount = 148 ID = 270663744x
   4.286951 1  13FFE099x       Rx   d 0  Length = 2068260 BitCount = 73 ID = 335536281x
   4.291393 1  1022E040x       Rx   d 8 00 00 00 00 00 00 00 00  Length = 4318208 BitCount = 148 ID = 270721088x
   4.295650 1  10AEC099x       Rx   d 8 08 24 04 40 00 00 00 2A  Length = 4134566 BitCount = 142 ID = 279888025x
   4.300029 1  10230040x       Rx   d 8 10 00 00 00 10 00 00 00  Length = 4254562 BitCount = 146 ID = 270729280x
   4.302219 1  13FFE0AFx       Rx   d 0  Length = 2064714 BitCount = 73 ID = 335536303x
   4.304381 1  13FFE0BBx       Rx   d 0  Length = 2038260 BitCount = 72 ID = 335536315x
   4.308733 1  10ACA0BBx       Rx   d 8 2F 80 00 00 00 00 00 00  Length = 4228208 BitCount = 145 ID = 279748795x
   4.312963 1  102CC040x       Rx   d 8 01 00 CF 00 00 50 06 8D  Length = 4108212 BitCount = 141 ID = 271368256x
   4.315126 1  13FFE0BBx       Rx   d 0  Length = 2038260 BitCount = 72 ID = 335536315x
   4.319478 1  10240040x       Rx   d 8 80 00 88 01 00 44 00 00  Length = 4228208 BitCount = 145 ID = 270794816x
   4.323798 1  10AEC0BBx       Rx   d 8 08 00 00 00 00 00 00 2F  Length = 4198208 BitCount = 144 ID = 279888059x
   4.328087 1  102CE040x       Rx   d 8 40 00 32 00 00 00 06 CA  Length = 4164581 BitCount = 143 ID = 271376448x
   4.330278 1  13FFE0AFx       Rx   d 0  Length = 2064714 BitCount = 73 ID = 335536303x
   4.333876 1  102C0040x       Rx   d 5 00 00 00 00 00  Length = 3474594 BitCount = 120 ID = 271319104x
   4.336069 1  13FFE0BCx       Rx   d 0  Length = 2068260 BitCount = 73 ID = 335536316x
   4.340391 1  102CA040x       Rx   d 8 00 00 00 00 4B 00 F1 00  Length = 4198208 BitCount = 144 ID = 271360064x
   4.342821 1  103D20BCx       Rx   d 1 00  Length = 2304686 BitCount = 81 ID = 272441532x
   4.346036 1  10AC00BCx       Rx   d 4 00 08 19 00  Length = 3088228 BitCount = 107 ID = 279707836x
   4.350325 1  102CE040x       Rx   d 8 40 00 32 00 00 00 06 CA  Length = 4168208 BitCount = 143 ID = 271376448x
   4.354075 1  10734099x       Rx   d 6 10 00 00 7D 00 00  Length = 3624586 BitCount = 125 ID = 275988633x
   4.358518 1  10ACA0BCx       Rx   d 8 00 00 00 00 00 00 00 00  Length = 4318208 BitCount = 148 ID = 279748796x
   4.360952 1  10242040x       Rx   d 1 01  Length = 2308248 BitCount = 81 ID = 270803008x
   4.363894 1  10B0A060x       Rx   d 3 00 2B 04  Length = 2818232 BitCount = 98 ID = 280010848x
   4.365427 1  100             Rx   d 0  Length = 1408315 BitCount = 51 ID = 256
   4.369838 1  10210040x       Rx   d 8 00 00 20 00 00 00 20 00  Length = 4288208 BitCount = 147 ID = 270598208x
   4.372538 1  10250040x       Rx   d 2 00 01  Length = 2578240 BitCount = 90 ID = 270860352x
   4.376886 1  10ACE060x       Rx   d 8 2B 00 00 00 00 00 00 00  Length = 4224577 BitCount = 145 ID = 279765088x
   4.381326 1  10220040x       Rx   d 8 10 00 00 00 00 00 00 00  Length = 4314558 BitCount = 148 ID = 270663744x
   4.385470 1  1036A080x       Rx   d 7 01 00 00 00 00 00 00  Length = 4018212 BitCount = 138 ID = 272015488x
   4.389879 1  1022E040x       Rx   d 8 20 00 00 00 20 00 00 00  Length = 4284562 BitCount = 147 ID = 270721088x
   4.392074 1  13FFE0BCx       Rx   d 0  Length = 2068260 BitCount = 73 ID = 335536316x
   4.396393 1  10AFC060x       Rx   d 8 38 FF FF FF FF FF FF 2B  Length = 4194562 BitCount = 144 ID = 279953504x
   4.400775 1  10230040x       Rx   d 8 30 00 00 00 30 00 00 00  Length = 4254562 BitCount = 146 ID = 270729280x
   4.405031 1  10AEC099x       Rx   d 8 08 24 04 40 00 00 00 2A  Length = 4130920 BitCount = 142 ID = 279888025x
   4.409381 1  10264040x       Rx   d 8 04 0E 00 00 00 00 00 00  Length = 4224562 BitCount = 145 ID = 270942272x
   4.414186 1  102D0040x       Rx   d 8 01 00 01 00 48 00 00 FF  Length = 4198208 BitCount = 144 ID = 271384640x
   4.419228 1  10240040x       Rx   d 8 80 00 88 01 00 44 00 00  Length = 4228208 BitCount = 145 ID = 270794816x
   4.424182 1  102E0040x       Rx   d 8 00 00 CA 00 89 00 5D 71  Length = 4108212 BitCount = 141 ID = 271450176x
   4.429191 1  102D0040x       Rx   d 8 01 00 01 00 48 00 00 FF  Length = 4194562 BitCount = 144 ID = 271384640x
   4.432225 1  1038C040x       Rx   d 1 00  Length = 2278263 BitCount = 80 ID = 272154688x
   4.439245 1  102CA040x       Rx   d 8 00 00 00 00 4B 00 F1 00  Length = 4194562 BitCount = 144 ID = 271360064x
   4.444199 1  102E0040x       Rx   d 8 00 00 CA 00 89 00 5D 71  Length = 4108212 BitCount = 141 ID = 271450176x
   4.446422 1  13FFE060x       Rx   d 0  Length = 2098256 BitCount = 74 ID = 335536224x
   4.449060 1  103A6040x       Rx   d 2 44 54  Length = 2514662 BitCount = 88 ID = 272261184x
   4.451493 1  103D20BCx       Rx   d 1 00  Length = 2308248 BitCount = 81 ID = 272441532x
   4.453896 1  103B4040x       Rx   d 1 04  Length = 2278263 BitCount = 80 ID = 272318528x
   4.457644 1  624             Rx   d 8 01 20 00 00 00 00 00 00  Length = 3624586 BitCount = 125 ID = 1572
   4.461994 1  10264040x       Rx   d 8 04 0E 00 00 00 00 00 00  Length = 4224562 BitCount = 145 ID = 270942272x
   4.464428 1  10244060x       Rx   d 1 00  Length = 2308248 BitCount = 81 ID = 270811232x
   4.466856 1  103BC060x       Rx   d 1 00  Length = 2304686 BitCount = 81 ID = 272351328x
   4.469258 1  C2F6040x        Rx   d 1 00  Length = 2274686 BitCount = 80 ID = 204431424x
   4.471484 1  13FFE060x       Rx   d 0  Length = 2098256 BitCount = 74 ID = 335536224x
   4.473886 1  C2F8040x        Rx   d 1 00  Length = 2278263 BitCount = 80 ID = 204439616x
   4.476314 1  103D6060x       Rx   d 1 00  Length = 2304686 BitCount = 81 ID = 272457824x
   4.478718 1  C2FA040x        Rx   d 1 00  Length = 2278252 BitCount = 80 ID = 204447808x
   4.481177 1  103DA060x       Rx   d 1 00  Length = 2334697 BitCount = 82 ID = 272474208x
   4.483551 1  C630040x        Rx   d 1 80  Length = 2248267 BitCount = 79 ID = 207814720x
   4.485953 1  1045C060x       Rx   d 1 00  Length = 2278263 BitCount = 80 ID = 273006688x
   4.488325 1  C714040x        Rx   d 1 0F  Length = 2248252 BitCount = 79 ID = 208748608x
   4.491233 1  106D4099x       Rx   d 3 00 00 71  Length = 2784638 BitCount = 97 ID = 275595417x
   4.495650 1  10210040x       Rx   d 8 00 00 20 00 00 00 20 00  Length = 4291858 BitCount = 147 ID = 270598208x
   4.498051 1  10812060x       Rx   d 1 00  Length = 2278263 BitCount = 80 ID = 276897888x
   4.500420 1  1084A060x       Rx   d 1 00  Length = 2244690 BitCount = 79 ID = 277127264x
   4.504861 1  10220040x       Rx   d 8 10 00 00 00 00 00 00 00  Length = 4314558 BitCount = 148 ID = 270663744x
   4.509241 1  10ACE060x       Rx   d 8 1E 00 00 00 00 00 00 00  Length = 4254562 BitCount = 146 ID = 279765088x
   4.513651 1  1022A040x       Rx   d 8 00 B0 00 00 00 00 00 00  Length = 4284562 BitCount = 147 ID = 270704704x
   4.517916 1  10AE8060x       Rx   d 8 03 0E 01 01 04 05 00 00  Length = 4138208 BitCount = 142 ID = 279871584x
   4.521818 1  1022C040x       Rx   d 6 00 00 00 00 00 00  Length = 3778216 BitCount = 130 ID = 270712896x
   4.526046 1  10AEC099x       Rx   d 8 08 44 04 40 20 00 00 2A  Length = 4104566 BitCount = 141 ID = 279888025x
   4.530484 1  1022E040x       Rx   d 8 00 00 00 00 00 00 00 00  Length = 4314573 BitCount = 148 ID = 270721088x
   4.532679 1  13FFE068x       Rx   d 0  Length = 2068260 BitCount = 73 ID = 335536232x
   4.534871 1  13FFE080x       Rx   d 0  Length = 2068260 BitCount = 73 ID = 335536256x
   4.539250 1  10230040x       Rx   d 8 10 00 00 00 10 00 00 00  Length = 4254562 BitCount = 146 ID = 270729280x
   4.543692 1  102AA080x       Rx   d 8 00 00 00 00 00 00 00 00  Length = 4314558 BitCount = 148 ID = 271229056x
   4.548041 1  10240040x       Rx   d 8 80 00 88 01 00 41 00 00  Length = 4224577 BitCount = 145 ID = 270794816x
   4.550854 CAN 1 Status:chip status error active  - TxErr: 0 RxErr: 1
   4.550862 1  ErrorFrame	Flags = 0xfffe	CodeExt = 0x2072	Code = 0x81	ID = 0x902c2080	DLC = 3	Position = 80	Length = 2694375	Data = 0  0  0
   4.553463 CAN 1 Status:chip status error active
   4.553680 1  10242040x       Rx   d 1 01  Length = 2304686 BitCount = 81 ID = 270803008x
   4.556685 1  102C2080x       Rx   d 3 00 00 00  Length = 2878247 BitCount = 100 ID = 271327360x
   4.560707 1  10248040x       Rx   d 7 00 00 60 F6 F5 FF 00  Length = 3898227 BitCount = 134 ID = 270827584x
   4.564849 1  1036A080x       Rx   d 7 01 00 00 00 00 00 00  Length = 4018212 BitCount = 138 ID = 272015488x
   4.567281 1  103D20BCx       Rx   d 1 00  Length = 2308248 BitCount = 81 ID = 272441532x
   4.571689 1  10210040x       Rx   d 8 00 00 20 00 00 00 20 00  Length = 4284562 BitCount = 147 ID = 270598208x
   4.574391 1  106D0080x       Rx   d 2 00 00  Length = 2574658 BitCount = 90 ID = 275579008x
   4.578741 1  10AE8060x       Rx   d 8 00 16 01 08 00 00 00 00  Length = 4224562 BitCount = 145 ID = 279871584x
   4.583185 1  10220040x       Rx   d 8 10 00 00 00 00 00 00 00  Length = 4318223 BitCount = 148 ID = 270663744x
   4.585381 1  13FFE080x       Rx   d 0  Length = 2068260 BitCount = 73 ID = 335536256x
   4.589790 1  1022E040x       Rx   d 8 20 00 00 00 20 00 00 00  Length = 4284562 BitCount = 147 ID = 270721088x
   4.592584 1  10250040x       Rx   d 2 00 03  Length = 2608255 BitCount = 91 ID = 270860352x
   4.599247 1  10230040x       Rx   d 8 30 00 00 00 30 00 00 00  Length = 4258208 BitCount = 146 ID = 270729280x
   4.602310 1  10242040x       Rx   d 1 01  Length = 2308248 BitCount = 81 ID = 270803008x
   4.609273 1  10264040x       Rx   d 8 04 0E 00 00 00 00 00 00  Length = 4228208 BitCount = 145 ID = 270942272x
   4.614282 1  102CA040x       Rx   d 8 00 00 00 00 4B 00 F1 00  Length = 4194577 BitCount = 144 ID = 271360064x
   4.618635 1  10ACE060x       Rx   d 8 2B 00 00 00 00 00 00 00  Length = 4224562 BitCount = 145 ID = 279765088x
   4.622984 1  10240040x       Rx   d 8 80 00 88 01 00 41 00 00  Length = 4224562 BitCount = 145 ID = 270794816x
   4.625896 1  10424060x       Rx   d 3 05 86 8A  Length = 2784638 BitCount = 97 ID = 272777312x
   4.629345 1  102C0040x       Rx   d 5 44 05 A9 84 03  Length = 3324602 BitCount = 115 ID = 271319104x
   4.633571 1  10AEC099x       Rx   d 8 08 44 04 40 20 00 00 2A  Length = 4100924 BitCount = 141 ID = 279888025x
   4.637802 1  102CC040x       Rx   d 8 01 00 CF 00 00 51 06 8D  Length = 4104566 BitCount = 141 ID = 271368256x
   4.640683 1  10304058x       Rx   d 3 A9 84 01  Length = 2754657 BitCount = 96 ID = 271597656x
   4.645002 1  102CA040x       Rx   d 8 00 00 00 00 4B 00 F1 00  Length = 4194562 BitCount = 144 ID = 271360064x
   4.649324 1  10AFC060x       Rx   d 8 38 FF FF FF FF FF FF 2B  Length = 4194577 BitCount = 144 ID = 279953504x
   4.654248 1  102CE040x       Rx   d 8 40 00 32 00 00 00 06 CA  Length = 4168208 BitCount = 143 ID = 271376448x
   4.659261 1  10264040x       Rx   d 8 04 0E 00 00 00 00 00 00  Length = 4228208 BitCount = 145 ID = 270942272x
   4.664270 1  102D0040x       Rx   d 8 01 00 01 00 48 00 00 FF  Length = 4194562 BitCount = 144 ID = 271384640x
   4.667215 1  10308060x       Rx   d 3 A9 84 01  Length = 2818232 BitCount = 98 ID = 271614048x
   4.671627 1  10210040x       Rx   d 8 00 00 20 00 00 00 20 00  Length = 4288208 BitCount = 147 ID = 270598208x
   4.680988 1  103D20BCx       Rx   d 1 00  Length = 2308248 BitCount = 81 ID = 272441532x
   4.685458 1  10220040x       Rx   d 8 10 00 00 00 0F FC 00 00  Length = 4344558 BitCount = 149 ID = 270663744x
   4.690676 1  10306099x       Rx   d 3 A9 84 01  Length = 2724642 BitCount = 95 ID = 271605913x
   4.695114 1  1022E040x       Rx   d 8 00 00 00 00 00 00 00 00  Length = 4314558 BitCount = 148 ID = 270721088x
   4.704270 1  10230040x       Rx   d 8 10 00 00 00 10 00 00 00  Length = 4258208 BitCount = 146 ID = 270729280x
   4.707602 1  10250040x       Rx   d 2 00 01  Length = 2578240 BitCount = 90 ID = 270860352x
   4.713572 1  103D4040x       Rx   d 6 24 24 40 3F 3D 46  Length = 3534590 BitCount = 122 ID = 272449600x
   4.719366 1  1022A040x       Rx   d 8 00 B0 00 00 00 00 00 00  Length = 4288208 BitCount = 147 ID = 270704704x
   4.723805 1  1022C040x       Rx   d 6 00 00 00 00 00 00  Length = 3774593 BitCount = 130 ID = 270712896x
   4.729300 1  10240040x       Rx   d 8 83 FF 88 01 00 41 00 00  Length = 4228208 BitCount = 145 ID = 270794816x
   4.733740 1  103DC040x       Rx   d 6 05 85 00 00 00 00  Length = 3714597 BitCount = 128 ID = 272482368x
   4.739294 1  102CA040x       Rx   d 8 00 00 00 00 4B 00 F1 00  Length = 4198208 BitCount = 144 ID = 271360064x
   4.743523 1  10AEC099x       Rx   d 8 08 44 04 40 20 00 00 2A  Length = 4104566 BitCount = 141 ID = 279888025x
   4.745952 1  10428040x       Rx   d 1 00  Length = 2304686 BitCount = 81 ID = 272793664x
   4.754207 1  102CC040x       Rx   d 8 01 00 CF 00 00 52 06 8D  Length = 4108223 BitCount = 141 ID = 271368256x
   4.759280 1  10264040x       Rx   d 8 04 0E 00 00 00 00 00 00  Length = 4228223 BitCount = 145 ID = 270942272x
   4.764259 1  102CE040x       Rx   d 8 40 00 32 00 00 00 06 CA  Length = 4164566 BitCount = 143 ID = 271376448x
   4.769364 1  10210040x       Rx   d 8 00 00 20 00 00 00 20 00  Length = 4288223 BitCount = 147 ID = 270598208x
   4.773533 1  10466040x       Rx   d 5 00 00 00 00 00  Length = 3444598 BitCount = 119 ID = 273047616x
   4.776474 1  10308060x       Rx   d 3 A9 84 01  Length = 2814649 BitCount = 98 ID = 271614048x
   4.780852 1  10220040x       Rx   d 8 10 00 00 00 0F FB 00 00  Length = 4254562 BitCount = 146 ID = 270663744x
   4.789318 1  1022E040x       Rx   d 8 20 00 00 00 20 00 00 00  Length = 4288223 BitCount = 147 ID = 270721088x
   4.791748 1  103D20BCx       Rx   d 1 00  Length = 2308248 BitCount = 81 ID = 272441532x
   4.795347 1  1046A040x       Rx   d 5 00 00 00 00 00  Length = 3474609 BitCount = 120 ID = 273064000x
   4.804101 CAN 1 Status:chip status error active  - TxErr: 0 RxErr: 1
   4.804109 1  ErrorFrame	Flags = 0xfffe	CodeExt = 0x2072	Code = 0x81	ID = 0x90230040	DLC = 8	Position = 120	Length = 4074375	Data = 0x30  0  0  0  0x30  0  0  0
   4.808660 CAN 1 Status:chip status error active
   4.808878 1  10230040x       Rx   d 8 30 00 00 00 30 00 00 00  Length = 4254562 BitCount = 146 ID = 270729280x
   4.812359 1  105A2040x       Rx   d 1 00  Length = 2304686 BitCount = 81 ID = 274341952x
   4.819290 1  10240040x       Rx   d 8 83 FF 88 01 00 41 00 00  Length = 4224562 BitCount = 145 ID = 270794816x
   4.822621 1  10250040x       Rx   d 2 00 01  Length = 2574658 BitCount = 90 ID = 270860352x
   4.828355 1  1062C040x       Rx   d 5 00 00 CA 13 04  Length = 3328224 BitCount = 115 ID = 274907200x
   4.832645 1  10632040x       Rx   d 2 00 00  Length = 2604654 BitCount = 91 ID = 274931776x
   4.839309 1  102CA040x       Rx   d 8 00 00 00 00 4B 00 F1 00  Length = 4198208 BitCount = 144 ID = 271360064x
   4.842789 1  10644040x       Rx   d 3 02 F6 F6  Length = 2754642 BitCount = 96 ID = 275005504x
   4.847320 1  10646040x       Rx   d 1 20  Length = 2274701 BitCount = 80 ID = 275013696x
   4.851729 1  10734099x       Rx   d 6 10 00 00 7D 00 00  Length = 3624586 BitCount = 125 ID = 275988633x
   4.854369 1  1064A040x       Rx   d 2 28 2D  Length = 2514662 BitCount = 88 ID = 275030080x
   4.859322 1  10264040x       Rx   d 8 04 0E 00 00 00 00 00 00  Length = 4224562 BitCount = 145 ID = 270942272x
   4.862296 1  106B0040x       Rx   d 1 02  Length = 2278252 BitCount = 80 ID = 275447872x
   4.869376 1  10210040x       Rx   d 8 00 00 20 00 00 00 20 00  Length = 4284562 BitCount = 147 ID = 270598208x
   4.874510 1  106B8040x       Rx   d 8 00 00 00 00 00 00 00 00  Length = 4318208 BitCount = 148 ID = 275480640x
   4.877303 1  C630040x        Rx   d 1 80  Length = 2248252 BitCount = 79 ID = 207814720x
   4.886397 1  10308060x       Rx   d 3 A9 84 01  Length = 2818232 BitCount = 98 ID = 271614048x
   4.890779 1  10220040x       Rx   d 8 10 00 00 00 0F FB 00 00  Length = 4258208 BitCount = 146 ID = 270663744x
   4.893959 1  10AC0099x       Rx   d 4 00 00 07 00  Length = 3054618 BitCount = 106 ID = 279707801x
   4.898216 1  10ACA099x       Rx   d 8 2A 21 20 00 00 00 00 00  Length = 4134566 BitCount = 142 ID = 279748761x
   4.902596 1  1022E040x       Rx   d 8 10 00 00 00 10 00 00 00  Length = 4258208 BitCount = 146 ID = 270721088x
   4.905030 1  103D20BCx       Rx   d 1 00  Length = 2308248 BitCount = 81 ID = 272441532x
   4.909412 1  10230040x       Rx   d 8 20 00 00 00 20 00 00 00  Length = 4258223 BitCount = 146 ID = 270729280x
   4.913640 1  10AEC099x       Rx   d 8 08 44 04 40 20 00 00 2A  Length = 4104566 BitCount = 141 ID = 279888025x
   4.916073 1  10242040x       Rx   d 1 01  Length = 2308248 BitCount = 81 ID = 270803008x
   4.924356 1  10240040x       Rx   d 8 83 FF 88 01 00 41 00 00  Length = 4228208 BitCount = 145 ID = 270794816x
   4.928379 1  102C0040x       Rx   d 5 44 05 A9 84 03  Length = 3328224 BitCount = 115 ID = 271319104x
   4.934442 1  106B8040x       Rx   d 8 00 00 00 00 00 00 00 00  Length = 4318223 BitCount = 148 ID = 275480640x
   4.937651 1  10250040x       Rx   d 2 00 01  Length = 2574658 BitCount = 90 ID = 270860352x
   4.940533 1  10304058x       Rx   d 3 A9 84 01  Length = 2754642 BitCount = 96 ID = 271597656x
   4.944852 1  102CA040x       Rx   d 8 00 00 00 00 4B 00 F1 00  Length = 4194562 BitCount = 144 ID = 271360064x
   4.948393 1  1062C040x       Rx   d 5 00 00 CA 13 04  Length = 3324602 BitCount = 115 ID = 274907200x
   4.953374 1  106C0040x       Rx   d 5 00 03 D1 C6 00  Length = 3324602 BitCount = 115 ID = 275513408x
   4.959317 1  10264040x       Rx   d 8 04 0E 00 00 00 00 00 00  Length = 4224562 BitCount = 145 ID = 270942272x
   4.962828 1  10644040x       Rx   d 3 02 F6 F6  Length = 2754642 BitCount = 96 ID = 275005504x
   4.969403 1  10210040x       Rx   d 8 00 00 20 00 00 00 20 00  Length = 4288223 BitCount = 147 ID = 270598208x
   4.974445 1  1022A040x       Rx   d 8 00 B0 00 00 00 00 00 00  Length = 4288208 BitCount = 147 ID = 270704704x
   4.979663 1  10220040x       Rx   d 8 10 00 00 00 0F FC 00 00  Length = 4344558 BitCount = 149 ID = 270663744x
   4.983867 1  1022C040x       Rx   d 6 00 00 00 00 00 00  Length = 3778216 BitCount = 130 ID = 270712896x
   4.989360 1  1022E040x       Rx   d 8 20 00 00 00 20 00 00 00  Length = 4288208 BitCount = 147 ID = 270721088x
   4.992209 1  10306099x       Rx   d 3 A9 84 01  Length = 2724642 BitCount = 95 ID = 271605913x
   4.996262 1  10248040x       Rx   d 7 00 00 60 F6 F5 FE 00  Length = 3928212 BitCount = 135 ID = 270827584x
   4.999201 1  10308060x       Rx   d 3 A9 84 01  Length = 2814638 BitCount = 98 ID = 271614048x
   5.004301 1  10230040x       Rx   d 8 30 00 00 00 30 00 00 00  Length = 4254562 BitCount = 146 ID = 270729280x
   5.007366 1  10242040x       Rx   d 1 01  Length = 2308248 BitCount = 81 ID = 270803008x
   5.009886 1  103D20BCx       Rx   d 1 00  Length = 2308248 BitCount = 81 ID = 272441532x
   5.014172 1  10ACA099x       Rx   d 8 07 E0 0A 00 00 00 00 00  Length = 4160920 BitCount = 143 ID = 279748761x
   5.018406 1  102CC040x       Rx   d 8 01 00 CF 00 00 52 06 8D  Length = 4108212 BitCount = 141 ID = 271368256x
   5.024345 1  10240040x       Rx   d 8 80 00 88 01 00 41 00 00  Length = 4224562 BitCount = 145 ID = 270794816x
   5.027069 CAN 1 Status:chip status error active  - TxErr: 0 RxErr: 1
   5.027076 1  ErrorFrame	Flags = 0xfffe	CodeExt = 0x2072	Code = 0x81	ID = 0x90424060	DLC = 3	Position = 80	Length = 2604375	Data = 0x4  0x86  0x8a
   5.031537 CAN 1 Status:chip status error active
   5.031755 1  102CE040x       Rx   d 8 40 00 32 00 00 00 06 CA  Length = 4164566 BitCount = 143 ID = 271376448x
   5.034478 CAN 1 Status:chip status error active  - TxErr: 0 RxErr: 1
   5.034486 1  ErrorFrame	Flags = 0xfffe	CodeExt = 0x2072	Code = 0x81	ID = 0x90424060	DLC = 3	Position = 80	Length = 2604390	Data = 0x4  0x86  0x8a
   5.037570 CAN 1 Status:chip status error active
   5.037788 1  10424060x       Rx   d 3 04 86 8A  Length = 2788236 BitCount = 97 ID = 272777312x
   5.042107 1  102CA040x       Rx   d 8 00 00 00 00 4B 00 F1 00  Length = 4194562 BitCount = 144 ID = 271360064x
   5.047662 1  10250040x       Rx   d 2 00 01  Length = 2578240 BitCount = 90 ID = 270860352x
   5.048792 1  Statistic: D 2 R 0 XD 250 XR 0 E 4 O 0 B 90.73%
   5.048792 2  Statistic: D 0 R 0 XD 0 XR 0 E 0 O 0 B 0.00%
   5.049940 1  13FFE099x       Rx   d 0  Length = 2064714 BitCount = 73 ID = 335536281x
   5.054319 1  102D0040x       Rx   d 8 01 00 01 00 48 00 00 FF  Length = 4194577 BitCount = 144 ID = 271384640x
   5.059334 1  10264040x       Rx   d 8 04 0E 00 00 00 00 00 00  Length = 4228208 BitCount = 145 ID = 270942272x
   5.061526 1  13FFE0AFx       Rx   d 0  Length = 2068260 BitCount = 73 ID = 335536303x
   5.065785 1  102E0040x       Rx   d 8 00 00 CA 00 89 00 5E 71  Length = 4134566 BitCount = 142 ID = 271450176x
   5.074427 1  10210040x       Rx   d 8 00 00 20 00 00 00 20 00  Length = 4284573 BitCount = 147 ID = 270598208x
   5.079502 1  10220040x       Rx   d 8 10 00 00 00 0F FB 00 00  Length = 4258223 BitCount = 146 ID = 270663744x
   5.084451 1  106B8040x       Rx   d 8 00 00 00 00 00 00 00 00  Length = 4314573 BitCount = 148 ID = 275480640x
   5.089406 1  1022E040x       Rx   d 8 00 00 00 00 00 00 00 00  Length = 4318208 BitCount = 148 ID = 270721088x
   5.093399 1  106C0040x       Rx   d 5 00 03 D1 C6 00  Length = 3328224 BitCount = 115 ID = 275513408x
   5.099341 1  10230040x       Rx   d 8 10 00 00 00 10 00 00 00  Length = 4258223 BitCount = 146 ID = 270729280x
   5.101559 1  13FFE058x       Rx   d 0  Length = 2094710 BitCount = 74 ID = 335536216x
   5.104501 1  10308060x       Rx   d 3 A9 84 01  Length = 2818232 BitCount = 98 ID = 271614048x
   5.106903 1  10728040x       Rx   d 1 00  Length = 2278252 BitCount = 80 ID = 275939392x
   5.112963 1  10754040x       Rx   d 3 04 40 00  Length = 2844634 BitCount = 99 ID = 276119616x
   5.119354 1  10240040x       Rx   d 8 83 FF 88 01 00 41 0F FC  Length = 4224562 BitCount = 145 ID = 270794816x
   5.121783 1  103D20BCx       Rx   d 1 00  Length = 2304686 BitCount = 81 ID = 272441532x
   5.124759 1  10758040x       Rx   d 3 00 00 00  Length = 2848232 BitCount = 99 ID = 276136000x
   5.128238 1  1077C040x       Rx   d 4 30 30 01 F4  Length = 3144614 BitCount = 109 ID = 276283456x
   5.130240 CAN 1 Status:chip status error active  - TxErr: 0 RxErr: 1
   5.130247 1  ErrorFrame	Flags = 0xfffe	CodeExt = 0x2072	Code = 0x81	ID = 0x93ffe0bc	DLC = 0	Position = 56	Length = 1884390
   5.134865 CAN 1 Status:chip status error active
   5.135083 1  10780040x       Rx   d 8 00 00 01 00 08 00 00 00  Length = 4321858 BitCount = 148 ID = 276299840x
   5.137082 CAN 1 Status:chip status error active  - TxErr: 0 RxErr: 1
   5.137089 1  ErrorFrame	Flags = 0xfffe	CodeExt = 0x2072	Code = 0x81	ID = 0x93ffe0bc	DLC = 0	Position = 56	Length = 1884375
   5.139424 CAN 1 Status:chip status error active
   5.139641 1  13FFE0BBx       Rx   d 0  Length = 2038260 BitCount = 72 ID = 335536315x
   5.141833 1  13FFE0BCx       Rx   d 0  Length = 2068260 BitCount = 73 ID = 335536316x
   5.146155 1  102CA040x       Rx   d 8 00 00 00 00 4B 00 F1 00  Length = 4198208 BitCount = 144 ID = 271360064x
   5.153234 1  1077C040x       Rx   d 4 30 30 01 F4  Length = 3144614 BitCount = 109 ID = 276283456x
   5.156990 1  62C             Rx   d 8 00 40 00 00 00 00 00 00  Length = 3628216 BitCount = 125 ID = 1580
   5.159689 1  10250040x       Rx   d 2 00 01  Length = 2574658 BitCount = 90 ID = 270860352x
   5.163110 1  10400060x       Rx   d 5 86 28 04 FF 88  Length = 3294617 BitCount = 114 ID = 272629856x
   5.167461 1  10264040x       Rx   d 8 04 0E 00 00 00 00 00 00  Length = 4224577 BitCount = 145 ID = 270942272x
   5.174325 CAN 1 Status:chip status error active  - TxErr: 0 RxErr: 1
   5.174332 1  ErrorFrame	Flags = 0xfffe	CodeExt = 0x2072	Code = 0x81	ID = 0x90210040	DLC = 8	Position = 120	Length = 4104390	Data = 0  0  0x20  0  0  0  0x20  0
   5.178919 CAN 1 Status:chip status error active
   5.179137 1  10210040x       Rx   d 8 00 00 20 00 00 00 20 00  Length = 4288223 BitCount = 147 ID = 270598208x
   5.184446 1  10220040x       Rx   d 8 10 00 00 00 0F FB 00 00  Length = 4254562 BitCount = 146 ID = 270663744x
   5.189431 1  1022E040x       Rx   d 8 20 00 00 00 20 00 00 00  Length = 4288223 BitCount = 147 ID = 270721088x
   5.194530 1  10780040x       Rx   d 8 00 00 01 00 08 00 00 00  Length = 4314558 BitCount = 148 ID = 276299840x
   5.199365 1  10230040x       Rx   d 8 30 00 00 00 30 00 00 00  Length = 4258208 BitCount = 146 ID = 270729280x
   5.203924 1  10788040x       Rx   d 6 08 00 00 00 00 00  Length = 3774582 BitCount = 130 ID = 276332608x
   5.208489 1  1062C040x       Rx   d 5 00 00 CA 15 04  Length = 3358220 BitCount = 116 ID = 274907200x
   5.213828 1  10800040x       Rx   d 6 02 EC 00 00 00 00  Length = 3684597 BitCount = 127 ID = 276824128x
   5.216773 1  10308060x       Rx   d 3 A9 84 01  Length = 2818247 BitCount = 98 ID = 271614048x
   5.221181 1  1022A040x       Rx   d 8 00 B0 00 00 00 00 00 00  Length = 4284562 BitCount = 147 ID = 270704704x
   5.228927 1  1022C040x       Rx   d 6 00 00 00 00 00 00  Length = 3778216 BitCount = 130 ID = 270712896x
   5.231357 1  103D20BCx       Rx   d 1 00  Length = 2308248 BitCount = 81 ID = 272441532x
   5.235706 1  10240040x       Rx   d 8 83 FE 88 01 00 41 00 00  Length = 4224562 BitCount = 145 ID = 270794816x
   5.243478 1  102C0040x       Rx   d 5 44 05 A9 84 03  Length = 3324602 BitCount = 115 ID = 271319104x
   5.249393 1  102CA040x       Rx   d 8 00 00 00 00 4B 00 F1 00  Length = 4198208 BitCount = 144 ID = 271360064x
   5.254316 1  102CC040x       Rx   d 8 01 00 CF 00 00 53 06 8D  Length = 4138208 BitCount = 142 ID = 271368256x
   5.259385 1  10264040x       Rx   d 8 04 0E 00 00 00 00 00 00  Length = 4224562 BitCount = 145 ID = 270942272x
   5.262265 1  10304058x       Rx   d 3 A9 84 01  Length = 2754642 BitCount = 96 ID = 271597656x
   5.266558 1  102CE040x       Rx   d 8 40 00 32 00 00 00 06 CA  Length = 4168223 BitCount = 143 ID = 271376448x
   5.274451 1  10210040x       Rx   d 8 00 00 20 00 00 00 20 00  Length = 4288223 BitCount = 147 ID = 270598208x
   5.279434 1  10220040x       Rx   d 8 10 00 00 00 0F FA 00 00  Length = 4288208 BitCount = 147 ID = 270663744x
   5.282707 1  10250040x       Rx   d 2 00 01  Length = 2578240 BitCount = 90 ID = 270860352x
   5.289490 1  1022E040x       Rx   d 8 00 00 00 00 00 00 00 00  Length = 4318208 BitCount = 148 ID = 270721088x
   5.292338 1  10306099x       Rx   d 3 A9 84 01  Length = 2724642 BitCount = 95 ID = 271605913x
   5.296780 1  106B8040x       Rx   d 8 00 00 00 00 00 00 00 00  Length = 4318208 BitCount = 148 ID = 275480640x
   5.304369 1  10230040x       Rx   d 8 10 00 00 00 10 00 00 00  Length = 4254562 BitCount = 146 ID = 270729280x
   5.308000 1  10754040x       Rx   d 3 04 40 00  Length = 2844634 BitCount = 99 ID = 276119616x
   5.314545 1  10780040x       Rx   d 8 00 00 01 00 08 00 00 00  Length = 4318208 BitCount = 148 ID = 276299840x
   5.319408 1  10240040x       Rx   d 8 80 00 88 01 00 41 00 00  Length = 4228208 BitCount = 145 ID = 270794816x
   5.324061 1  10788040x       Rx   d 6 08 00 00 00 00 00  Length = 3778231 BitCount = 130 ID = 276332608x
   5.327001 1  10308060x       Rx   d 3 A9 84 01  Length = 2814638 BitCount = 98 ID = 271614048x
   5.330814 1  10800040x       Rx   d 6 02 EC 00 00 00 00  Length = 3688216 BitCount = 127 ID = 276824128x
   5.339458 1  102CA040x       Rx   d 8 00 00 00 00 4B 00 F1 00  Length = 4198208 BitCount = 144 ID = 271360064x
   5.341888 1  103D20BCx       Rx   d 1 00  Length = 2308248 BitCount = 81 ID = 272441532x
   5.345427 1  10806040x       Rx   d 5 00 00 00 00 19  Length = 3414598 BitCount = 118 ID = 276848704x
   5.351155 1  10734099x       Rx   d 6 10 00 00 7D 00 00  Length = 3624601 BitCount = 125 ID = 275988633x
   5.354963 1  10800040x       Rx   d 6 02 EC 00 00 00 00  Length = 3684597 BitCount = 127 ID = 276824128x
   5.359410 1  10264040x       Rx   d 8 04 0E 00 00 00 00 00 00  Length = 4228208 BitCount = 145 ID = 270942272x
   5.363583 1  10806040x       Rx   d 5 00 00 00 00 19  Length = 3418220 BitCount = 118 ID = 276848704x
   5.369465 1  10210040x       Rx   d 8 00 00 20 00 00 00 20 00  Length = 4288208 BitCount = 147 ID = 270598208x
   5.374505 1  10ACA040x       Rx   d 8 28 D0 00 00 00 00 00 00  Length = 4194562 BitCount = 144 ID = 279748672x
   5.379549 1  10220040x       Rx   d 8 10 00 00 00 0F FC 00 00  Length = 4348208 BitCount = 149 ID = 270663744x
   5.384292 1  10AEC040x       Rx   d 8 09 04 92 38 00 7F FF 28  Length = 4108212 BitCount = 141 ID = 279887936x
   5.389452 1  1022E040x       Rx   d 8 20 00 00 00 20 00 00 00  Length = 4284562 BitCount = 147 ID = 270721088x
   5.393945 CAN 1 Status:chip status error active  - TxErr: 0 RxErr: 1
   5.393953 1  ErrorFrame	Flags = 0xfffe	CodeExt = 0x2072	Code = 0x81	ID = 0x90ec4040	DLC = 8	Position = 120	Length = 3744375	Data = 0x4c  0x59  0x44  0x43  0x34  0x38  0x37  0x44
   5.398178 CAN 1 Status:chip status error active
   5.398395 1  10EC4040x       Rx   d 8 4C 59 44 43 34 38 37 44  Length = 3928212 BitCount = 135 ID = 283918400x
   5.404394 1  10230040x       Rx   d 8 30 00 00 00 30 00 00 00  Length = 4254562 BitCount = 146 ID = 270729280x
   5.407755 1  10250040x       Rx   d 2 00 01  Length = 2574658 BitCount = 90 ID = 270860352x
   5.414086 1  10EC4040x       Rx   d 8 4C 59 44 43 34 38 37 44  Length = 3924574 BitCount = 135 ID = 283918400x
   5.419461 1  10240040x       Rx   d 8 80 00 88 01 00 41 00 00  Length = 4228223 BitCount = 145 ID = 270794816x
   5.424504 1  106B8040x       Rx   d 8 00 00 00 00 00 00 00 00  Length = 4318208 BitCount = 148 ID = 275480640x
   5.428876 CAN 1 Status:chip status error active  - TxErr: 0 RxErr: 1
   5.428883 1  ErrorFrame	Flags = 0xfffe	CodeExt = 0x2072	Code = 0x81	ID = 0x90ec8040	DLC = 8	Position = 120	Length = 3714375	Data = 0x47  0x43  0x35  0x32  0x38  0x34  0x33  0x33
   5.433077 CAN 1 Status:chip status error active
   5.433294 1  10EC8040x       Rx   d 8 47 43 35 32 38 34 33 33  Length = 3894574 BitCount = 134 ID = 283934784x
   5.436238 1  10308060x       Rx   d 3 A9 84 01  Length = 2818232 BitCount = 98 ID = 271614048x
   5.440561 1  102CA040x       Rx   d 8 00 00 00 00 4B 00 F1 00  Length = 4198208 BitCount = 144 ID = 271360064x
   5.449021 1  10EC8040x       Rx   d 8 47 43 35 32 38 34 33 33  Length = 3894589 BitCount = 134 ID = 283934784x
   5.451455 1  103D20BCx       Rx   d 1 00  Length = 2308248 BitCount = 81 ID = 272441532x
   5.453648 1  13FFE040x       Rx   d 0  Length = 2068275 BitCount = 73 ID = 335536192x
   5.459441 1  10264040x       Rx   d 8 04 0E 00 00 00 00 00 00  Length = 4228208 BitCount = 145 ID = 270942272x
   5.463730 1  621             Rx   d 8 00 52 00 00 00 00 00 00  Length = 3594590 BitCount = 124 ID = 1569
   5.469525 1  10210040x       Rx   d 8 00 00 20 00 00 00 20 00  Length = 4288208 BitCount = 147 ID = 270598208x
   5.473214 1  631             Rx   d 8 01 10 00 00 00 00 00 00  Length = 3564590 BitCount = 123 ID = 1585
   5.477623 1  1022A040x       Rx   d 8 00 B0 00 00 00 00 00 00  Length = 4284573 BitCount = 147 ID = 270704704x
   5.480642 CAN 1 Status:chip status error active  - TxErr: 0 RxErr: 1
   5.480650 1  ErrorFrame	Flags = 0xfffe	CodeExt = 0x2072	Code = 0x81	ID = 0x90814099	DLC = 4	Position = 88	Length = 2900625	Data = 0  0  0  0
   5.485203 CAN 1 Status:chip status error active
   5.485420 1  10220040x       Rx   d 8 10 00 00 00 0F FB 00 00  Length = 4254562 BitCount = 146 ID = 270663744x
   5.488626 1  10814099x       Rx   d 4 00 00 00 00  Length = 3081008 BitCount = 107 ID = 276906137x
   5.490817 1  13FFE099x       Rx   d 0  Length = 2064714 BitCount = 73 ID = 335536281x
   5.493186 1  C630040x        Rx   d 1 80  Length = 2244690 BitCount = 79 ID = 207814720x
   5.496971 1  624             Rx   d 8 01 10 00 00 00 00 00 00  Length = 3658216 BitCount = 126 ID = 1572
   5.500869 1  1022C040x       Rx   d 6 00 00 00 00 00 00  Length = 3774593 BitCount = 130 ID = 270712896x
   5.503063 1  13FFE080x       Rx   d 0  Length = 2068275 BitCount = 73 ID = 335536256x
   5.506782 1  62C             Rx   d 8 01 12 00 00 00 00 00 00  Length = 3594590 BitCount = 124 ID = 1580
   5.511191 1  1022E040x       Rx   d 8 20 00 00 00 20 00 00 00  Length = 4284573 BitCount = 147 ID = 270721088x
   5.513625 1  10244060x       Rx   d 1 00  Length = 2308248 BitCount = 81 ID = 270811232x
   5.516054 1  103BC060x       Rx   d 1 00  Length = 2304686 BitCount = 81 ID = 272351328x
   5.521936 1  1045C060x       Rx   d 1 00  Length = 2274686 BitCount = 80 ID = 273006688x
   5.526318 1  10230040x       Rx   d 8 30 00 00 00 30 00 00 00  Length = 4254562 BitCount = 146 ID = 270729280x
   5.529978 1  102C6060x       Rx   d 6 00 33 0E 00 45 CA  Length = 3534590 BitCount = 122 ID = 271343712x
   5.532408 1  103D6060x       Rx   d 1 00  Length = 2304686 BitCount = 81 ID = 272457824x
   5.536759 1  10240040x       Rx   d 8 80 00 88 01 00 41 00 00  Length = 4224562 BitCount = 145 ID = 270794816x
   5.539220 1  103DA060x       Rx   d 1 00  Length = 2334682 BitCount = 82 ID = 272474208x
   5.542131 1  10424060x       Rx   d 3 04 86 8A  Length = 2784638 BitCount = 97 ID = 272777312x
   5.544564 1  10242040x       Rx   d 1 01  Length = 2308248 BitCount = 81 ID = 270803008x
   5.547506 1  10308060x       Rx   d 3 A9 84 01  Length = 2818247 BitCount = 98 ID = 271614048x
   5.551619 1  10248040x       Rx   d 7 00 00 60 F5 F5 FE 00  Length = 3988212 BitCount = 137 ID = 270827584x
   5.554018 1  10812060x       Rx   d 1 00  Length = 2274686 BitCount = 80 ID = 276897888x
   5.556389 1  1084A060x       Rx   d 1 00  Length = 2244690 BitCount = 79 ID = 277127264x
   5.559091 1  10250040x       Rx   d 2 00 01  Length = 2574658 BitCount = 90 ID = 270860352x
   5.561524 1  103D20BCx       Rx   d 1 00  Length = 2308248 BitCount = 81 ID = 272441532x
   5.565872 1  10264040x       Rx   d 8 04 0E 00 00 00 00 00 00  Length = 4224562 BitCount = 145 ID = 270942272x
   5.570253 1  10ACE060x       Rx   d 8 1E 00 00 00 00 00 00 00  Length = 4254562 BitCount = 146 ID = 279765088x
   5.574663 1  10210040x       Rx   d 8 00 00 20 00 00 00 20 00  Length = 4284573 BitCount = 147 ID = 270598208x
   5.578924 1  10AE8060x       Rx   d 8 03 0E 01 01 04 05 00 00  Length = 4134566 BitCount = 142 ID = 279871584x
   5.583395 1  10220040x       Rx   d 8 10 00 00 00 0F FC 00 00  Length = 4344573 BitCount = 149 ID = 270663744x
   5.585620 1  13FFE060x       Rx   d 0  Length = 2098271 BitCount = 74 ID = 335536224x
   5.590028 1  1022E040x       Rx   d 8 20 00 00 00 20 00 00 00  Length = 4284562 BitCount = 147 ID = 270721088x
   5.592519 1  10242040x       Rx   d 1 01  Length = 2304697 BitCount = 81 ID = 270803008x
   5.599420 1  10230040x       Rx   d 8 30 00 00 00 30 00 00 00  Length = 4254562 BitCount = 146 ID = 270729280x
   5.602633 1  10814099x       Rx   d 4 00 00 00 00  Length = 3084618 BitCount = 107 ID = 276906137x
   5.606085 1  102C0040x       Rx   d 5 44 05 A9 84 03  Length = 3328224 BitCount = 115 ID = 271319104x
   5.610347 1  10AE8060x       Rx   d 8 03 0E 01 01 04 05 00 00  Length = 4138208 BitCount = 142 ID = 279871584x
   5.612717 1  C630040x        Rx   d 1 80  Length = 2244690 BitCount = 79 ID = 207814720x
   5.619502 1  10240040x       Rx   d 8 80 00 88 01 00 41 00 00  Length = 4228223 BitCount = 145 ID = 270794816x
   5.622380 1  10304058x       Rx   d 3 A9 84 01  Length = 2754642 BitCount = 96 ID = 271597656x
   5.624809 1  10244060x       Rx   d 1 00  Length = 2304686 BitCount = 81 ID = 270811232x
   5.629131 1  102CA040x       Rx   d 8 00 00 00 00 4B 00 F1 00  Length = 4194562 BitCount = 144 ID = 271360064x
   5.631563 1  103BC060x       Rx   d 1 00  Length = 2304697 BitCount = 81 ID = 272351328x
   5.635823 1  102CC040x       Rx   d 8 01 00 CF 00 00 54 06 8D  Length = 4134566 BitCount = 142 ID = 271368256x
   5.638225 1  1045C060x       Rx   d 1 00  Length = 2274701 BitCount = 80 ID = 273006688x
   5.641076 1  10306099x       Rx   d 3 A9 84 01  Length = 2724642 BitCount = 95 ID = 271605913x
   5.645395 1  102CA040x       Rx   d 8 00 00 00 00 4B 00 F1 00  Length = 4194562 BitCount = 144 ID = 271360064x
   5.649747 1  10AE8060x       Rx   d 8 00 16 01 08 00 00 00 00  Length = 4224562 BitCount = 145 ID = 279871584x
   5.654461 1  102CE040x       Rx   d 8 40 00 32 00 00 00 06 CA  Length = 4168208 BitCount = 143 ID = 271376448x
   5.657400 1  10308060x       Rx   d 3 A9 84 01  Length = 2814638 BitCount = 98 ID = 271614048x
   5.661750 1  10264040x       Rx   d 8 04 0E 00 00 00 00 00 00  Length = 4224562 BitCount = 145 ID = 270942272x
   5.666130 1  106D0080x       Rx   d 2 00 00  Length = 2574658 BitCount = 90 ID = 275579008x
   5.670542 1  10210040x       Rx   d 8 00 00 20 00 00 00 20 00  Length = 4284562 BitCount = 147 ID = 270598208x
   5.672975 1  103D20BCx       Rx   d 1 00  Length = 2308248 BitCount = 81 ID = 272441532x
   5.677353 1  10ACE060x       Rx   d 8 1E 00 00 00 00 00 00 00  Length = 4254562 BitCount = 146 ID = 279765088x
   5.681823 1  10220040x       Rx   d 8 10 00 00 00 0F FC 00 00  Length = 4344558 BitCount = 149 ID = 270663744x
   5.684019 1  13FFE068x       Rx   d 0  Length = 2068260 BitCount = 73 ID = 335536232x
   5.689541 1  1022E040x       Rx   d 8 00 00 00 00 00 00 00 00  Length = 4318208 BitCount = 148 ID = 270721088x
   5.692784 1  10250040x       Rx   d 2 00 01  Length = 2578255 BitCount = 90 ID = 270860352x
   5.699447 1  10230040x       Rx   d 8 10 00 00 00 10 00 00 00  Length = 4258208 BitCount = 146 ID = 270729280x
   5.704490 1  102D0040x       Rx   d 8 01 00 01 00 48 00 00 FF  Length = 4198223 BitCount = 144 ID = 271384640x
   5.709559 1  106B8040x       Rx   d 8 00 00 00 00 00 00 00 00  Length = 4314573 BitCount = 148 ID = 275480640x
   5.713070 1  10754040x       Rx   d 3 04 40 00  Length = 2844634 BitCount = 99 ID = 276119616x
   5.719585 1  1022A040x       Rx   d 8 00 B0 00 00 00 00 00 00  Length = 4288208 BitCount = 147 ID = 270704704x
   5.724024 1  1022C040x       Rx   d 6 00 00 00 00 00 00  Length = 3774582 BitCount = 130 ID = 270712896x
   5.729519 1  10240040x       Rx   d 8 80 00 88 01 00 41 00 00  Length = 4228208 BitCount = 145 ID = 270794816x
   5.734682 1  10780040x       Rx   d 8 00 00 01 00 08 00 00 00  Length = 4318208 BitCount = 148 ID = 276299840x
   5.739575 1  102CA040x       Rx   d 8 00 00 00 00 4B 00 F1 00  Length = 4198208 BitCount = 144 ID = 271360064x
   5.744048 1  10788040x       Rx   d 6 08 00 00 00 00 00  Length = 3778216 BitCount = 130 ID = 276332608x
   5.749447 1  102CC040x       Rx   d 8 01 00 CF 00 00 54 06 8D  Length = 4134566 BitCount = 142 ID = 271368256x
   5.753948 1  10800040x       Rx   d 6 02 EC 00 00 00 00  Length = 3684597 BitCount = 127 ID = 276824128x
   5.759473 1  10264040x       Rx   d 8 04 0E 00 00 00 00 00 00  Length = 4228208 BitCount = 145 ID = 270942272x
   5.764456 1  102CE040x       Rx   d 8 40 00 32 00 00 00 06 CA  Length = 4168208 BitCount = 143 ID = 271376448x
   5.767394 1  10308060x       Rx   d 3 A9 84 01  Length = 2814638 BitCount = 98 ID = 271614048x
   5.771803 1  10210040x       Rx   d 8 00 00 20 00 00 00 20 00  Length = 4284573 BitCount = 147 ID = 270598208x
   5.779605 1  10220040x       Rx   d 8 10 00 00 00 0F FC 00 00  Length = 4344558 BitCount = 149 ID = 270663744x
   5.782039 1  103D20BCx       Rx   d 1 00  Length = 2308248 BitCount = 81 ID = 272441532x
   5.785390 CAN 1 Status:chip status error active  - TxErr: 0 RxErr: 1
   5.785397 1  ErrorFrame	Flags = 0xfffe	CodeExt = 0x2072	Code = 0x81	ID = 0x90806040	DLC = 5	Position = 96	Length = 3234375	Data = 0  0  0  0  0x19
   5.789115 CAN 1 Status:chip status error active
   5.789332 1  10806040x       Rx   d 5 00 00 00 00 19  Length = 3418220 BitCount = 118 ID = 276848704x
   5.793681 1  10ACE060x       Rx   d 8 2B 00 00 00 00 00 00 00  Length = 4224562 BitCount = 145 ID = 279765088x
   5.798092 1  1022E040x       Rx   d 8 20 00 00 00 20 00 00 00  Length = 4284562 BitCount = 147 ID = 270721088x
   5.804517 1  10230040x       Rx   d 8 30 00 00 00 30 00 00 00  Length = 4258208 BitCount = 146 ID = 270729280x
   5.807820 1  10250040x       Rx   d 2 00 01  Length = 2578240 BitCount = 90 ID = 270860352x
   5.814633 1  10780040x       Rx   d 8 00 00 01 00 08 00 00 00  Length = 4318208 BitCount = 148 ID = 276299840x
   5.818952 1  10AFC060x       Rx   d 8 38 FF FF FF FF FF FF 2B  Length = 4194562 BitCount = 144 ID = 279953504x
   5.823303 1  10240040x       Rx   d 8 80 00 88 01 00 41 00 00  Length = 4224562 BitCount = 145 ID = 270794816x
   5.828555 1  102C0040x       Rx   d 5 44 05 A9 84 03  Length = 3324602 BitCount = 115 ID = 271319104x
   5.834615 1  106B8040x       Rx   d 8 00 00 00 00 00 00 00 00  Length = 4314558 BitCount = 148 ID = 275480640x
   5.839510 1  102CA040x       Rx   d 8 00 00 00 00 4B 00 F1 00  Length = 4198223 BitCount = 144 ID = 271360064x
   5.842388 1  10304058x       Rx   d 3 A9 84 01  Length = 2754642 BitCount = 96 ID = 271597656x
   5.845362 1  10754040x       Rx   d 3 04 40 00  Length = 2848232 BitCount = 99 ID = 276119616x
   5.850819 1  10734099x       Rx   d 6 10 00 00 7D 00 00  Length = 3624586 BitCount = 125 ID = 275988633x
   5.854631 1  10800040x       Rx   d 6 02 EC 00 00 00 00  Length = 3688216 BitCount = 127 ID = 276824128x
   5.859524 1  10264040x       Rx   d 8 04 0E 00 00 00 00 00 00  Length = 4228208 BitCount = 145 ID = 270942272x
   5.864563 1  10ACA040x       Rx   d 8 2C 8D DC 00 00 00 00 00  Length = 4134566 BitCount = 142 ID = 279748672x
   5.869578 1  10210040x       Rx   d 8 00 00 20 00 00 00 20 00  Length = 4288223 BitCount = 147 ID = 270598208x
   5.874321 1  10AEC040x       Rx   d 8 0A 09 1E 49 04 9F FF 2C  Length = 4048212 BitCount = 139 ID = 279887936x
   5.877264 1  10308060x       Rx   d 3 A9 84 01  Length = 2818232 BitCount = 98 ID = 271614048x
   5.881646 1  10220040x       Rx   d 8 10 00 00 00 0F FB 00 00  Length = 4258208 BitCount = 146 ID = 270663744x
   5.889600 1  1022E040x       Rx   d 8 00 00 00 00 00 00 00 00  Length = 4318223 BitCount = 148 ID = 270721088x
   5.892449 1  10306099x       Rx   d 3 A9 84 01  Length = 2724642 BitCount = 95 ID = 271605913x
   5.896258 1  10324058x       Rx   d 6 00 00 07 EF 00 00  Length = 3684586 BitCount = 127 ID = 271728728x
   5.898691 1  103D20BCx       Rx   d 1 00  Length = 2308248 BitCount = 81 ID = 272441532x
   5.900881 1  13FFE040x       Rx   d 0  Length = 2064714 BitCount = 73 ID = 335536192x
   5.909494 1  10230040x       Rx   d 8 20 00 00 00 20 00 00 00  Length = 4254562 BitCount = 146 ID = 270729280x
   5.913815 1  621             Rx   d 8 00 52 00 00 00 00 00 00  Length = 3594590 BitCount = 124 ID = 1569
   5.919549 1  10240040x       Rx   d 8 83 FF 88 01 00 41 00 00  Length = 4228208 BitCount = 145 ID = 270794816x
   5.922939 1  10250040x       Rx   d 2 00 03  Length = 2604669 BitCount = 91 ID = 270860352x
   5.939532 1  102CA040x       Rx   d 8 00 00 00 00 4B 00 F1 00  Length = 4194562 BitCount = 144 ID = 271360064x
   5.959516 1  10264040x       Rx   d 8 04 0E 00 00 00 00 00 00  Length = 4224562 BitCount = 145 ID = 270942272x
   5.969571 1  10210040x       Rx   d 8 00 00 20 00 00 00 20 00  Length = 4288208 BitCount = 147 ID = 270598208x
   5.974614 1  1022A040x       Rx   d 8 00 B0 00 00 00 00 00 00  Length = 4288208 BitCount = 147 ID = 270704704x
   5.979653 1  10220040x       Rx   d 8 10 00 00 00 0F FB 00 00  Length = 4254577 BitCount = 146 ID = 270663744x
   5.984064 1  1022C040x       Rx   d 6 00 00 00 00 00 00  Length = 3774582 BitCount = 130 ID = 270712896x
   5.987009 1  10308060x       Rx   d 3 A9 84 01  Length = 2818232 BitCount = 98 ID = 271614048x
   5.991421 1  1022E040x       Rx   d 8 20 00 00 00 20 00 00 00  Length = 4288208 BitCount = 147 ID = 270721088x
   5.999495 1  10230040x       Rx   d 8 30 00 00 00 30 00 00 00  Length = 4258208 BitCount = 146 ID = 270729280x
   6.004208 1  10248040x       Rx   d 7 00 00 5F F5 F5 FD 00  Length = 3928212 BitCount = 135 ID = 270827584x
   6.009431 1  102CC040x       Rx   d 8 01 00 CF 00 00 55 06 8D  Length = 4108212 BitCount = 141 ID = 271368256x
   6.011861 1  103D20BCx       Rx   d 1 00  Length = 2308248 BitCount = 81 ID = 272441532x
   6.016180 1  102CE040x       Rx   d 8 40 00 32 00 00 00 06 C9  Length = 4194577 BitCount = 144 ID = 271376448x
   6.024526 1  10240040x       Rx   d 8 83 FF 88 01 00 41 00 00  Length = 4228208 BitCount = 145 ID = 270794816x
   6.029539 1  102D0040x       Rx   d 8 01 00 01 00 48 00 00 FF  Length = 4198208 BitCount = 144 ID = 271384640x
   6.034492 1  102E0040x       Rx   d 8 00 00 CA 00 89 00 5E 71  Length = 4138208 BitCount = 142 ID = 271450176x
   6.037851 1  10250040x       Rx   d 2 00 01  Length = 2574658 BitCount = 90 ID = 270860352x
   6.044576 1  102CA040x       Rx   d 8 00 00 00 00 4B 00 F1 00  Length = 4198208 BitCount = 144 ID = 271360064x
   6.048715 1  10466040x       Rx   d 5 00 00 00 00 00  Length = 3444598 BitCount = 119 ID = 273047616x
   6.048792 1  Statistic: D 6 R 0 XD 210 XR 0 E 7 O 0 B 82.20%
   6.048792 2  Statistic: D 0 R 0 XD 0 XR 0 E 0 O 0 B 0.00%
   6.054630 1  106B8040x       Rx   d 8 00 00 00 00 00 00 00 00  Length = 4318223 BitCount = 148 ID = 275480640x
   6.059552 1  10264040x       Rx   d 8 04 0E 00 00 00 00 00 00  Length = 4228208 BitCount = 145 ID = 270942272x
   6.063602 1  106C0040x       Rx   d 5 00 03 D1 C6 00  Length = 3324602 BitCount = 115 ID = 275513408x
   6.069605 1  10210040x       Rx   d 8 00 00 20 00 00 00 20 00  Length = 4284573 BitCount = 147 ID = 270598208x
   6.073449 1  1077C040x       Rx   d 4 30 30 01 F4  Length = 3148239 BitCount = 109 ID = 276283456x
   6.079872 1  10220040x       Rx   d 8 10 00 00 00 0F FC 00 00  Length = 4348208 BitCount = 149 ID = 270663744x
   6.084705 1  10780040x       Rx   d 8 00 00 01 00 08 00 00 00  Length = 4318208 BitCount = 148 ID = 276299840x
   6.089594 1  1022E040x       Rx   d 8 00 00 00 00 00 00 00 00  Length = 4314558 BitCount = 148 ID = 270721088x
   6.094093 1  10788040x       Rx   d 6 08 00 00 00 00 00  Length = 3774582 BitCount = 130 ID = 276332608x
   6.097038 1  10308060x       Rx   d 3 A9 84 01  Length = 2818247 BitCount = 98 ID = 271614048x
   6.101417 1  10230040x       Rx   d 8 10 00 00 00 10 00 00 00  Length = 4254562 BitCount = 146 ID = 270729280x
   6.109012 1  10800040x       Rx   d 6 02 EC 00 00 00 00  Length = 3688216 BitCount = 127 ID = 276824128x
   6.113725 1  10806040x       Rx   d 5 00 00 00 00 19  Length = 3418220 BitCount = 118 ID = 276848704x
   6.119548 1  10240040x       Rx   d 8 80 00 88 01 00 41 00 00  Length = 4228208 BitCount = 145 ID = 270794816x
   6.121979 1  103D20BCx       Rx   d 1 00  Length = 2308248 BitCount = 81 ID = 272441532x
   6.126301 1  10ACA040x       Rx   d 8 28 D0 00 00 00 00 00 00  Length = 4198208 BitCount = 144 ID = 279748672x
   6.133625 1  102C0040x       Rx   d 5 44 05 A9 84 03  Length = 3328224 BitCount = 115 ID = 271319104x
   6.139568 1  102CA040x       Rx   d 8 00 00 00 00 4B 00 F1 00  Length = 4198208 BitCount = 144 ID = 271360064x
   6.144431 1  10AEC040x       Rx   d 8 09 04 92 38 00 7F FF 28  Length = 4108212 BitCount = 141 ID = 279887936x
   6.148570 1  1036A080x       Rx   d 7 01 00 00 00 00 00 00  Length = 4014570 BitCount = 138 ID = 272015488x
   6.151271 1  10250040x       Rx   d 2 00 01  Length = 2574669 BitCount = 90 ID = 270860352x
   6.154152 1  10304058x       Rx   d 3 A9 84 01  Length = 2754642 BitCount = 96 ID = 271597656x
   6.156554 1  1040A080x       Rx   d 1 40  Length = 2278252 BitCount = 80 ID = 272670848x
   6.160902 1  10264040x       Rx   d 8 04 0E 00 00 00 00 00 00  Length = 4224562 BitCount = 145 ID = 270942272x
   6.169664 1  10210040x       Rx   d 8 00 00 20 00 00 00 20 00  Length = 4284562 BitCount = 147 ID = 270598208x
   6.172399 1  13FFE040x       Rx   d 0  Length = 2068260 BitCount = 73 ID = 335536192x
   6.179808 1  10220040x       Rx   d 8 10 00 00 00 0F FB 00 00  Length = 4254577 BitCount = 146 ID = 270663744x
   6.189594 1  1022E040x       Rx   d 8 20 00 00 00 20 00 00 00  Length = 4288208 BitCount = 147 ID = 270721088x
   6.192442 1  10306099x       Rx   d 3 A9 84 01  Length = 2724657 BitCount = 95 ID = 271605913x
   6.199524 1  10230040x       Rx   d 8 30 00 00 00 30 00 00 00  Length = 4254562 BitCount = 146 ID = 270729280x
   6.204173 1  10308060x       Rx   d 3 A9 84 01  Length = 2814638 BitCount = 98 ID = 271614048x
   6.219626 1  1022A040x       Rx   d 8 00 B0 00 00 00 00 00 00  Length = 4284562 BitCount = 147 ID = 270704704x
   6.224096 1  1022C040x       Rx   d 6 00 00 00 00 00 00  Length = 3774593 BitCount = 130 ID = 270712896x
   6.229621 1  10240040x       Rx   d 8 80 00 88 01 00 41 00 00  Length = 4228223 BitCount = 145 ID = 270794816x
   6.232053 1  103D20BCx       Rx   d 1 00  Length = 2308248 BitCount = 81 ID = 272441532x
   6.236495 1  106B8040x       Rx   d 8 00 00 00 00 00 00 00 00  Length = 4318208 BitCount = 148 ID = 275480640x
   6.244598 1  102CA040x       Rx   d 8 00 00 00 00 4B 00 F1 00  Length = 4198208 BitCount = 144 ID = 271360064x
   6.249491 1  102CC040x       Rx   d 8 01 00 CF 00 00 55 06 8D  Length = 4108223 BitCount = 141 ID = 271368256x
   6.259575 1  10264040x       Rx   d 8 04 0E 00 00 00 00 00 00  Length = 4228208 BitCount = 145 ID = 270942272x
   6.261763 1  13FFE0AFx       Rx   d 0  Length = 2064714 BitCount = 73 ID = 335536303x
   6.266082 1  102CE040x       Rx   d 8 40 00 32 00 00 00 06 C9  Length = 4194562 BitCount = 144 ID = 271376448x
   6.274638 1  10210040x       Rx   d 8 00 00 20 00 00 00 20 00  Length = 4288208 BitCount = 147 ID = 270598208x
   6.279797 1  10220040x       Rx   d 8 10 00 00 00 0F FC 00 00  Length = 4344558 BitCount = 149 ID = 270663744x
   6.282922 1  10250040x       Rx   d 2 00 01  Length = 2578240 BitCount = 90 ID = 270860352x
   6.289615 1  1022E040x       Rx   d 8 00 00 00 00 00 00 00 00  Length = 4318208 BitCount = 148 ID = 270721088x
   6.294744 1  10780040x       Rx   d 8 00 00 01 00 08 00 00 00  Length = 4314558 BitCount = 148 ID = 276299840x
   6.299579 1  10230040x       Rx   d 8 10 00 00 00 10 00 00 00  Length = 4258208 BitCount = 146 ID = 270729280x
   6.301801 1  13FFE058x       Rx   d 0  Length = 2098256 BitCount = 74 ID = 335536216x
   6.305614 1  10800040x       Rx   d 6 02 EC 00 00 00 00  Length = 3688216 BitCount = 127 ID = 276824128x
   6.314162 1  10308060x       Rx   d 3 A9 84 01  Length = 2814638 BitCount = 98 ID = 271614048x
   6.319567 1  10240040x       Rx   d 8 80 00 88 01 00 41 00 00  Length = 4228208 BitCount = 145 ID = 270794816x
   6.330675 1  13FFE0BCx       Rx   d 0  Length = 2068260 BitCount = 73 ID = 335536316x
   6.339585 1  102CA040x       Rx   d 8 00 00 00 00 4B 00 F1 00  Length = 4194562 BitCount = 144 ID = 271360064x
   6.342017 1  103D20BCx       Rx   d 1 00  Length = 2308263 BitCount = 81 ID = 272441532x
   6.344180 1  13FFE0BBx       Rx   d 0  Length = 2038260 BitCount = 72 ID = 335536315x
   6.350416 1  10734099x       Rx   d 6 10 00 00 7D 00 00  Length = 3624586 BitCount = 125 ID = 275988633x
   6.359600 1  10264040x       Rx   d 8 04 0E 00 00 00 00 00 00  Length = 4228208 BitCount = 145 ID = 270942272x
   6.369654 1  10210040x       Rx   d 8 00 00 20 00 00 00 20 00  Length = 4288208 BitCount = 147 ID = 270598208x
   6.379768 1  10220040x       Rx   d 8 10 00 00 00 0F FB 00 00  Length = 4258208 BitCount = 146 ID = 270663744x
   6.389612 1  1022E040x       Rx   d 8 20 00 00 00 20 00 00 00  Length = 4288208 BitCount = 147 ID = 270721088x
   6.399572 1  10230040x       Rx   d 8 30 00 00 00 30 00 00 00  Length = 4254562 BitCount = 146 ID = 270729280x
   6.402933 1  10250040x       Rx   d 2 00 01  Length = 2574658 BitCount = 90 ID = 270860352x
   6.417124 1  108E0080x       Rx   d 6 10 05 11 01 46 83  Length = 3564590 BitCount = 123 ID = 277741696x
   6.421474 1  10240040x       Rx   d 8 83 FF 88 01 00 41 00 00  Length = 4224562 BitCount = 145 ID = 270794816x
   6.424420 1  10308060x       Rx   d 3 A9 84 01  Length = 2818232 BitCount = 98 ID = 271614048x
   6.428888 1  102C0040x       Rx   d 5 44 05 A9 84 03  Length = 3324602 BitCount = 115 ID = 271319104x
   6.434713 1  106B8040x       Rx   d 8 00 00 00 00 00 00 00 00  Length = 4318208 BitCount = 148 ID = 275480640x
   6.439636 1  102CA040x       Rx   d 8 00 00 00 00 4B 00 F1 00  Length = 4198208 BitCount = 144 ID = 271360064x
   6.442514 1  10304058x       Rx   d 3 A9 84 01  Length = 2754642 BitCount = 96 ID = 271597656x
   6.450924 1  103D20BCx       Rx   d 1 00  Length = 2308248 BitCount = 81 ID = 272441532x
   6.459594 1  10264040x       Rx   d 8 04 0E 00 00 00 00 00 00  Length = 4224577 BitCount = 145 ID = 270942272x
   6.469736 1  10210040x       Rx   d 8 00 00 20 00 00 00 20 00  Length = 4284573 BitCount = 147 ID = 270598208x
   6.474779 1  1022A040x       Rx   d 8 00 B0 00 00 00 00 00 00  Length = 4284562 BitCount = 147 ID = 270704704x
   6.479673 1  10220040x       Rx   d 8 10 00 00 00 0F FB 00 00  Length = 4258223 BitCount = 146 ID = 270663744x
   6.483955 CAN 1 Status:chip status error active  - TxErr: 0 RxErr: 1
   6.483963 1  ErrorFrame	Flags = 0xfffe	CodeExt = 0x2072	Code = 0x81	ID = 0x9022c040	DLC = 6	Position = 104	Length = 3594375	Data = 0  0  0  0  0  0
   6.488036 CAN 1 Status:chip status error active
   6.488253 1  1022C040x       Rx   d 6 00 00 00 00 00 00  Length = 3774582 BitCount = 130 ID = 270712896x
   6.491104 1  10306099x       Rx   d 3 A9 84 01  Length = 2724642 BitCount = 95 ID = 271605913x
   6.495545 1  1022E040x       Rx   d 8 00 00 00 00 00 00 00 00  Length = 4314558 BitCount = 148 ID = 270721088x
   6.504608 1  10230040x       Rx   d 8 10 00 00 00 10 00 00 00  Length = 4258208 BitCount = 146 ID = 270729280x
   6.509317 1  10248040x       Rx   d 7 00 00 5F F5 F5 FD 00  Length = 3924574 BitCount = 135 ID = 270827584x
   6.514538 1  102CC040x       Rx   d 8 01 00 CF 00 00 56 06 8D  Length = 4104581 BitCount = 141 ID = 271368256x
   6.519639 1  10240040x       Rx   d 8 80 00 88 01 00 41 00 00  Length = 4224562 BitCount = 145 ID = 270794816x
   6.522940 1  10250040x       Rx   d 2 00 01  Length = 2574658 BitCount = 90 ID = 270860352x
   6.525635 CAN 1 Status:chip status error active  - TxErr: 0 RxErr: 1
   6.525642 1  ErrorFrame	Flags = 0xfffe	CodeExt = 0x2072	Code = 0x81	ID = 0x90424060	DLC = 3	Position = 80	Length = 2574390	Data = 0x4  0x86  0x8b
   6.530138 CAN 1 Status:chip status error active
   6.530355 1  102CE040x       Rx   d 8 40 00 32 00 00 00 06 C9  Length = 4198208 BitCount = 144 ID = 271376448x
   6.533235 1  10424060x       Rx   d 3 04 86 8B  Length = 2754642 BitCount = 96 ID = 272777312x
   6.536174 1  10308060x       Rx   d 3 A9 84 01  Length = 2814638 BitCount = 98 ID = 271614048x
   6.540493 1  102CA040x       Rx   d 8 00 00 00 00 4B 00 F1 00  Length = 4194577 BitCount = 144 ID = 271360064x
   6.549589 1  102D0040x       Rx   d 8 01 00 01 00 48 00 00 FF  Length = 4198208 BitCount = 144 ID = 271384640x
   6.554808 1  10780040x       Rx   d 8 00 00 01 00 08 00 00 00  Length = 4314558 BitCount = 148 ID = 276299840x
   6.559645 1  10264040x       Rx   d 8 04 0E 00 00 00 00 00 00  Length = 4228208 BitCount = 145 ID = 270942272x
   6.562074 1  103D20BCx       Rx   d 1 00  Length = 2304697 BitCount = 81 ID = 272441532x
   6.565978 1  10788040x       Rx   d 6 08 00 00 00 00 00  Length = 3778216 BitCount = 130 ID = 276332608x
   6.574708 1  10210040x       Rx   d 8 00 00 20 00 00 00 20 00  Length = 4284573 BitCount = 147 ID = 270598208x
   6.579783 1  10220040x       Rx   d 8 10 00 00 00 0F FC 00 00  Length = 4348223 BitCount = 149 ID = 270663744x
   6.584132 1  10800040x       Rx   d 6 00 EC 00 00 00 00  Length = 3684586 BitCount = 127 ID = 276824128x
   6.589657 1  1022E040x       Rx   d 8 20 00 00 00 20 00 00 00  Length = 4288223 BitCount = 147 ID = 270721088x
   6.593830 1  10806040x       Rx   d 5 00 00 00 00 19  Length = 3418220 BitCount = 118 ID = 276848704x
   6.599623 1  10230040x       Rx   d 8 30 00 00 00 30 00 00 00  Length = 4258208 BitCount = 146 ID = 270729280x
   6.619635 1  10240040x       Rx   d 8 83 FF 88 01 00 41 00 00  Length = 4224562 BitCount = 145 ID = 270794816x
   6.624736 1  106B8040x       Rx   d 8 00 00 00 00 00 00 00 00  Length = 4314558 BitCount = 148 ID = 275480640x
   6.637939 1  10250040x       Rx   d 2 00 01  Length = 2574658 BitCount = 90 ID = 270860352x
   6.644689 1  102CA040x       Rx   d 8 00 00 00 00 4B 00 F1 00  Length = 4194562 BitCount = 144 ID = 271360064x
   6.647635 1  10308060x       Rx   d 3 A9 84 01  Length = 2818232 BitCount = 98 ID = 271614048x
   6.659636 1  10264040x       Rx   d 8 04 0E 00 00 00 00 00 00  Length = 4224562 BitCount = 145 ID = 270942272x
   6.669722 1  10210040x       Rx   d 8 00 00 20 00 00 00 20 00  Length = 4288223 BitCount = 147 ID = 270598208x
   6.672154 1  103D20BCx       Rx   d 1 00  Length = 2308263 BitCount = 81 ID = 272441532x
   6.674376 1  13FFE060x       Rx   d 0  Length = 2098256 BitCount = 74 ID = 335536224x
   6.676568 1  13FFE080x       Rx   d 0  Length = 2068260 BitCount = 73 ID = 335536256x
   6.681040 1  10220040x       Rx   d 8 10 00 00 00 0F FC 00 00  Length = 4348208 BitCount = 149 ID = 270663744x
   6.683233 1  13FFE099x       Rx   d 0  Length = 2068260 BitCount = 73 ID = 335536281x
   6.689716 1  1022E040x       Rx   d 8 00 00 00 00 00 00 00 00  Length = 4318208 BitCount = 148 ID = 270721088x
   6.699800 1  10230040x       Rx   d 8 10 00 00 00 10 00 00 00  Length = 4258208 BitCount = 146 ID = 270729280x
   6.719726 1  1022A040x       Rx   d 8 00 B0 00 00 00 00 00 00  Length = 4288208 BitCount = 147 ID = 270704704x
   6.724199 1  1022C040x       Rx   d 6 00 00 00 00 00 00  Length = 3778216 BitCount = 130 ID = 270712896x
   6.729718 1  10240040x       Rx   d 8 83 FF 88 01 00 41 00 00  Length = 4224562 BitCount = 145 ID = 270794816x
   6.733743 1  102C0040x       Rx   d 5 44 05 A9 84 03  Length = 3328224 BitCount = 115 ID = 271319104x
   6.739682 1  102CA040x       Rx   d 8 00 00 00 00 4B 00 F1 00  Length = 4194562 BitCount = 144 ID = 271360064x
   6.747968 1  10250040x       Rx   d 2 00 01  Length = 2578240 BitCount = 90 ID = 270860352x
   6.750845 1  10304058x       Rx   d 3 A9 84 01  Length = 2754642 BitCount = 96 ID = 271597656x
   6.755077 1  102CC040x       Rx   d 8 01 00 CF 00 00 57 06 8D  Length = 4104566 BitCount = 141 ID = 271368256x
   6.758021 1  10308060x       Rx   d 3 A9 84 01  Length = 2818232 BitCount = 98 ID = 271614048x
   6.762374 1  10264040x       Rx   d 8 04 0E 00 00 00 00 00 00  Length = 4228208 BitCount = 145 ID = 270942272x
   6.769757 1  10210040x       Rx   d 8 00 00 20 00 00 00 20 00  Length = 4288208 BitCount = 147 ID = 270598208x
   6.774737 1  102CE040x       Rx   d 8 40 00 32 00 00 00 06 C9  Length = 4194562 BitCount = 144 ID = 271376448x
   6.779719 1  10220040x       Rx   d 8 10 00 00 00 0F FA 00 00  Length = 4284562 BitCount = 147 ID = 270663744x
   6.782154 1  103D20BCx       Rx   d 1 00  Length = 2308248 BitCount = 81 ID = 272441532x
   6.789687 1  1022E040x       Rx   d 8 20 00 00 00 20 00 00 00  Length = 4288208 BitCount = 147 ID = 270721088x
   6.792534 1  10306099x       Rx   d 3 A9 84 01  Length = 2724642 BitCount = 95 ID = 271605913x
   6.796975 1  10780040x       Rx   d 8 00 00 01 00 08 00 00 00  Length = 4314558 BitCount = 148 ID = 276299840x
   6.804656 1  10230040x       Rx   d 8 30 00 00 00 30 00 00 00  Length = 4254562 BitCount = 146 ID = 270729280x
   6.808970 CAN 1 Status:chip status error active  - TxErr: 0 RxErr: 1
   6.808977 1  ErrorFrame	Flags = 0xfffe	CodeExt = 0x2072	Code = 0x81	ID = 0x90800040	DLC = 6	Position = 104	Length = 3504375	Data = 0  0xec  0  0  0  0
   6.812964 CAN 1 Status:chip status error active
   6.813182 1  10800040x       Rx   d 6 00 EC 00 00 00 00  Length = 3688216 BitCount = 127 ID = 276824128x
   6.819695 1  10240040x       Rx   d 8 80 00 88 01 00 41 00 00  Length = 4228208 BitCount = 145 ID = 270794816x
   6.824794 1  106B8040x       Rx   d 8 00 00 00 00 00 00 00 00  Length = 4314573 BitCount = 148 ID = 275480640x
   6.839677 1  102CA040x       Rx   d 8 00 00 00 00 4B 00 F1 00  Length = 4194562 BitCount = 144 ID = 271360064x
   6.850173 1  10734099x       Rx   d 6 10 00 00 7D 00 00  Length = 3624586 BitCount = 125 ID = 275988633x
   6.858007 1  10250040x       Rx   d 2 00 01  Length = 2578240 BitCount = 90 ID = 270860352x
   6.864700 1  10264040x       Rx   d 8 04 0E 00 00 00 00 00 00  Length = 4228208 BitCount = 145 ID = 270942272x
   6.867642 1  10308060x       Rx   d 3 A9 84 01  Length = 2818232 BitCount = 98 ID = 271614048x
   6.872054 1  10210040x       Rx   d 8 00 00 20 00 00 00 20 00  Length = 4288208 BitCount = 147 ID = 270598208x
   6.874758 1  106D0080x       Rx   d 2 00 00  Length = 2578255 BitCount = 90 ID = 275579008x
   6.879950 1  10220040x       Rx   d 8 10 00 00 00 0F FC 00 00  Length = 4348223 BitCount = 149 ID = 270663744x
   6.882142 1  13FFE068x       Rx   d 0  Length = 2068260 BitCount = 73 ID = 335536232x
   6.889736 1  1022E040x       Rx   d 8 00 00 00 00 00 00 00 00  Length = 4318208 BitCount = 148 ID = 270721088x
   6.892167 1  103D20BCx       Rx   d 1 00  Length = 2308263 BitCount = 81 ID = 272441532x
   6.899670 1  10230040x       Rx   d 8 10 00 00 00 10 00 00 00  Length = 4258208 BitCount = 146 ID = 270729280x
   6.919683 1  10240040x       Rx   d 8 80 00 88 01 00 41 00 00  Length = 4224562 BitCount = 145 ID = 270794816x
   6.924004 1  621             Rx   d 8 00 52 00 00 00 00 00 00  Length = 3594590 BitCount = 124 ID = 1569
   6.939696 1  102CA040x       Rx   d 8 00 00 00 00 4B 00 F1 00  Length = 4194562 BitCount = 144 ID = 271360064x
   6.959710 1  10264040x       Rx   d 8 04 0E 00 00 00 00 00 00  Length = 4224562 BitCount = 145 ID = 270942272x
   6.969766 1  10210040x       Rx   d 8 00 00 00 00 00 00 00 00  Length = 4288208 BitCount = 147 ID = 270598208x
   6.974865 1  1022A040x       Rx   d 8 00 B0 00 00 00 00 00 00  Length = 4284562 BitCount = 147 ID = 270704704x
   6.977811 1  10308060x       Rx   d 3 A9 84 01  Length = 2818247 BitCount = 98 ID = 271614048x
   6.982281 1  10220040x       Rx   d 8 10 00 00 00 0F FC 00 00  Length = 4344558 BitCount = 149 ID = 270663744x
   6.989242 1  1022C040x       Rx   d 6 00 00 00 00 00 00  Length = 3774593 BitCount = 130 ID = 270712896x
   6.994737 1  1022E040x       Rx   d 8 20 00 00 00 20 00 00 00  Length = 4288208 BitCount = 147 ID = 270721088x
   6.999690 1  10230040x       Rx   d 8 30 00 00 00 30 00 00 00  Length = 4258208 BitCount = 146 ID = 270729280x
   7.002120 1  103D20BCx       Rx   d 1 00  Length = 2308248 BitCount = 81 ID = 272441532x
   7.006173 1  10248040x       Rx   d 7 00 00 5F F5 F5 FD 00  Length = 3928212 BitCount = 135 ID = 270827584x
   7.013073 1  10250040x       Rx   d 2 00 03  Length = 2604669 BitCount = 91 ID = 270860352x
   7.019736 1  10240040x       Rx   d 8 83 FF 88 01 00 41 00 00  Length = 4224562 BitCount = 145 ID = 270794816x
   7.024689 1  102CC040x       Rx   d 8 01 00 CF 00 00 57 06 8D  Length = 4104566 BitCount = 141 ID = 271368256x
   7.028804 1  102C0040x       Rx   d 5 44 05 A9 84 03  Length = 3328224 BitCount = 115 ID = 271319104x
   7.034743 1  102CE040x       Rx   d 8 40 00 32 00 00 00 06 C9  Length = 4194562 BitCount = 144 ID = 271376448x
   7.039757 1  102CA040x       Rx   d 8 00 00 00 00 4B 00 F1 00  Length = 4198208 BitCount = 144 ID = 271360064x
   7.042637 1  10304058x       Rx   d 3 A9 84 01  Length = 2754642 BitCount = 96 ID = 271597656x
   7.046955 1  102D0040x       Rx   d 8 01 00 01 00 48 00 00 FF  Length = 4194562 BitCount = 144 ID = 271384640x
   7.048793 1  Statistic: D 1 R 0 XD 164 XR 0 E 3 O 0 B 63.75%
   7.048793 2  Statistic: D 0 R 0 XD 0 XR 0 E 0 O 0 B 0.00%
   7.054697 1  102E0040x       Rx   d 8 00 00 CA 00 89 00 5E 71  Length = 4134566 BitCount = 142 ID = 271450176x
   7.059740 1  10264040x       Rx   d 8 04 0E 00 00 00 00 00 00  Length = 4224562 BitCount = 145 ID = 270942272x
   7.064840 1  106B8040x       Rx   d 8 00 00 00 00 00 00 00 00  Length = 4314558 BitCount = 148 ID = 275480640x
   7.069795 1  10210040x       Rx   d 8 00 00 00 00 00 00 00 00  Length = 4288208 BitCount = 147 ID = 270598208x
   7.073848 1  106C0040x       Rx   d 5 00 03 D1 C6 00  Length = 3328235 BitCount = 115 ID = 275513408x
   7.079907 1  10220040x       Rx   d 8 10 00 00 00 0F FB 00 00  Length = 4254562 BitCount = 146 ID = 270663744x
   7.083598 1  1077C040x       Rx   d 4 30 30 01 F4  Length = 3144629 BitCount = 109 ID = 276283456x
   7.086543 1  10308060x       Rx   d 3 A9 84 01  Length = 2818232 BitCount = 98 ID = 271614048x
   7.090980 1  1022E040x       Rx   d 8 00 00 00 00 00 00 00 00  Length = 4314573 BitCount = 148 ID = 270721088x
   7.093831 1  10306099x       Rx   d 3 A9 84 01  Length = 2724642 BitCount = 95 ID = 271605913x
   7.099715 1  10230040x       Rx   d 8 10 00 00 00 10 00 00 00  Length = 4258208 BitCount = 146 ID = 270729280x
   7.104874 1  10780040x       Rx   d 8 00 00 01 00 08 00 00 00  Length = 4314558 BitCount = 148 ID = 276299840x
   7.109285 1  10788040x       Rx   d 6 08 00 00 00 00 00  Length = 3774593 BitCount = 130 ID = 276332608x
   7.111717 1  103D20BCx       Rx   d 1 00  Length = 2308263 BitCount = 81 ID = 272441532x
   7.115530 1  10800040x       Rx   d 6 00 EC 00 00 00 00  Length = 3688216 BitCount = 127 ID = 276824128x
   7.124864 1  10240040x       Rx   d 8 83 FF 88 01 00 41 00 00  Length = 4228223 BitCount = 145 ID = 270794816x
   7.128047 1  10250040x       Rx   d 2 00 01  Length = 2578240 BitCount = 90 ID = 270860352x
   7.133930 1  10806040x       Rx   d 5 00 00 00 00 19  Length = 3418220 BitCount = 118 ID = 276848704x
   7.139753 1  102CA040x       Rx   d 8 00 00 00 00 4B 00 F1 00  Length = 4198208 BitCount = 144 ID = 271360064x
   7.159735 1  10264040x       Rx   d 8 04 0E 00 00 00 00 00 00  Length = 4224562 BitCount = 145 ID = 270942272x
   7.169820 1  10210040x       Rx   d 8 00 00 00 00 00 00 00 00  Length = 4288208 BitCount = 147 ID = 270598208x
   7.179814 1  10220040x       Rx   d 8 10 00 00 00 0F FB 00 00  Length = 4258208 BitCount = 146 ID = 270663744x
   7.189778 1  1022E040x       Rx   d 8 20 00 00 00 20 00 00 00  Length = 4288223 BitCount = 147 ID = 270721088x
   7.194097 1  10308060x       Rx   d 3 A9 84 01  Length = 2814638 BitCount = 98 ID = 271614048x
   7.199742 1  10230040x       Rx   d 8 30 00 00 00 30 00 00 00  Length = 4258208 BitCount = 146 ID = 270729280x
   7.219844 1  1022A040x       Rx   d 8 00 B0 00 00 00 00 00 00  Length = 4284562 BitCount = 147 ID = 270704704x
   7.222279 1  103D20BCx       Rx   d 1 00  Length = 2308248 BitCount = 81 ID = 272441532x
   7.226181 1  1022C040x       Rx   d 6 00 00 00 00 00 00  Length = 3778216 BitCount = 130 ID = 270712896x
   7.234765 1  10240040x       Rx   d 8 83 FF 88 01 00 41 00 00  Length = 4228208 BitCount = 145 ID = 270794816x
   7.238064 1  10250040x       Rx   d 2 00 01  Length = 2574669 BitCount = 90 ID = 270860352x
   7.244819 1  102CA040x       Rx   d 8 00 00 00 00 4B 00 F1 00  Length = 4198223 BitCount = 144 ID = 271360064x
   7.249682 1  102CC040x       Rx   d 8 01 00 CF 00 00 58 06 8D  Length = 4108212 BitCount = 141 ID = 271368256x
   7.254841 1  106B8040x       Rx   d 8 00 00 00 00 00 00 00 00  Length = 4314558 BitCount = 148 ID = 275480640x
   7.259766 1  10264040x       Rx   d 8 04 0E 00 00 00 00 00 00  Length = 4228208 BitCount = 145 ID = 270942272x
   7.264775 1  102CE040x       Rx   d 8 40 00 32 00 00 00 06 C9  Length = 4194562 BitCount = 144 ID = 271376448x
   7.269850 1  10210040x       Rx   d 8 00 00 00 00 00 00 00 00  Length = 4288208 BitCount = 147 ID = 270598208x
   7.279964 1  10220040x       Rx   d 8 10 00 00 00 0F FB 00 00  Length = 4258208 BitCount = 146 ID = 270663744x
   7.282543 1  13FFE040x       Rx   d 0  Length = 2064714 BitCount = 73 ID = 335536192x
   7.289838 1  1022E040x       Rx   d 8 00 00 00 00 00 00 00 00  Length = 4318208 BitCount = 148 ID = 270721088x
   7.294911 1  10780040x       Rx   d 8 00 00 01 00 08 00 00 00  Length = 4318208 BitCount = 148 ID = 276299840x
   7.299773 1  10230040x       Rx   d 8 10 00 00 00 10 00 00 00  Length = 4258208 BitCount = 146 ID = 270729280x
   7.304243 1  10800040x       Rx   d 6 00 EC 00 00 00 00  Length = 3684586 BitCount = 127 ID = 276824128x
   7.307186 1  10308060x       Rx   d 3 A9 84 01  Length = 2818232 BitCount = 98 ID = 271614048x
   7.319756 1  10240040x       Rx   d 8 80 00 88 01 00 41 00 00  Length = 4224577 BitCount = 145 ID = 270794816x
   7.329001 1  102C0040x       Rx   d 5 44 05 A9 84 03  Length = 3328224 BitCount = 115 ID = 271319104x
   7.331793 1  103D20BCx       Rx   d 1 00  Length = 2308248 BitCount = 81 ID = 272441532x
   7.339773 1  102CA040x       Rx   d 8 00 00 00 00 4B 00 F1 00  Length = 4194562 BitCount = 144 ID = 271360064x
   7.342654 1  10304058x       Rx   d 3 A9 84 01  Length = 2754642 BitCount = 96 ID = 271597656x
   7.348089 1  10250040x       Rx   d 2 00 01  Length = 2578240 BitCount = 90 ID = 270860352x
   7.351837 1  10734099x       Rx   d 6 10 00 00 7D 00 00  Length = 3624601 BitCount = 125 ID = 275988633x
   7.359787 1  10264040x       Rx   d 8 04 0E 00 00 00 00 00 00  Length = 4224562 BitCount = 145 ID = 270942272x
   7.369843 1  10210040x       Rx   d 8 00 00 00 00 00 00 00 00  Length = 4288208 BitCount = 147 ID = 270598208x
   7.379957 1  10220040x       Rx   d 8 10 00 00 00 0F FB 00 00  Length = 4258208 BitCount = 146 ID = 270663744x
   7.389797 1  1022E040x       Rx   d 8 20 00 00 00 20 00 00 00  Length = 4284562 BitCount = 147 ID = 270721088x
   7.392647 1  10306099x       Rx   d 3 A9 84 01  Length = 2724642 BitCount = 95 ID = 271605913x
   7.399569 CAN 1 Status:chip status error active  - TxErr: 0 RxErr: 1
   7.399577 1  ErrorFrame	Flags = 0xfffe	CodeExt = 0x2072	Code = 0x81	ID = 0x90230040	DLC = 8	Position = 120	Length = 4074375	Data = 0x30  0  0  0  0x30  0  0  0
   7.404128 CAN 1 Status:chip status error active
   7.404346 1  10230040x       Rx   d 8 30 00 00 00 30 00 00 00  Length = 4254562 BitCount = 146 ID = 270729280x
   7.414156 1  10308060x       Rx   d 3 A9 84 01  Length = 2814638 BitCount = 98 ID = 271614048x
   7.417821 1  108E0080x       Rx   d 6 10 05 11 01 46 84  Length = 3538220 BitCount = 122 ID = 277741696x
   7.422173 1  10240040x       Rx   d 8 83 FF 88 01 00 41 00 00  Length = 4228208 BitCount = 145 ID = 270794816x
   7.429883 1  106B8040x       Rx   d 8 00 00 00 00 00 00 00 00  Length = 4314558 BitCount = 148 ID = 275480640x
   7.439818 1  102CA040x       Rx   d 8 00 00 00 00 4B 00 F1 00  Length = 4198208 BitCount = 144 ID = 271360064x
   7.442249 1  103D20BCx       Rx   d 1 00  Length = 2308248 BitCount = 81 ID = 272441532x
   7.457244 1  13FFE0AFx       Rx   d 0  Length = 2068260 BitCount = 73 ID = 335536303x
   7.459947 1  10250040x       Rx   d 2 00 01  Length = 2578240 BitCount = 90 ID = 270860352x
   7.464805 1  10264040x       Rx   d 8 04 0E 00 00 00 00 00 00  Length = 4224577 BitCount = 145 ID = 270942272x
   7.469906 1  10210040x       Rx   d 8 00 00 00 00 00 00 00 00  Length = 4284562 BitCount = 147 ID = 270598208x
   7.474891 1  1022A040x       Rx   d 8 00 B0 00 00 00 00 00 00  Length = 4288208 BitCount = 147 ID = 270704704x
   7.479900 1  10220040x       Rx   d 8 10 00 00 00 0F FB 00 00  Length = 4254562 BitCount = 146 ID = 270663744x
   7.484341 1  1022C040x       Rx   d 6 00 00 00 00 00 00  Length = 3774582 BitCount = 130 ID = 270712896x
   7.489866 1  1022E040x       Rx   d 8 00 00 00 00 00 00 00 00  Length = 4318208 BitCount = 148 ID = 270721088x
   7.494485 1  10248040x       Rx   d 7 00 00 5F F5 F5 FC 00  Length = 3924574 BitCount = 135 ID = 270827584x
   7.499800 1  10230040x       Rx   d 8 10 00 00 00 10 00 00 00  Length = 4258223 BitCount = 146 ID = 270729280x
   7.502019 1  13FFE058x       Rx   d 0  Length = 2094710 BitCount = 74 ID = 335536216x
   7.506250 1  102CC040x       Rx   d 8 01 00 CF 00 00 59 06 8D  Length = 4104566 BitCount = 141 ID = 271368256x
   7.514801 1  102CE040x       Rx   d 8 40 00 32 00 00 00 06 C9  Length = 4194562 BitCount = 144 ID = 271376448x
   7.519906 1  10240040x       Rx   d 8 83 FF 88 01 00 41 00 00  Length = 4228208 BitCount = 145 ID = 270794816x
   7.524799 1  102D0040x       Rx   d 8 01 00 01 00 48 00 00 FF  Length = 4198208 BitCount = 144 ID = 271384640x
   7.527742 1  10308060x       Rx   d 3 A9 84 01  Length = 2818232 BitCount = 98 ID = 271614048x
   7.530463 CAN 1 Status:chip status error active  - TxErr: 0 RxErr: 1
   7.530470 1  ErrorFrame	Flags = 0xfffe	CodeExt = 0x2072	Code = 0x81	ID = 0x90424060	DLC = 3	Position = 80	Length = 2604375	Data = 0x4  0x86  0x8a
   7.533555 CAN 1 Status:chip status error active
   7.533773 1  10424060x       Rx   d 3 04 86 8A  Length = 2788236 BitCount = 97 ID = 272777312x
   7.537313 1  10806040x       Rx   d 5 00 00 00 00 19  Length = 3418220 BitCount = 118 ID = 276848704x
   7.539472 1  13FFE0BBx       Rx   d 0  Length = 2034718 BitCount = 72 ID = 335536315x
   7.541664 1  13FFE0BCx       Rx   d 0  Length = 2068260 BitCount = 73 ID = 335536316x
   7.545983 1  102CA040x       Rx   d 8 00 00 00 00 4B 00 F1 00  Length = 4194562 BitCount = 144 ID = 271360064x
   7.551895 1  103D20BCx       Rx   d 1 00  Length = 2304686 BitCount = 81 ID = 272441532x
   7.556341 1  10780040x       Rx   d 8 00 00 01 00 08 00 00 00  Length = 4318223 BitCount = 148 ID = 276299840x
   7.564835 1  10264040x       Rx   d 8 04 0E 00 00 00 00 00 00  Length = 4228208 BitCount = 145 ID = 270942272x
   7.569907 1  10210040x       Rx   d 8 00 00 00 00 00 00 00 00  Length = 4288223 BitCount = 147 ID = 270598208x
   7.573177 1  10250040x       Rx   d 2 00 01  Length = 2574669 BitCount = 90 ID = 270860352x
   7.580080 1  10220040x       Rx   d 8 10 00 00 00 0F FA 00 00  Length = 4284562 BitCount = 147 ID = 270663744x
   7.584371 1  10788040x       Rx   d 6 08 00 00 00 00 00  Length = 3774582 BitCount = 130 ID = 276332608x
   7.589835 1  1022E040x       Rx   d 8 20 00 00 00 20 00 00 00  Length = 4288223 BitCount = 147 ID = 270721088x
   7.594304 1  10800040x       Rx   d 6 00 EC 00 00 00 00  Length = 3684586 BitCount = 127 ID = 276824128x
   7.599825 1  10230040x       Rx   d 8 30 00 00 00 30 00 00 00  Length = 4254562 BitCount = 146 ID = 270729280x
   7.619839 1  10240040x       Rx   d 8 83 FF 88 01 00 41 00 00  Length = 4224562 BitCount = 145 ID = 270794816x
   7.625060 1  106B8040x       Rx   d 8 00 00 00 00 00 00 00 00  Length = 4314558 BitCount = 148 ID = 275480640x
   7.629081 1  102C0040x       Rx   d 5 44 05 A9 84 03  Length = 3324602 BitCount = 115 ID = 271319104x
   7.634066 1  10308060x       Rx   d 3 A9 84 01  Length = 2818232 BitCount = 98 ID = 271614048x
   7.639859 1  102CA040x       Rx   d 8 00 00 00 00 4B 00 F1 00  Length = 4198208 BitCount = 144 ID = 271360064x
   7.642738 1  10304058x       Rx   d 3 A9 84 01  Length = 2754642 BitCount = 96 ID = 271597656x
   7.659843 1  10264040x       Rx   d 8 04 0E 00 00 00 00 00 00  Length = 4228208 BitCount = 145 ID = 270942272x
   7.662273 1  103D20BCx       Rx   d 1 00  Length = 2308248 BitCount = 81 ID = 272441532x
   7.669897 1  10210040x       Rx   d 8 00 00 00 00 00 00 00 00  Length = 4288208 BitCount = 147 ID = 270598208x
   7.679921 1  10220040x       Rx   d 8 10 00 00 00 0F FA 00 00  Length = 4288223 BitCount = 147 ID = 270663744x
   7.689885 1  1022E040x       Rx   d 8 00 00 00 00 00 00 00 00  Length = 4318208 BitCount = 148 ID = 270721088x
   7.692733 1  10306099x       Rx   d 3 A9 84 01  Length = 2724642 BitCount = 95 ID = 271605913x
   7.695436 1  10250040x       Rx   d 2 00 01  Length = 2578240 BitCount = 90 ID = 270860352x
   7.699845 1  10230040x       Rx   d 8 10 00 00 00 10 00 00 00  Length = 4254577 BitCount = 146 ID = 270729280x
   7.719922 1  1022A040x       Rx   d 8 00 B0 00 00 00 00 00 00  Length = 4288208 BitCount = 147 ID = 270704704x
   7.724452 1  1022C040x       Rx   d 6 00 00 00 00 00 00  Length = 3774582 BitCount = 130 ID = 270712896x
   7.729853 1  10240040x       Rx   d 8 83 FF 88 01 00 41 00 00  Length = 4224562 BitCount = 145 ID = 270794816x
   7.739878 1  102CA040x       Rx   d 8 00 00 00 00 4B 00 F1 00  Length = 4198208 BitCount = 144 ID = 271360064x
   7.744080 1  10308060x       Rx   d 3 A9 84 01  Length = 2818232 BitCount = 98 ID = 271614048x
   7.749752 1  102CC040x       Rx   d 8 01 00 CF 00 00 59 06 8D  Length = 4108212 BitCount = 141 ID = 271368256x
   7.756351 1  102F0080x       Rx   d 3 09 00 00  Length = 2844634 BitCount = 99 ID = 271515776x
   7.760700 1  10264040x       Rx   d 8 04 0E 00 00 00 00 00 00  Length = 4224562 BitCount = 145 ID = 270942272x
   7.769946 1  10210040x       Rx   d 8 00 00 00 00 00 00 00 00  Length = 4288223 BitCount = 147 ID = 270598208x
   7.772376 1  103D20BCx       Rx   d 1 00  Length = 2308248 BitCount = 81 ID = 272441532x
   7.776699 1  102CE040x       Rx   d 8 40 00 32 00 00 00 06 C9  Length = 4198208 BitCount = 144 ID = 271376448x
   7.784953 1  10220040x       Rx   d 8 10 00 00 00 0F FA 00 00  Length = 4288208 BitCount = 147 ID = 270663744x
   7.789876 1  1022E040x       Rx   d 8 20 00 00 00 20 00 00 00  Length = 4288208 BitCount = 147 ID = 270721088x
   7.795005 1  10780040x       Rx   d 8 00 00 01 00 08 00 00 00  Length = 4314558 BitCount = 148 ID = 276299840x
   7.799840 1  10230040x       Rx   d 8 30 00 00 00 30 00 00 00  Length = 4258208 BitCount = 146 ID = 270729280x
   7.804339 1  10800040x       Rx   d 6 00 EC 00 00 00 00  Length = 3684586 BitCount = 127 ID = 276824128x
   7.808184 1  10250040x       Rx   d 2 00 01  Length = 2578240 BitCount = 90 ID = 270860352x
   7.819888 1  10240040x       Rx   d 8 83 FF 88 01 00 41 00 00  Length = 4228208 BitCount = 145 ID = 270794816x
   7.824961 1  106B8040x       Rx   d 8 00 00 00 00 00 00 00 00  Length = 4318208 BitCount = 148 ID = 275480640x
   7.839872 1  102CA040x       Rx   d 8 00 00 00 00 4B 00 F1 00  Length = 4194562 BitCount = 144 ID = 271360064x
   7.849438 1  10734099x       Rx   d 6 10 00 00 7D 00 00  Length = 3624586 BitCount = 125 ID = 275988633x
   7.854057 1  10308060x       Rx   d 3 A9 84 01  Length = 2814638 BitCount = 98 ID = 271614048x
   7.859881 1  10264040x       Rx   d 8 04 0E 00 00 00 00 00 00  Length = 4228208 BitCount = 145 ID = 270942272x
   7.866360 1  102F0080x       Rx   d 3 12 00 00  Length = 2874630 BitCount = 100 ID = 271515776x
   7.870770 1  10210040x       Rx   d 8 00 00 00 00 00 00 00 00  Length = 4284562 BitCount = 147 ID = 270598208x
   7.872965 1  13FFE099x       Rx   d 0  Length = 2068275 BitCount = 73 ID = 335536281x
   7.875187 1  13FFE060x       Rx   d 0  Length = 2098256 BitCount = 74 ID = 335536224x
   7.877379 1  13FFE080x       Rx   d 0  Length = 2068260 BitCount = 73 ID = 335536256x
   7.881758 1  10220040x       Rx   d 8 10 00 00 00 0F FB 00 00  Length = 4254562 BitCount = 146 ID = 270663744x
   7.884192 1  103D20BCx       Rx   d 1 00  Length = 2308263 BitCount = 81 ID = 272441532x
   7.889925 1  1022E040x       Rx   d 8 00 00 00 00 00 00 00 00  Length = 4318208 BitCount = 148 ID = 270721088x
   7.895139 1  10324058x       Rx   d 6 00 00 07 EF 00 00  Length = 3680967 BitCount = 127 ID = 271728728x
   7.899853 1  10230040x       Rx   d 8 10 00 00 00 10 00 00 00  Length = 4258208 BitCount = 146 ID = 270729280x
   7.919899 1  10240040x       Rx   d 8 80 00 88 01 00 41 00 00  Length = 4228208 BitCount = 145 ID = 270794816x
   7.923318 1  10250040x       Rx   d 2 00 01  Length = 2574658 BitCount = 90 ID = 270860352x
   7.928963 1  102C0040x       Rx   d 5 44 05 A9 84 03  Length = 3328224 BitCount = 115 ID = 271319104x
   7.934212 1  621             Rx   d 8 00 52 00 00 00 00 00 00  Length = 3594590 BitCount = 124 ID = 1569
   7.939917 1  102CA040x       Rx   d 8 00 00 00 00 4B 00 F1 00  Length = 4198223 BitCount = 144 ID = 271360064x
   7.942796 1  10304058x       Rx   d 3 A9 84 01  Length = 2754642 BitCount = 96 ID = 271597656x
   7.959901 1  10264040x       Rx   d 8 04 0E 00 00 00 00 00 00  Length = 4228208 BitCount = 145 ID = 270942272x
   7.964074 1  10308060x       Rx   d 3 A9 84 01  Length = 2818232 BitCount = 98 ID = 271614048x
   7.968691 1  10814099x       Rx   d 4 00 00 00 00  Length = 3084618 BitCount = 107 ID = 276906137x
   7.973103 1  10210040x       Rx   d 8 00 00 00 00 00 00 00 00  Length = 4288208 BitCount = 147 ID = 270598208x
   7.979973 1  10220040x       Rx   d 8 10 00 00 00 0F FA 00 00  Length = 4284562 BitCount = 147 ID = 270663744x
   7.984987 1  1022A040x       Rx   d 8 00 B0 00 00 00 00 00 00  Length = 4288208 BitCount = 147 ID = 270704704x
   7.988289 1  10306099x       Rx   d 3 A9 84 01  Length = 2728236 BitCount = 95 ID = 271605913x
   7.992191 1  1022C040x       Rx   d 6 00 00 00 00 00 00  Length = 3778216 BitCount = 130 ID = 270712896x
   7.994622 1  103D20BCx       Rx   d 1 00  Length = 2308248 BitCount = 81 ID = 272441532x
   7.999934 1  1022E040x       Rx   d 8 30 00 00 00 30 00 00 00  Length = 4288208 BitCount = 147 ID = 270721088x
   8.004884 1  10230040x       Rx   d 8 30 00 00 00 30 00 00 00  Length = 4254562 BitCount = 146 ID = 270729280x
   8.009600 1  10248040x       Rx   d 7 00 00 5F F5 F5 FC 00  Length = 3928212 BitCount = 135 ID = 270827584x
   8.014820 1  102CC040x       Rx   d 8 01 00 CF 00 00 5A 06 8D  Length = 4104581 BitCount = 141 ID = 271368256x
   8.019950 1  10240040x       Rx   d 8 83 FF 88 01 00 41 00 00  Length = 4224562 BitCount = 145 ID = 270794816x
   8.024905 1  102CE040x       Rx   d 8 40 00 32 00 00 00 06 C9  Length = 4198223 BitCount = 144 ID = 271376448x
   8.029888 1  102D0040x       Rx   d 8 01 00 01 00 48 00 00 FF  Length = 4198208 BitCount = 144 ID = 271384640x
   8.034897 1  102E0040x       Rx   d 8 00 00 CA 00 89 00 5E 71  Length = 4134566 BitCount = 142 ID = 271450176x
   8.038232 1  10250040x       Rx   d 2 00 01  Length = 2578240 BitCount = 90 ID = 270860352x
   8.044921 1  102CA040x       Rx   d 8 00 00 00 00 4B 00 F1 00  Length = 4194562 BitCount = 144 ID = 271360064x
   8.048793 1  Statistic: D 1 R 0 XD 164 XR 0 E 2 O 0 B 63.73%
   8.048793 2  Statistic: D 0 R 0 XD 0 XR 0 E 0 O 0 B 0.00%
   8.049126 1  10466040x       Rx   d 5 00 00 00 00 00  Length = 3448220 BitCount = 119 ID = 273047616x
   8.055035 1  106B8040x       Rx   d 8 00 00 00 00 00 00 00 00  Length = 4314558 BitCount = 148 ID = 275480640x
   8.059930 1  10264040x       Rx   d 8 04 0E 00 00 00 00 00 00  Length = 4228223 BitCount = 145 ID = 270942272x
   8.063983 1  106C0040x       Rx   d 5 00 03 D1 C6 00  Length = 3328235 BitCount = 115 ID = 275513408x
   8.066682 1  106D0080x       Rx   d 2 00 00  Length = 2574658 BitCount = 90 ID = 275579008x
   8.071092 1  10210040x       Rx   d 8 00 00 00 00 00 00 00 00  Length = 4284562 BitCount = 147 ID = 270598208x
   8.074127 1  10308060x       Rx   d 3 A9 84 01  Length = 2818232 BitCount = 98 ID = 271614048x
   8.080096 1  10220040x       Rx   d 8 10 00 00 00 0F FC 00 00  Length = 4344558 BitCount = 149 ID = 270663744x
   8.082289 1  13FFE068x       Rx   d 0  Length = 2064714 BitCount = 73 ID = 335536232x
   8.085561 1  1077C040x       Rx   d 4 30 30 01 F4  Length = 3144629 BitCount = 109 ID = 276283456x
   8.094987 1  1022E040x       Rx   d 8 00 00 00 00 00 00 00 00  Length = 4318223 BitCount = 148 ID = 270721088x
   8.099906 1  10230040x       Rx   d 8 10 00 00 00 10 00 00 00  Length = 4254562 BitCount = 146 ID = 270729280x
   8.102402 1  103D20BCx       Rx   d 1 00  Length = 2308248 BitCount = 81 ID = 272441532x
   8.106845 1  10780040x       Rx   d 8 00 00 01 00 08 00 00 00  Length = 4318208 BitCount = 148 ID = 276299840x
   8.114498 1  10788040x       Rx   d 6 08 00 00 00 00 00  Length = 3778216 BitCount = 130 ID = 276332608x
   8.119961 1  10240040x       Rx   d 8 80 00 88 01 00 41 00 00  Length = 4228208 BitCount = 145 ID = 270794816x
   8.124401 1  10800040x       Rx   d 6 00 EC 00 00 00 00  Length = 3684586 BitCount = 127 ID = 276824128x
   8.129115 1  10806040x       Rx   d 5 00 00 00 00 19  Length = 3418220 BitCount = 118 ID = 276848704x
   8.139949 1  102CA040x       Rx   d 8 00 00 00 00 4B 00 F1 00  Length = 4198208 BitCount = 144 ID = 271360064x
   8.148229 1  10250040x       Rx   d 2 00 01  Length = 2574658 BitCount = 90 ID = 270860352x
   8.159935 1  10264040x       Rx   d 8 04 0E 00 00 00 00 00 00  Length = 4228223 BitCount = 145 ID = 270942272x
   8.169989 1  10210040x       Rx   d 8 00 00 00 00 00 00 00 00  Length = 4288208 BitCount = 147 ID = 270598208x
   8.180133 1  10220040x       Rx   d 8 10 00 00 00 0F FA 00 00  Length = 4288208 BitCount = 147 ID = 270663744x
   8.184096 1  10308060x       Rx   d 3 A9 84 01  Length = 2818232 BitCount = 98 ID = 271614048x
   8.189979 1  1022E040x       Rx   d 8 20 00 00 00 20 00 00 00  Length = 4288208 BitCount = 147 ID = 270721088x
   8.199943 1  10230040x       Rx   d 8 30 00 00 00 30 00 00 00  Length = 4258208 BitCount = 146 ID = 270729280x
   8.212581 1  103D20BCx       Rx   d 1 00  Length = 2304697 BitCount = 81 ID = 272441532x
   8.220027 1  1022A040x       Rx   d 8 00 B0 00 00 00 00 00 00  Length = 4288208 BitCount = 147 ID = 270704704x
   8.224466 1  1022C040x       Rx   d 6 00 00 00 00 00 00  Length = 3774582 BitCount = 130 ID = 270712896x
   8.229991 1  10240040x       Rx   d 8 83 FF 88 01 00 41 00 00  Length = 4228208 BitCount = 145 ID = 270794816x
   8.234014 1  102C0040x       Rx   d 5 44 05 A9 84 03  Length = 3328224 BitCount = 115 ID = 271319104x
   8.239983 1  102CA040x       Rx   d 8 00 00 00 00 4B 00 F1 00  Length = 4194562 BitCount = 144 ID = 271360064x
   8.245058 1  106B8040x       Rx   d 8 00 00 00 00 00 00 00 00  Length = 4318208 BitCount = 148 ID = 275480640x
   8.249860 1  102CC040x       Rx   d 8 01 00 CF 00 00 5A 06 8D  Length = 4108212 BitCount = 141 ID = 271368256x
   8.252739 1  10304058x       Rx   d 3 A9 84 01  Length = 2754657 BitCount = 96 ID = 271597656x
   8.258263 1  10250040x       Rx   d 2 00 01  Length = 2578240 BitCount = 90 ID = 270860352x
