date Tue Sep 20 03:43:15.039 pm 2016
base hex  timestamps absolute
internal events logged
// version 9.0.0
Begin Triggerblock Tue Sep 20 03:43:15.039 pm 2016
   0.000000 Start of measurement
   0.002293 Li SleepModeEvent 0 starting up in wake mode
   0.002600 CAN 1 Status:chip status error active
   0.002600 CAN 2 Status:chip status error active
   0.002600 CAN 3 Status:chip status error active
   0.006230 1  106B0040x       Rx   d 1 00  Length = 2308248 BitCount = 81 ID = 275447872x
   0.018200 1  10264040x       Rx   d 8 04 06 00 00 00 00 00 25  Length = 4224577 BitCount = 145 ID = 270942272x
   0.028256 1  10210040x       Rx   d 8 00 00 00 00 00 00 00 00  Length = 4288208 BitCount = 147 ID = 270598208x
   0.038221 1  10220040x       Rx   d 8 10 00 00 00 00 06 00 00  Length = 4288208 BitCount = 147 ID = 270663744x
   0.048155 1  1022E040x       Rx   d 8 10 00 00 00 10 00 00 00  Length = 4258208 BitCount = 146 ID = 270721088x
   0.058180 1  10230040x       Rx   d 8 20 00 00 00 20 00 00 00  Length = 4258208 BitCount = 146 ID = 270729280x
   0.067514 1  621             Rx   d 8 00 52 00 00 00 00 00 00  Length = 3598216 BitCount = 124 ID = 1569
   0.078168 1  1022A040x       Rx   d 8 00 B0 00 12 42 00 00 22  Length = 4138208 BitCount = 142 ID = 270704704x
   0.082638 1  1022C040x       Rx   d 6 00 10 00 20 00 00  Length = 3684586 BitCount = 127 ID = 270712896x
   0.088193 1  10240040x       Rx   d 8 83 FF 88 01 01 13 0F FC  Length = 4198208 BitCount = 144 ID = 270794816x
   0.092246 1  102C0040x       Rx   d 5 AE EF 44 59 03  Length = 3298224 BitCount = 114 ID = 271319104x
   0.097799 1  10248040x       Rx   d 7 00 00 6D D2 CC 07 00  Length = 3838212 BitCount = 132 ID = 270827584x
   0.103175 1  102CA040x       Rx   d 8 00 40 0C A8 29 00 F1 00  Length = 4138223 BitCount = 142 ID = 271360064x
   0.108068 1  102CC040x       Rx   d 8 00 09 CF 69 00 87 06 A9  Length = 4048212 BitCount = 139 ID = 271368256x
   0.113291 1  106B8040x       Rx   d 8 00 00 00 00 00 00 00 00  Length = 4318208 BitCount = 148 ID = 275480640x
   0.116139 1  10304058x       Rx   d 3 44 59 01  Length = 2724642 BitCount = 95 ID = 271597656x
   0.120521 1  10264040x       Rx   d 8 04 06 00 00 00 00 00 38  Length = 4258208 BitCount = 146 ID = 270942272x
   0.128349 1  10210040x       Rx   d 8 00 00 00 00 00 00 00 00  Length = 4284562 BitCount = 147 ID = 270598208x
   0.133124 1  102CE040x       Rx   d 8 90 00 63 7F 00 00 26 A8  Length = 4108223 BitCount = 141 ID = 271376448x
   0.136038 1  10308060x       Rx   d 3 44 59 01  Length = 2788247 BitCount = 97 ID = 271614048x
   0.140448 1  10220040x       Rx   d 8 10 00 00 00 00 06 00 00  Length = 4284562 BitCount = 147 ID = 270663744x
   0.148253 1  1022E040x       Rx   d 8 30 00 00 00 30 00 00 00  Length = 4288208 BitCount = 147 ID = 270721088x
   0.151259 1  106B0040x       Rx   d 1 00  Length = 2308248 BitCount = 81 ID = 275447872x
   0.154137 1  10306099x       Rx   d 3 44 59 01  Length = 2754657 BitCount = 96 ID = 271605913x
   0.157886 1  C800040x        Rx   d 6 08 CB 00 00 37 81  Length = 3624586 BitCount = 125 ID = 209715264x
   0.163261 1  10230040x       Rx   d 8 00 00 00 00 00 00 00 00  Length = 4288223 BitCount = 147 ID = 270729280x
   0.168334 1  10780040x       Rx   d 8 00 00 01 04 08 00 00 22  Length = 4288208 BitCount = 147 ID = 276299840x
   0.178269 1  10240040x       Rx   d 8 83 FF 88 01 01 13 0F FC  Length = 4198208 BitCount = 144 ID = 270794816x
   0.198162 1  102CA040x       Rx   d 8 00 40 0C C0 29 00 F1 00  Length = 4134566 BitCount = 142 ID = 271360064x
   0.218270 1  10264040x       Rx   d 8 04 06 00 00 00 00 00 38  Length = 4258208 BitCount = 146 ID = 270942272x
   0.223286 1  1043A040x       Rx   d 8 00 00 34 00 00 00 00 00  Length = 4288208 BitCount = 147 ID = 272867392x
   0.228357 1  10210040x       Rx   d 8 00 00 00 00 00 00 00 00  Length = 4288208 BitCount = 147 ID = 270598208x
   0.238289 1  10220040x       Rx   d 8 10 00 00 00 00 06 00 00  Length = 4288208 BitCount = 147 ID = 270663744x
   0.248256 1  1022E040x       Rx   d 8 10 00 00 00 10 00 00 00  Length = 4258208 BitCount = 146 ID = 270721088x
   0.258220 1  10230040x       Rx   d 8 20 00 00 00 20 00 00 00  Length = 4258208 BitCount = 146 ID = 270729280x
   0.265634 1  108E0080x       Rx   d 6 0E 01 17 02 05 AE  Length = 3598216 BitCount = 124 ID = 277741696x
   0.268067 1  106B0040x       Rx   d 1 00  Length = 2308248 BitCount = 81 ID = 275447872x
   0.278299 1  10240040x       Rx   d 8 83 FE 88 01 01 13 0F FC  Length = 4168208 BitCount = 143 ID = 270794816x
   0.283342 1  106B8040x       Rx   d 8 00 00 00 00 00 00 00 00  Length = 4318208 BitCount = 148 ID = 275480640x
   0.292851 1  13FFE068x       Rx   d 0  Length = 2064714 BitCount = 73 ID = 335536232x
   0.295552 1  106D0080x       Rx   d 2 00 00  Length = 2574658 BitCount = 90 ID = 275579008x
   0.299756 1  102CA040x       Rx   d 8 00 40 0C D7 29 00 F1 00  Length = 4078227 BitCount = 140 ID = 271360064x
   0.318240 1  10264040x       Rx   d 8 04 06 00 00 00 00 00 27  Length = 4228223 BitCount = 145 ID = 270942272x
   0.328357 1  10210040x       Rx   d 8 00 00 00 00 00 00 00 00  Length = 4288208 BitCount = 147 ID = 270598208x
   0.333188 1  1022A040x       Rx   d 8 00 B0 00 12 42 00 00 22  Length = 4138208 BitCount = 142 ID = 270704704x
   0.338351 1  10220040x       Rx   d 8 10 00 00 00 00 07 00 00  Length = 4318208 BitCount = 148 ID = 270663744x
   0.342703 1  1022C040x       Rx   d 6 00 10 00 20 00 00  Length = 3688216 BitCount = 127 ID = 270712896x
   0.348284 1  1022E040x       Rx   d 8 30 00 00 00 30 00 00 00  Length = 4288208 BitCount = 147 ID = 270721088x
   0.358400 1  10230040x       Rx   d 8 00 00 00 00 00 00 00 00  Length = 4288208 BitCount = 147 ID = 270729280x
   0.363141 1  102CC040x       Rx   d 8 00 09 CF 69 00 87 06 A6  Length = 4078212 BitCount = 140 ID = 271368256x
   0.368213 1  102CE040x       Rx   d 8 90 00 64 7F 00 00 26 A6  Length = 4104566 BitCount = 141 ID = 271376448x
   0.373138 1  102D0040x       Rx   d 8 01 69 01 ED 7C 8A 00 FF  Length = 4078212 BitCount = 140 ID = 271384640x
   0.378267 1  10240040x       Rx   d 8 83 FE 88 01 01 13 0F FC  Length = 4164581 BitCount = 143 ID = 270794816x
   0.381302 1  106B0040x       Rx   d 1 00  Length = 2308263 BitCount = 81 ID = 275447872x
   0.387302 1  102C0040x       Rx   d 5 AE EF 44 59 03  Length = 3294606 BitCount = 114 ID = 271319104x
   0.392467 1  10806040x       Rx   d 5 00 00 00 00 19  Length = 3418235 BitCount = 118 ID = 276848704x
   0.398258 1  102CA040x       Rx   d 8 00 40 0C D1 29 00 F1 00  Length = 4108212 BitCount = 141 ID = 271360064x
   0.403477 1  10780040x       Rx   d 8 00 00 01 04 08 00 00 22  Length = 4284562 BitCount = 147 ID = 276299840x
   0.406357 1  10306099x       Rx   d 3 44 59 01  Length = 2754642 BitCount = 96 ID = 271605913x
   0.410141 1  C800040x        Rx   d 6 08 CB 00 00 37 83  Length = 3658216 BitCount = 126 ID = 209715264x
   0.415905 1  10308060x       Rx   d 3 44 59 01  Length = 2788236 BitCount = 97 ID = 271614048x
   0.420227 1  10264040x       Rx   d 8 04 06 00 00 00 00 00 3A  Length = 4198208 BitCount = 144 ID = 270942272x
   0.423075 1  10304058x       Rx   d 3 44 59 01  Length = 2724657 BitCount = 95 ID = 271597656x
   0.428449 1  10210040x       Rx   d 8 00 00 00 00 00 00 00 00  Length = 4288208 BitCount = 147 ID = 270598208x
   0.432832 1  10788040x       Rx   d 6 08 00 00 00 00 00  Length = 3778231 BitCount = 130 ID = 276332608x
   0.438384 1  10220040x       Rx   d 8 10 00 00 00 00 08 00 00  Length = 4318223 BitCount = 148 ID = 270663744x
   0.444143 1  10734099x       Rx   d 6 24 40 00 7D 00 00  Length = 3594590 BitCount = 124 ID = 275988633x
   0.448522 1  1022E040x       Rx   d 8 10 00 00 00 10 00 00 00  Length = 4254562 BitCount = 146 ID = 270721088x
   0.458278 1  10230040x       Rx   d 8 20 00 00 00 20 00 00 00  Length = 4258223 BitCount = 146 ID = 270729280x
   0.468365 1  1043A040x       Rx   d 8 00 00 35 00 00 00 00 00  Length = 4288208 BitCount = 147 ID = 272867392x
   0.478387 1  10240040x       Rx   d 8 83 FF 88 01 01 13 0F FC  Length = 4198208 BitCount = 144 ID = 270794816x
   0.483400 1  106B8040x       Rx   d 8 00 00 00 00 00 00 00 00  Length = 4318208 BitCount = 148 ID = 275480640x
   0.498226 1  102CA040x       Rx   d 8 00 40 0C D2 29 00 F1 00  Length = 4078212 BitCount = 140 ID = 271360064x
   0.501411 1  106B0040x       Rx   d 1 00  Length = 2308248 BitCount = 81 ID = 275447872x
   0.518247 1  10264040x       Rx   d 8 04 06 00 00 00 00 00 3A  Length = 4198208 BitCount = 144 ID = 270942272x
   0.528361 1  10210040x       Rx   d 8 00 00 00 00 00 00 00 00  Length = 4288208 BitCount = 147 ID = 270598208x
   0.538386 1  10220040x       Rx   d 8 10 00 00 00 00 08 00 00  Length = 4318208 BitCount = 148 ID = 270663744x
   0.548320 1  1022E040x       Rx   d 8 30 00 00 00 30 00 00 00  Length = 4288208 BitCount = 147 ID = 270721088x
   0.558435 1  10230040x       Rx   d 8 00 00 00 00 00 00 00 00  Length = 4288208 BitCount = 147 ID = 270729280x
   0.578238 1  1022A040x       Rx   d 8 00 B0 00 12 42 00 00 22  Length = 4134566 BitCount = 142 ID = 270704704x
   0.582773 1  1022C040x       Rx   d 6 00 10 00 20 00 00  Length = 3688216 BitCount = 127 ID = 270712896x
   0.588268 1  10240040x       Rx   d 8 83 FE 88 01 01 13 0F FC  Length = 4168208 BitCount = 143 ID = 270794816x
   0.592321 1  10708040x       Rx   d 5 02 26 02 26 3D  Length = 3268224 BitCount = 113 ID = 275808320x
   0.597964 1  10248040x       Rx   d 7 00 00 6D D2 CC 08 00  Length = 3868212 BitCount = 133 ID = 270827584x
   0.603214 1  102CA040x       Rx   d 8 00 40 0C C9 29 00 F1 00  Length = 4074566 BitCount = 140 ID = 271360064x
   0.608199 1  102CC040x       Rx   d 8 00 09 CF 69 00 87 06 A5  Length = 4048227 BitCount = 139 ID = 271368256x
   0.618311 1  10264040x       Rx   d 8 04 06 00 00 00 00 00 3A  Length = 4198208 BitCount = 144 ID = 270942272x
   0.623204 1  102CE040x       Rx   d 8 90 00 64 7F 00 00 26 A5  Length = 4078212 BitCount = 140 ID = 271376448x
   0.626953 1  624             Rx   d 8 00 20 00 00 00 00 00 00  Length = 3624601 BitCount = 125 ID = 1572
   0.631362 1  10210040x       Rx   d 8 00 00 00 00 00 00 00 00  Length = 4284573 BitCount = 147 ID = 270598208x
   0.638448 1  10220040x       Rx   d 8 10 00 00 00 00 04 00 00  Length = 4318208 BitCount = 148 ID = 270663744x
   0.641363 1  106B0040x       Rx   d 1 00  Length = 2308248 BitCount = 81 ID = 275447872x
   0.648326 1  1022E040x       Rx   d 8 10 00 00 00 10 00 00 00  Length = 4258208 BitCount = 146 ID = 270721088x
   0.653458 1  10780040x       Rx   d 8 00 00 01 04 08 00 00 22  Length = 4288208 BitCount = 147 ID = 276299840x
   0.657749 1  C800040x        Rx   d 6 08 CB 00 00 37 87  Length = 3628216 BitCount = 125 ID = 209715264x
   0.663330 1  10230040x       Rx   d 8 20 00 00 00 20 00 00 00  Length = 4258208 BitCount = 146 ID = 270729280x
   0.678398 1  10240040x       Rx   d 8 83 FE 88 01 01 13 0F FC  Length = 4168208 BitCount = 143 ID = 270794816x
   0.683441 1  106B8040x       Rx   d 8 00 00 00 00 00 00 00 00  Length = 4318208 BitCount = 148 ID = 275480640x
   0.687374 1  102C0040x       Rx   d 5 AE EF 44 59 03  Length = 3298224 BitCount = 114 ID = 271319104x
   0.695897 1  10308060x       Rx   d 3 44 59 01  Length = 2788236 BitCount = 97 ID = 271614048x
   0.700128 1  102CA040x       Rx   d 8 00 40 0C C8 29 00 F1 00  Length = 4108212 BitCount = 141 ID = 271360064x
   0.703340 1  10448060x       Rx   d 4 00 00 45 40  Length = 3088228 BitCount = 107 ID = 272924768x
   0.706218 1  10306099x       Rx   d 3 44 59 01  Length = 2754642 BitCount = 96 ID = 271605913x
   0.715940 1  10304058x       Rx   d 3 44 59 01  Length = 2728236 BitCount = 95 ID = 271597656x
   0.720292 1  10264040x       Rx   d 8 04 06 00 00 00 00 00 26  Length = 4228208 BitCount = 145 ID = 270942272x
   0.724369 1  13FFE0BBx       Rx   d 0  Length = 2034718 BitCount = 72 ID = 335536315x
   0.728782 1  10210040x       Rx   d 8 00 00 00 00 00 00 00 00  Length = 4288208 BitCount = 147 ID = 270598208x
   0.733407 1  1043A040x       Rx   d 8 00 00 36 00 00 00 00 00  Length = 4288208 BitCount = 147 ID = 272867392x
   0.737161 1  62C             Rx   d 8 00 40 00 00 00 00 00 00  Length = 3628216 BitCount = 125 ID = 1580
   0.741601 1  10220040x       Rx   d 8 10 00 00 00 00 03 00 00  Length = 4314558 BitCount = 148 ID = 270663744x
   0.745292 1  631             Rx   d 8 00 40 00 00 00 00 00 00  Length = 3564590 BitCount = 123 ID = 1585
   0.749705 1  1022E040x       Rx   d 8 30 00 00 00 30 00 00 00  Length = 4288208 BitCount = 147 ID = 270721088x
   0.758407 1  10230040x       Rx   d 8 00 00 00 00 00 00 00 00  Length = 4284562 BitCount = 147 ID = 270729280x
   0.761442 1  106B0040x       Rx   d 1 00  Length = 2308263 BitCount = 81 ID = 275447872x
   0.768165 1  1080A040x       Rx   d 7 00 00 00 00 00 00 00  Length = 4018212 BitCount = 138 ID = 276865088x
   0.778366 1  10240040x       Rx   d 8 83 FF 88 01 01 13 0F FC  Length = 4194562 BitCount = 144 ID = 270794816x
   0.798321 1  102CA040x       Rx   d 8 00 40 0C B5 29 00 F1 00  Length = 4074566 BitCount = 140 ID = 271360064x
   0.818369 1  10264040x       Rx   d 8 04 06 00 00 00 00 00 39  Length = 4228208 BitCount = 145 ID = 270942272x
   0.828486 1  10210040x       Rx   d 8 00 00 00 00 00 00 00 00  Length = 4288208 BitCount = 147 ID = 270598208x
   0.833317 1  1022A040x       Rx   d 8 00 B0 00 12 42 00 00 22  Length = 4138223 BitCount = 142 ID = 270704704x
   0.838450 1  10220040x       Rx   d 8 10 00 00 00 00 05 00 00  Length = 4288208 BitCount = 147 ID = 270663744x
   0.842833 1  1022C040x       Rx   d 6 00 10 00 20 00 00  Length = 3688216 BitCount = 127 ID = 270712896x
   0.848389 1  1022E040x       Rx   d 8 10 00 00 00 10 00 00 00  Length = 4258208 BitCount = 146 ID = 270721088x
   0.851722 1  10250040x       Rx   d 2 00 03  Length = 2608240 BitCount = 91 ID = 270860352x
   0.858501 1  10230040x       Rx   d 8 20 00 00 00 20 00 00 00  Length = 4254577 BitCount = 146 ID = 270729280x
   0.863276 1  102CC040x       Rx   d 8 00 09 CF 69 00 87 06 A8  Length = 4078212 BitCount = 140 ID = 271368256x
   0.868320 1  102CE040x       Rx   d 8 90 00 63 7F 00 00 26 A7  Length = 4108212 BitCount = 141 ID = 271376448x
   0.873243 1  102D0040x       Rx   d 8 01 69 01 ED 7C 8A 00 FF  Length = 4078227 BitCount = 140 ID = 271384640x
   0.878434 1  10240040x       Rx   d 8 83 FF 88 01 01 13 0F FC  Length = 4198208 BitCount = 144 ID = 270794816x
   0.883385 1  102E0040x       Rx   d 8 00 33 CA 6F 8A 00 62 81  Length = 4138208 BitCount = 142 ID = 271450176x
   0.886448 1  106B0040x       Rx   d 1 00  Length = 2308248 BitCount = 81 ID = 275447872x
   0.893498 1  106B8040x       Rx   d 8 00 00 00 00 00 00 00 00  Length = 4314558 BitCount = 148 ID = 275480640x
   0.898363 1  102CA040x       Rx   d 8 00 40 0C BF 29 00 F1 00  Length = 4138208 BitCount = 142 ID = 271360064x
   0.902652 1  106C0040x       Rx   d 5 00 06 0F 07 00  Length = 3444598 BitCount = 119 ID = 275513408x
   0.907844 1  C800040x        Rx   d 6 08 CB 00 00 37 89  Length = 3624586 BitCount = 125 ID = 209715264x
   0.912289 1  1077C040x       Rx   d 4 30 30 01 F4  Length = 3148239 BitCount = 109 ID = 276283456x
   0.918414 1  10264040x       Rx   d 8 04 06 00 00 00 00 00 39  Length = 4228208 BitCount = 145 ID = 270942272x
   0.923519 1  10780040x       Rx   d 8 00 00 01 04 08 00 00 22  Length = 4288208 BitCount = 147 ID = 276299840x
   0.928590 1  10210040x       Rx   d 8 00 00 00 00 00 00 00 00  Length = 4288208 BitCount = 147 ID = 270598208x
   0.932943 1  10788040x       Rx   d 6 08 00 00 00 00 00  Length = 3778216 BitCount = 130 ID = 276332608x
   0.938468 1  10220040x       Rx   d 8 10 00 00 00 00 05 00 00  Length = 4288208 BitCount = 147 ID = 270663744x
   0.942582 1  10806040x       Rx   d 5 00 00 00 00 19  Length = 3418220 BitCount = 118 ID = 276848704x
   0.946305 1  10734099x       Rx   d 6 24 40 00 7D 00 00  Length = 3598216 BitCount = 124 ID = 275988633x
   0.950718 1  1022E040x       Rx   d 8 30 00 00 00 30 00 00 00  Length = 4288208 BitCount = 147 ID = 270721088x
   0.958428 1  10230040x       Rx   d 8 00 00 00 00 00 00 00 00  Length = 4284562 BitCount = 147 ID = 270729280x
   0.968484 1  1043A040x       Rx   d 8 00 00 33 00 00 00 00 00  Length = 4288208 BitCount = 147 ID = 272867392x
   0.978418 1  10240040x       Rx   d 8 83 FF 88 01 01 13 0F FC  Length = 4198208 BitCount = 144 ID = 270794816x
   0.987423 1  102C0040x       Rx   d 5 AE EF 44 59 03  Length = 3298239 BitCount = 114 ID = 271319104x
   0.998407 1  102CA040x       Rx   d 8 00 40 0C BB 29 00 F1 00  Length = 4108212 BitCount = 141 ID = 271360064x
   1.001560 1  106B0040x       Rx   d 1 00  Length = 2308248 BitCount = 81 ID = 275447872x
   1.002600 1  Statistic: D 4 R 0 XD 146 XR 0 E 0 O 0 B 59.33%
   1.002600 2  Statistic: D 0 R 0 XD 0 XR 0 E 0 O 0 B 0.00%
   1.002600 3  Statistic: D 0 R 0 XD 0 XR 0 E 0 O 0 B 0.00%
   1.004443 1  10306099x       Rx   d 3 44 59 01  Length = 2758251 BitCount = 96 ID = 271605913x
   1.015749 1  10304058x       Rx   d 3 44 59 01  Length = 2724642 BitCount = 95 ID = 271597656x
   1.020100 1  10264040x       Rx   d 8 04 06 00 00 00 00 00 25  Length = 4224562 BitCount = 145 ID = 270942272x
   1.023015 1  10308060x       Rx   d 3 44 59 01  Length = 2788236 BitCount = 97 ID = 271614048x
   1.028538 1  10210040x       Rx   d 8 00 00 00 00 00 00 00 00  Length = 4288223 BitCount = 147 ID = 270598208x
   1.038475 1  10220040x       Rx   d 8 10 00 00 00 00 05 00 00  Length = 4288208 BitCount = 147 ID = 270663744x
   1.048439 1  1022E040x       Rx   d 8 10 00 00 00 10 00 00 00  Length = 4258208 BitCount = 146 ID = 270721088x
   1.058404 1  10230040x       Rx   d 8 20 00 00 00 20 00 00 00  Length = 4258223 BitCount = 146 ID = 270729280x
   1.067768 1  621             Rx   d 8 00 52 00 00 00 00 00 00  Length = 3598231 BitCount = 124 ID = 1569
   1.078362 1  1022A040x       Rx   d 8 00 B0 00 12 42 00 00 22  Length = 4138208 BitCount = 142 ID = 270704704x
   1.082892 1  1022C040x       Rx   d 6 00 10 00 20 00 00  Length = 3684586 BitCount = 127 ID = 270712896x
   1.088417 1  10240040x       Rx   d 8 83 FF 88 01 01 13 0F FC  Length = 4198208 BitCount = 144 ID = 270794816x
   1.093550 1  106B8040x       Rx   d 8 00 00 00 00 00 00 00 00  Length = 4318223 BitCount = 148 ID = 275480640x
   1.098047 1  10248040x       Rx   d 7 00 00 6D D2 CC 07 00  Length = 3834578 BitCount = 132 ID = 270827584x
   1.103422 1  102CA040x       Rx   d 8 00 40 0C A8 29 00 F1 00  Length = 4138208 BitCount = 142 ID = 271360064x
   1.108348 1  102CC040x       Rx   d 8 00 09 CF 69 00 87 06 A8  Length = 4078212 BitCount = 140 ID = 271368256x
   1.111231 1  13FFE040x       Rx   d 0  Length = 2068260 BitCount = 73 ID = 335536192x
   1.114144 1  13FFE080x       Rx   d 0  Length = 2068260 BitCount = 73 ID = 335536256x
   1.118336 CAN 1 Status:chip status error active  - TxErr: 0 RxErr: 1
   1.118344 1  ErrorFrame	Flags = 0xfffe	CodeExt = 0x2072	Code = 0x81	ID = 0x90264040	DLC = 8	Position = 120	Length = 4074375	Data = 0x4  0x6  0  0  0  0  0  0x37
   1.122901 CAN 1 Status:chip status error active
   1.123119 1  10264040x       Rx   d 8 04 06 00 00 00 00 00 37  Length = 4258223 BitCount = 146 ID = 270942272x
   1.125344 1  13FFE060x       Rx   d 0  Length = 2098271 BitCount = 74 ID = 335536224x
   1.129751 1  10210040x       Rx   d 8 00 00 00 00 00 00 00 00  Length = 4284562 BitCount = 147 ID = 270598208x
   1.132636 1  13FFE099x       Rx   d 0  Length = 2068260 BitCount = 73 ID = 335536281x
   1.138579 1  10220040x       Rx   d 8 10 00 00 00 00 04 00 00  Length = 4318208 BitCount = 148 ID = 270663744x
   1.143382 1  102CE040x       Rx   d 8 90 00 64 7F 00 00 26 A7  Length = 4108223 BitCount = 141 ID = 271376448x
   1.148515 1  1022E040x       Rx   d 8 30 00 00 00 30 00 00 00  Length = 4288208 BitCount = 147 ID = 270721088x
   1.151486 1  106B0040x       Rx   d 1 00  Length = 2308248 BitCount = 81 ID = 275447872x
   1.157852 1  C800040x        Rx   d 6 08 CB 00 00 37 8D  Length = 3598231 BitCount = 124 ID = 209715264x
   1.163525 1  10230040x       Rx   d 8 00 00 00 00 00 00 00 00  Length = 4288223 BitCount = 147 ID = 270729280x
   1.168598 1  10780040x       Rx   d 8 00 00 01 04 08 00 00 22  Length = 4288208 BitCount = 147 ID = 276299840x
   1.176668 1  10324058x       Rx   d 6 00 00 03 FF 00 00  Length = 3688216 BitCount = 127 ID = 271728728x
   1.180987 1  10240040x       Rx   d 8 83 FF 88 01 01 13 0F FC  Length = 4194562 BitCount = 144 ID = 270794816x
   1.183212 1  13FFE058x       Rx   d 0  Length = 2098256 BitCount = 74 ID = 335536216x
   1.198427 1  102CA040x       Rx   d 8 00 40 0C 9F 29 00 F1 00  Length = 4138223 BitCount = 142 ID = 271360064x
   1.200620 1  13FFE0AFx       Rx   d 0  Length = 2068275 BitCount = 73 ID = 335536303x
   1.218476 1  10264040x       Rx   d 8 04 06 00 00 00 00 00 37  Length = 4258208 BitCount = 146 ID = 270942272x
   1.223516 1  1043A040x       Rx   d 8 00 00 33 00 00 00 00 00  Length = 4284562 BitCount = 147 ID = 272867392x
   1.228561 1  10210040x       Rx   d 8 00 00 00 00 00 00 00 00  Length = 4288208 BitCount = 147 ID = 270598208x
   1.238523 1  10220040x       Rx   d 8 10 00 00 00 00 05 00 00  Length = 4288208 BitCount = 147 ID = 270663744x
   1.248459 1  1022E040x       Rx   d 8 10 00 00 00 10 00 00 00  Length = 4258208 BitCount = 146 ID = 270721088x
   1.258484 1  10230040x       Rx   d 8 20 00 00 00 20 00 00 00  Length = 4258208 BitCount = 146 ID = 270729280x
   1.265593 1  108E0080x       Rx   d 6 0E 01 17 02 05 AF  Length = 3594590 BitCount = 124 ID = 277741696x
   1.268027 1  106B0040x       Rx   d 1 00  Length = 2308263 BitCount = 81 ID = 275447872x
   1.278531 1  10240040x       Rx   d 8 83 FF 88 01 01 13 0F FC  Length = 4198208 BitCount = 144 ID = 270794816x
   1.283572 1  106B8040x       Rx   d 8 00 00 00 00 00 00 00 00  Length = 4314558 BitCount = 148 ID = 275480640x
   1.287537 1  102C0040x       Rx   d 5 AE EF 44 59 03  Length = 3298224 BitCount = 114 ID = 271319104x
   1.295910 1  10308060x       Rx   d 3 44 59 01  Length = 2788236 BitCount = 97 ID = 271614048x
   1.300170 1  102CA040x       Rx   d 8 00 40 0C B8 29 00 F1 00  Length = 4134566 BitCount = 142 ID = 271360064x
   1.303294 1  10306099x       Rx   d 3 44 59 01  Length = 2758236 BitCount = 96 ID = 271605913x
   1.315800 1  10304058x       Rx   d 3 44 59 01  Length = 2724642 BitCount = 95 ID = 271597656x
   1.320179 1  10264040x       Rx   d 8 04 06 00 00 00 00 00 38  Length = 4254562 BitCount = 146 ID = 270942272x
   1.328705 1  10210040x       Rx   d 8 00 00 00 00 00 00 00 00  Length = 4288223 BitCount = 147 ID = 270598208x
   1.333446 1  1022A040x       Rx   d 8 00 B0 00 12 42 00 00 22  Length = 4138223 BitCount = 142 ID = 270704704x
   1.338548 1  10220040x       Rx   d 8 10 00 00 00 00 06 00 00  Length = 4284573 BitCount = 147 ID = 270663744x
   1.342929 1  1022C040x       Rx   d 6 00 10 00 20 00 00  Length = 3684586 BitCount = 127 ID = 270712896x
   1.348514 1  1022E040x       Rx   d 8 30 00 00 00 30 00 00 00  Length = 4288208 BitCount = 147 ID = 270721088x
   1.358508 1  10230040x       Rx   d 8 00 00 00 00 00 00 00 00  Length = 4288223 BitCount = 147 ID = 270729280x
   1.363401 1  102CC040x       Rx   d 8 00 09 CF 69 00 87 06 A8  Length = 4078212 BitCount = 140 ID = 271368256x
   1.368445 1  102CE040x       Rx   d 8 90 00 64 7F 00 00 26 A7  Length = 4108212 BitCount = 141 ID = 271376448x
   1.373366 1  102D0040x       Rx   d 8 01 69 01 ED 7C 8A 00 FF  Length = 4078212 BitCount = 140 ID = 271384640x
   1.378499 1  10240040x       Rx   d 8 83 FE 88 01 01 13 0F FC  Length = 4168208 BitCount = 143 ID = 270794816x
   1.381560 1  106B0040x       Rx   d 1 00  Length = 2308248 BitCount = 81 ID = 275447872x
   1.387710 1  10806040x       Rx   d 5 00 00 00 00 19  Length = 3414598 BitCount = 118 ID = 276848704x
   1.398456 1  102CA040x       Rx   d 8 00 40 0C BA 2A 00 F1 00  Length = 4108212 BitCount = 141 ID = 271360064x
   1.403649 1  10780040x       Rx   d 8 00 00 01 04 08 00 00 22  Length = 4288208 BitCount = 147 ID = 276299840x
   1.407940 1  C800040x        Rx   d 6 08 CB 00 00 37 8F  Length = 3628216 BitCount = 125 ID = 209715264x
   1.413071 1  10788040x       Rx   d 6 08 00 00 00 00 00  Length = 3778216 BitCount = 130 ID = 276332608x
   1.418535 1  10264040x       Rx   d 8 04 06 00 00 00 00 00 25  Length = 4228208 BitCount = 145 ID = 270942272x
   1.428619 1  10210040x       Rx   d 8 00 00 00 00 00 00 00 00  Length = 4288208 BitCount = 147 ID = 270598208x
   1.438583 1  10220040x       Rx   d 8 10 00 00 00 00 06 00 00  Length = 4288208 BitCount = 147 ID = 270663744x
   1.444132 1  10734099x       Rx   d 6 24 40 00 7D 00 00  Length = 3594590 BitCount = 124 ID = 275988633x
   1.448512 1  1022E040x       Rx   d 8 10 00 00 00 10 00 00 00  Length = 4254562 BitCount = 146 ID = 270721088x
   1.458508 1  10230040x       Rx   d 8 20 00 00 00 20 00 00 00  Length = 4258208 BitCount = 146 ID = 270729280x
   1.468623 1  1043A040x       Rx   d 8 00 00 37 00 00 00 00 00  Length = 4318208 BitCount = 148 ID = 272867392x
   1.478557 1  10240040x       Rx   d 8 83 FE 88 01 01 13 0F FC  Length = 4168223 BitCount = 143 ID = 270794816x
   1.483630 1  106B8040x       Rx   d 8 00 00 00 00 00 00 00 00  Length = 4318208 BitCount = 148 ID = 275480640x
   1.492807 1  13FFE068x       Rx   d 0  Length = 2064714 BitCount = 73 ID = 335536232x
   1.495508 1  106D0080x       Rx   d 2 00 00  Length = 2574658 BitCount = 90 ID = 275579008x
   1.499740 1  102CA040x       Rx   d 8 00 40 0C B0 29 00 F1 00  Length = 4108212 BitCount = 141 ID = 271360064x
   1.506581 1  106B0040x       Rx   d 1 00  Length = 2304686 BitCount = 81 ID = 275447872x
   1.518553 1  10264040x       Rx   d 8 04 06 00 00 00 00 00 38  Length = 4254562 BitCount = 146 ID = 270942272x
   1.528609 1  10210040x       Rx   d 8 00 00 00 00 00 00 00 00  Length = 4288208 BitCount = 147 ID = 270598208x
   1.538634 1  10220040x       Rx   d 8 10 00 00 00 00 08 00 00  Length = 4318208 BitCount = 148 ID = 270663744x
   1.548568 1  1022E040x       Rx   d 8 30 00 00 00 30 00 00 00  Length = 4288208 BitCount = 147 ID = 270721088x
   1.558592 1  10230040x       Rx   d 8 00 00 00 00 00 00 00 00  Length = 4288208 BitCount = 147 ID = 270729280x
   1.578486 1  1022A040x       Rx   d 8 00 B0 00 12 42 00 00 22  Length = 4134581 BitCount = 142 ID = 270704704x
   1.582991 1  1022C040x       Rx   d 6 00 10 00 20 00 00  Length = 3688216 BitCount = 127 ID = 270712896x
   1.588546 1  10240040x       Rx   d 8 83 FF 88 01 01 13 0F FC  Length = 4198223 BitCount = 144 ID = 270794816x
   1.592599 1  102C0040x       Rx   d 5 AE EF 44 59 03  Length = 3298224 BitCount = 114 ID = 271319104x
   1.598152 1  10248040x       Rx   d 7 00 00 6D D2 CC 07 00  Length = 3838227 BitCount = 132 ID = 270827584x
   1.603497 1  102CA040x       Rx   d 8 00 40 0C BA 29 00 F1 00  Length = 4108212 BitCount = 141 ID = 271360064x
   1.608453 1  102CC040x       Rx   d 8 00 09 CF 69 00 87 06 A8  Length = 4078212 BitCount = 140 ID = 271368256x
   1.615590 1  10304058x       Rx   d 3 44 59 01  Length = 2724642 BitCount = 95 ID = 271597656x
   1.619974 1  10264040x       Rx   d 8 04 06 00 00 00 00 00 38  Length = 4258208 BitCount = 146 ID = 270942272x
   1.622885 1  10308060x       Rx   d 3 44 59 01  Length = 2784638 BitCount = 97 ID = 271614048x
   1.628710 1  10210040x       Rx   d 8 00 00 00 00 00 00 00 00  Length = 4288208 BitCount = 147 ID = 270598208x
   1.633483 1  102CE040x       Rx   d 8 90 00 64 7F 00 00 26 A7  Length = 4108212 BitCount = 141 ID = 271376448x
   1.638706 1  10220040x       Rx   d 8 10 00 00 00 00 08 00 00  Length = 4318208 BitCount = 148 ID = 270663744x
   1.641621 1  106B0040x       Rx   d 1 00  Length = 2308248 BitCount = 81 ID = 275447872x
   1.648556 1  1022E040x       Rx   d 8 10 00 00 00 10 00 00 00  Length = 4258208 BitCount = 146 ID = 270721088x
   1.653691 1  10780040x       Rx   d 8 00 00 01 04 08 00 00 22  Length = 4288208 BitCount = 147 ID = 276299840x
   1.656573 1  10306099x       Rx   d 3 44 59 01  Length = 2758236 BitCount = 96 ID = 271605913x
   1.660291 1  C800040x        Rx   d 6 08 CB 00 00 37 93  Length = 3594590 BitCount = 124 ID = 209715264x
   1.668577 1  10230040x       Rx   d 8 30 00 00 00 30 00 00 00  Length = 4258208 BitCount = 146 ID = 270729280x
   1.678632 1  10240040x       Rx   d 8 83 FE 88 01 01 13 0F FC  Length = 4168208 BitCount = 143 ID = 270794816x
   1.683675 1  106B8040x       Rx   d 8 00 00 00 00 00 00 00 00  Length = 4318208 BitCount = 148 ID = 275480640x
   1.696213 1  10448060x       Rx   d 4 00 00 45 40  Length = 3084618 BitCount = 107 ID = 272924768x
   1.700417 1  102CA040x       Rx   d 8 00 40 0C A5 29 00 F1 00  Length = 4078212 BitCount = 140 ID = 271360064x
   1.718601 1  10264040x       Rx   d 8 04 06 00 00 00 00 00 25  Length = 4228208 BitCount = 145 ID = 270942272x
   1.723642 1  1043A040x       Rx   d 8 00 00 36 00 00 00 00 00  Length = 4288208 BitCount = 147 ID = 272867392x
   1.728742 1  10210040x       Rx   d 8 00 00 00 00 00 00 00 00  Length = 4284562 BitCount = 147 ID = 270598208x
   1.733367 1  1080A040x       Rx   d 7 00 00 00 00 00 00 00  Length = 4018212 BitCount = 138 ID = 276865088x
   1.738650 1  10220040x       Rx   d 8 10 00 00 00 00 06 00 00  Length = 4288208 BitCount = 147 ID = 270663744x
   1.748642 1  1022E040x       Rx   d 8 30 00 00 00 30 00 00 00  Length = 4288208 BitCount = 147 ID = 270721088x
   1.758637 1  10230040x       Rx   d 8 00 00 00 00 00 00 00 00  Length = 4288208 BitCount = 147 ID = 270729280x
   1.761670 1  106B0040x       Rx   d 1 00  Length = 2308263 BitCount = 81 ID = 275447872x
   1.778686 1  10240040x       Rx   d 8 83 FF 88 01 01 13 0F FC  Length = 4198208 BitCount = 144 ID = 270794816x
   1.798609 1  102CA040x       Rx   d 8 00 40 0C AC 29 00 F1 00  Length = 4104566 BitCount = 141 ID = 271360064x
   1.818627 1  10264040x       Rx   d 8 04 06 00 00 00 00 00 38  Length = 4258208 BitCount = 146 ID = 270942272x
   1.828744 1  10210040x       Rx   d 8 00 00 00 00 00 00 00 00  Length = 4288223 BitCount = 147 ID = 270598208x
   1.833547 1  1022A040x       Rx   d 8 00 B0 00 12 42 00 00 22  Length = 4138208 BitCount = 142 ID = 270704704x
   1.838706 1  10220040x       Rx   d 8 10 00 00 00 00 04 00 00  Length = 4314558 BitCount = 148 ID = 270663744x
   1.843058 1  1022C040x       Rx   d 6 00 10 00 20 00 00  Length = 3684586 BitCount = 127 ID = 270712896x
   1.848613 1  1022E040x       Rx   d 8 10 00 00 00 10 00 00 00  Length = 4258223 BitCount = 146 ID = 270721088x
   1.851976 1  10250040x       Rx   d 2 00 03  Length = 2608240 BitCount = 91 ID = 270860352x
   1.858637 1  10230040x       Rx   d 8 20 00 00 00 20 00 00 00  Length = 4258208 BitCount = 146 ID = 270729280x
   1.863530 1  102CC040x       Rx   d 8 00 09 CF 69 00 87 06 A9  Length = 4048212 BitCount = 139 ID = 271368256x
   1.868573 1  102CE040x       Rx   d 8 90 00 64 7F 00 00 26 A8  Length = 4108212 BitCount = 141 ID = 271376448x
   1.873495 1  102D0040x       Rx   d 8 01 69 01 ED 7C 8A 00 FF  Length = 4078212 BitCount = 140 ID = 271384640x
   1.878658 1  10240040x       Rx   d 8 83 FF 88 01 01 13 0F FC  Length = 4198223 BitCount = 144 ID = 270794816x
   1.883609 1  102E0040x       Rx   d 8 00 33 CA 6F 8A 00 62 81  Length = 4138208 BitCount = 142 ID = 271450176x
   1.887662 1  102C0040x       Rx   d 5 AE EF 44 59 03  Length = 3298224 BitCount = 114 ID = 271319104x
   1.892822 1  10466040x       Rx   d 5 00 00 00 00 00  Length = 3444598 BitCount = 119 ID = 273047616x
   1.895886 1  10308060x       Rx   d 3 44 59 01  Length = 2788236 BitCount = 97 ID = 271614048x
   1.900145 1  102CA040x       Rx   d 8 00 40 0C C3 29 00 F1 00  Length = 4134566 BitCount = 142 ID = 271360064x
   1.903300 1  10306099x       Rx   d 3 44 59 01  Length = 2758236 BitCount = 96 ID = 271605913x
   1.908043 1  C800040x        Rx   d 6 08 CB 00 00 37 95  Length = 3598216 BitCount = 124 ID = 209715264x
   1.911676 1  106B0040x       Rx   d 1 00  Length = 2308263 BitCount = 81 ID = 275447872x
   1.915637 1  10304058x       Rx   d 3 44 59 01  Length = 2724657 BitCount = 95 ID = 271597656x
   1.920020 1  10264040x       Rx   d 8 04 06 00 00 00 00 00 38  Length = 4258223 BitCount = 146 ID = 270942272x
   1.928625 CAN 1 Status:chip status error active  - TxErr: 0 RxErr: 1
   1.928632 1  ErrorFrame	Flags = 0xfffe	CodeExt = 0x2072	Code = 0x81	ID = 0x90210040	DLC = 8	Position = 120	Length = 4104375	Data = 0  0  0  0  0  0  0  0
   1.933214 CAN 1 Status:chip status error active
   1.933431 1  10210040x       Rx   d 8 00 00 00 00 00 00 00 00  Length = 4284562 BitCount = 147 ID = 270598208x
   1.935592 1  13FFE0BBx       Rx   d 0  Length = 2034733 BitCount = 72 ID = 335536315x
   1.939999 1  10220040x       Rx   d 8 10 00 00 00 00 05 00 00  Length = 4284562 BitCount = 147 ID = 270663744x
   1.944143 1  10734099x       Rx   d 6 24 40 00 7D 00 00  Length = 3598216 BitCount = 124 ID = 275988633x
   1.948677 1  1022E040x       Rx   d 8 30 00 00 00 30 00 00 00  Length = 4288208 BitCount = 147 ID = 270721088x
   1.953750 1  106B8040x       Rx   d 8 00 00 00 00 00 00 00 00  Length = 4318208 BitCount = 148 ID = 275480640x
   1.958703 1  10230040x       Rx   d 8 00 00 00 00 00 00 00 00  Length = 4288208 BitCount = 147 ID = 270729280x
   1.962874 1  106C0040x       Rx   d 5 00 06 0F 07 00  Length = 3448220 BitCount = 119 ID = 275513408x
   1.968698 1  1043A040x       Rx   d 8 00 00 33 00 00 00 00 00  Length = 4288208 BitCount = 147 ID = 272867392x
   1.972539 1  1077C040x       Rx   d 4 30 30 01 F4  Length = 3148224 BitCount = 109 ID = 276283456x
   1.978754 1  10240040x       Rx   d 8 83 FF 88 01 01 13 0F FC  Length = 4198223 BitCount = 144 ID = 270794816x
   1.983769 1  10780040x       Rx   d 8 00 00 01 04 08 00 00 22  Length = 4288208 BitCount = 147 ID = 276299840x
   1.988207 1  10788040x       Rx   d 6 08 00 00 00 00 00  Length = 3774582 BitCount = 130 ID = 276332608x
   1.992862 1  10806040x       Rx   d 5 00 00 00 00 19  Length = 3418220 BitCount = 118 ID = 276848704x
   1.998625 1  102CA040x       Rx   d 8 00 40 0C CA 29 00 F1 00  Length = 4078212 BitCount = 140 ID = 271360064x
   2.002601 1  Statistic: D 1 R 0 XD 153 XR 0 E 2 O 0 B 60.83%
   2.002601 2  Statistic: D 0 R 0 XD 0 XR 0 E 0 O 0 B 0.00%
   2.002601 3  Statistic: D 0 R 0 XD 0 XR 0 E 0 O 0 B 0.00%
   2.018638 1  10264040x       Rx   d 8 04 06 00 00 00 00 00 3A  Length = 4194562 BitCount = 144 ID = 270942272x
   2.028874 1  10210040x       Rx   d 8 00 00 00 00 00 00 00 00  Length = 4288223 BitCount = 147 ID = 270598208x
   2.031725 1  106B0040x       Rx   d 1 00  Length = 2308248 BitCount = 81 ID = 275447872x
   2.034908 1  10814099x       Rx   d 4 20 44 2E 00  Length = 3058228 BitCount = 106 ID = 276906137x
   2.039321 1  10220040x       Rx   d 8 10 00 00 00 00 06 00 00  Length = 4288208 BitCount = 147 ID = 270663744x
   2.048653 1  1022E040x       Rx   d 8 10 00 00 00 10 00 00 00  Length = 4258223 BitCount = 146 ID = 270721088x
   2.058677 1  10230040x       Rx   d 8 20 00 00 00 20 00 00 00  Length = 4258208 BitCount = 146 ID = 270729280x
   2.068012 1  621             Rx   d 8 00 52 00 00 00 00 00 00  Length = 3598216 BitCount = 124 ID = 1569
   2.078664 1  1022A040x       Rx   d 8 00 B0 00 12 42 00 00 22  Length = 4138223 BitCount = 142 ID = 270704704x
   2.083106 1  1022C040x       Rx   d 6 00 10 00 20 00 00  Length = 3684586 BitCount = 127 ID = 270712896x
   2.088661 1  10240040x       Rx   d 8 83 FF 88 01 01 13 0F FC  Length = 4198223 BitCount = 144 ID = 270794816x
   2.093794 1  106B8040x       Rx   d 8 00 00 00 00 00 00 00 00  Length = 4318208 BitCount = 148 ID = 275480640x
   2.098291 1  10248040x       Rx   d 7 00 00 6D D2 CC 07 00  Length = 3834578 BitCount = 132 ID = 270827584x
   2.103606 1  102CA040x       Rx   d 8 00 40 0C D2 29 00 F1 00  Length = 4078227 BitCount = 140 ID = 271360064x
   2.108592 1  102CC040x       Rx   d 8 00 09 CF 69 00 87 06 A6  Length = 4078212 BitCount = 140 ID = 271368256x
   2.118674 1  10264040x       Rx   d 8 04 06 00 00 00 00 00 27  Length = 4228208 BitCount = 145 ID = 270942272x
   2.123597 1  102CE040x       Rx   d 8 90 00 63 7F 00 00 26 A6  Length = 4078212 BitCount = 140 ID = 271376448x
   2.128816 1  10210040x       Rx   d 8 00 00 00 00 00 00 00 00  Length = 4284562 BitCount = 147 ID = 270598208x
   2.138753 1  10220040x       Rx   d 8 10 00 00 00 00 05 00 00  Length = 4288208 BitCount = 147 ID = 270663744x
   2.148717 1  1022E040x       Rx   d 8 30 00 00 00 30 00 00 00  Length = 4288208 BitCount = 147 ID = 270721088x
   2.151750 1  106B0040x       Rx   d 1 00  Length = 2308248 BitCount = 81 ID = 275447872x
   2.158084 1  C800040x        Rx   d 6 08 CB 00 00 37 99  Length = 3598216 BitCount = 124 ID = 209715264x
   2.163759 1  10230040x       Rx   d 8 00 00 00 00 00 00 00 00  Length = 4288223 BitCount = 147 ID = 270729280x
   2.168832 1  10780040x       Rx   d 8 00 00 01 04 08 00 00 22  Length = 4288208 BitCount = 147 ID = 276299840x
   2.178675 1  10240040x       Rx   d 8 83 FF 88 01 01 13 0F FC  Length = 4198223 BitCount = 144 ID = 270794816x
   2.187711 1  102C0040x       Rx   d 5 AE EF 44 59 03  Length = 3298224 BitCount = 114 ID = 271319104x
   2.198665 1  102CA040x       Rx   d 8 00 40 0C C3 29 00 F1 00  Length = 4138208 BitCount = 142 ID = 271360064x
   2.203289 1  10306099x       Rx   d 3 44 59 01  Length = 2758251 BitCount = 96 ID = 271605913x
   2.215556 1  10304058x       Rx   d 3 44 59 01  Length = 2724657 BitCount = 95 ID = 271597656x
   2.219876 1  10264040x       Rx   d 8 04 06 00 00 00 00 00 3A  Length = 4194562 BitCount = 144 ID = 270942272x
   2.222791 1  10308060x       Rx   d 3 44 59 01  Length = 2788236 BitCount = 97 ID = 271614048x
   2.228911 1  10210040x       Rx   d 8 00 00 00 00 00 00 00 00  Length = 4284562 BitCount = 147 ID = 270598208x
   2.233776 1  1043A040x       Rx   d 8 00 00 34 00 00 00 00 00  Length = 4288208 BitCount = 147 ID = 272867392x
   2.238819 1  10220040x       Rx   d 8 10 00 00 00 00 05 00 00  Length = 4288208 BitCount = 147 ID = 270663744x
   2.248691 1  1022E040x       Rx   d 8 10 00 00 00 10 00 00 00  Length = 4258208 BitCount = 146 ID = 270721088x
   2.258718 1  10230040x       Rx   d 8 20 00 00 00 20 00 00 00  Length = 4258223 BitCount = 146 ID = 270729280x
   2.265617 1  108E0080x       Rx   d 6 0E 01 17 02 05 B0  Length = 3624586 BitCount = 125 ID = 277741696x
   2.268049 1  106B0040x       Rx   d 1 00  Length = 2304686 BitCount = 81 ID = 275447872x
   2.278705 1  10240040x       Rx   d 8 83 FF 88 01 01 13 0F FC  Length = 4198208 BitCount = 144 ID = 270794816x
   2.283836 1  106B8040x       Rx   d 8 00 00 00 00 00 00 00 00  Length = 4314558 BitCount = 148 ID = 275480640x
   2.286511 1  13FFE040x       Rx   d 0  Length = 2068260 BitCount = 73 ID = 335536192x
   2.298694 1  102CA040x       Rx   d 8 00 40 0C C1 29 00 F1 00  Length = 4134566 BitCount = 142 ID = 271360064x
   2.314114 1  13FFE080x       Rx   d 0  Length = 2064729 BitCount = 73 ID = 335536256x
   2.316337 1  13FFE060x       Rx   d 0  Length = 2098256 BitCount = 74 ID = 335536224x
   2.320657 1  10264040x       Rx   d 8 04 06 00 00 00 00 00 3A  Length = 4194562 BitCount = 144 ID = 270942272x
   2.328943 1  10210040x       Rx   d 8 00 00 00 00 00 00 00 00  Length = 4288208 BitCount = 147 ID = 270598208x
   2.333686 1  1022A040x       Rx   d 8 00 B0 00 12 42 00 00 22  Length = 4138208 BitCount = 142 ID = 270704704x
   2.335879 1  13FFE099x       Rx   d 0  Length = 2068260 BitCount = 73 ID = 335536281x
   2.340288 1  10220040x       Rx   d 8 10 00 00 00 00 06 00 00  Length = 4284562 BitCount = 147 ID = 270663744x
   2.348183 1  1022C040x       Rx   d 6 00 10 00 20 00 00  Length = 3688216 BitCount = 127 ID = 270712896x
   2.353769 1  1022E040x       Rx   d 8 30 00 00 00 30 00 00 00  Length = 4288223 BitCount = 147 ID = 270721088x
   2.358782 1  10230040x       Rx   d 8 00 00 00 00 00 00 00 00  Length = 4288208 BitCount = 147 ID = 270729280x
   2.363675 1  102CC040x       Rx   d 8 00 09 CF 69 00 87 06 A7  Length = 4078212 BitCount = 140 ID = 271368256x
   2.368658 1  102CE040x       Rx   d 8 90 00 64 7F 00 00 26 A7  Length = 4108212 BitCount = 141 ID = 271376448x
   2.373610 1  102D0040x       Rx   d 8 01 69 01 ED 7C 89 00 FF  Length = 4078227 BitCount = 140 ID = 271384640x
   2.375832 1  13FFE058x       Rx   d 0  Length = 2098271 BitCount = 74 ID = 335536216x
   2.380151 1  10240040x       Rx   d 8 83 FF 88 01 01 13 0F FC  Length = 4194562 BitCount = 144 ID = 270794816x
   2.386787 1  106B0040x       Rx   d 1 00  Length = 2308248 BitCount = 81 ID = 275447872x
   2.392940 1  10806040x       Rx   d 5 00 00 00 00 19  Length = 3418220 BitCount = 118 ID = 276848704x
   2.395910 1  13FFE0AFx       Rx   d 0  Length = 2064714 BitCount = 73 ID = 335536303x
   2.400110 1  102CA040x       Rx   d 8 00 40 0C C9 29 00 F1 00  Length = 4074581 BitCount = 140 ID = 271360064x
   2.408216 1  C800040x        Rx   d 6 08 CB 00 00 37 9B  Length = 3658216 BitCount = 126 ID = 209715264x
   2.413861 1  10780040x       Rx   d 8 00 00 01 04 08 00 00 22  Length = 4288208 BitCount = 147 ID = 276299840x
   2.418784 1  10264040x       Rx   d 8 04 06 00 00 00 00 00 26  Length = 4228208 BitCount = 145 ID = 270942272x
   2.423312 1  10788040x       Rx   d 6 08 00 00 00 00 00  Length = 3774593 BitCount = 130 ID = 276332608x
   2.428837 1  10210040x       Rx   d 8 00 00 00 00 00 00 00 00  Length = 4288208 BitCount = 147 ID = 270598208x
   2.438801 1  10220040x       Rx   d 8 10 00 00 00 00 06 00 00  Length = 4288208 BitCount = 147 ID = 270663744x
   2.444142 1  10734099x       Rx   d 6 24 40 00 7D 00 00  Length = 3594601 BitCount = 124 ID = 275988633x
   2.448736 1  1022E040x       Rx   d 8 10 00 00 00 10 00 00 00  Length = 4258223 BitCount = 146 ID = 270721088x
   2.458762 1  10230040x       Rx   d 8 20 00 00 00 20 00 00 00  Length = 4258208 BitCount = 146 ID = 270729280x
   2.468847 1  1043A040x       Rx   d 8 00 00 35 00 00 00 00 00  Length = 4288208 BitCount = 147 ID = 272867392x
   2.478749 1  10240040x       Rx   d 8 83 FF 88 01 01 13 0F FC  Length = 4198223 BitCount = 144 ID = 270794816x
   2.483880 1  106B8040x       Rx   d 8 00 00 00 00 00 00 00 00  Length = 4314558 BitCount = 148 ID = 275480640x
   2.487815 1  102C0040x       Rx   d 5 AE EF 44 59 03  Length = 3298239 BitCount = 114 ID = 271319104x
   2.495884 1  10308060x       Rx   d 3 44 59 01  Length = 2784638 BitCount = 97 ID = 271614048x
   2.500088 1  102CA040x       Rx   d 8 00 40 0C CF 29 00 F1 00  Length = 4078227 BitCount = 140 ID = 271360064x
   2.503269 1  10306099x       Rx   d 3 44 59 01  Length = 2758236 BitCount = 96 ID = 271605913x
   2.506869 1  106B0040x       Rx   d 1 00  Length = 2304697 BitCount = 81 ID = 275447872x
   2.515511 1  10304058x       Rx   d 3 44 59 01  Length = 2728236 BitCount = 95 ID = 271597656x
   2.519833 1  10264040x       Rx   d 8 04 06 00 00 00 00 00 3A  Length = 4198208 BitCount = 144 ID = 270942272x
   2.528867 1  10210040x       Rx   d 8 00 00 00 00 00 00 00 00  Length = 4288208 BitCount = 147 ID = 270598208x
   2.538862 1  10220040x       Rx   d 8 10 00 00 00 00 07 00 00  Length = 4318208 BitCount = 148 ID = 270663744x
   2.548796 1  1022E040x       Rx   d 8 30 00 00 00 30 00 00 00  Length = 4288208 BitCount = 147 ID = 270721088x
   2.558790 1  10230040x       Rx   d 8 00 00 00 00 00 00 00 00  Length = 4288223 BitCount = 147 ID = 270729280x
   2.578804 1  1022A040x       Rx   d 8 00 B0 00 12 42 00 00 22  Length = 4134581 BitCount = 142 ID = 270704704x
   2.583245 1  1022C040x       Rx   d 6 00 10 00 20 00 00  Length = 3684597 BitCount = 127 ID = 270712896x
   2.588770 1  10240040x       Rx   d 8 83 FE 88 01 01 13 0F FC  Length = 4168208 BitCount = 143 ID = 270794816x
   2.598430 1  10248040x       Rx   d 7 00 00 6D D2 CC 08 00  Length = 3864578 BitCount = 133 ID = 270827584x
   2.603715 1  102CA040x       Rx   d 8 00 40 0C D3 29 00 F1 00  Length = 4078212 BitCount = 140 ID = 271360064x
   2.608700 1  102CC040x       Rx   d 8 00 09 CF 69 00 87 06 A6  Length = 4078227 BitCount = 140 ID = 271368256x
   2.618813 1  10264040x       Rx   d 8 04 06 00 00 00 00 00 39  Length = 4228208 BitCount = 145 ID = 270942272x
   2.623736 1  102CE040x       Rx   d 8 90 00 64 7F 00 00 26 A6  Length = 4108212 BitCount = 141 ID = 271376448x
   2.628986 1  10210040x       Rx   d 8 00 00 00 00 00 00 00 00  Length = 4284562 BitCount = 147 ID = 270598208x
   2.631870 1  106B0040x       Rx   d 1 00  Length = 2308248 BitCount = 81 ID = 275447872x
   2.638920 1  10220040x       Rx   d 8 10 00 00 00 00 08 00 00  Length = 4314558 BitCount = 148 ID = 270663744x
   2.648796 1  1022E040x       Rx   d 8 10 00 00 00 10 00 00 00  Length = 4258208 BitCount = 146 ID = 270721088x
   2.653929 1  10780040x       Rx   d 8 00 00 01 04 08 00 00 22  Length = 4288223 BitCount = 147 ID = 276299840x
   2.658221 1  C800040x        Rx   d 6 08 CB 00 00 37 9E  Length = 3598216 BitCount = 124 ID = 209715264x
   2.663834 1  10230040x       Rx   d 8 20 00 00 00 20 00 00 00  Length = 4258223 BitCount = 146 ID = 270729280x
   2.678839 1  10240040x       Rx   d 8 83 FF 88 01 01 13 0F FC  Length = 4198208 BitCount = 144 ID = 270794816x
   2.683913 1  106B8040x       Rx   d 8 00 00 00 00 00 00 00 00  Length = 4318208 BitCount = 148 ID = 275480640x
   2.692792 1  13FFE068x       Rx   d 0  Length = 2064714 BitCount = 73 ID = 335536232x
   2.695491 1  106D0080x       Rx   d 2 00 00  Length = 2574658 BitCount = 90 ID = 275579008x
   2.699756 1  102CA040x       Rx   d 8 00 40 0C B8 29 00 F1 00  Length = 4138208 BitCount = 142 ID = 271360064x
   2.702967 1  10448060x       Rx   d 4 00 00 45 40  Length = 3088228 BitCount = 107 ID = 272924768x
   2.718871 1  10264040x       Rx   d 8 04 06 00 00 00 00 00 37  Length = 4258223 BitCount = 146 ID = 270942272x
   2.723886 1  1043A040x       Rx   d 8 00 00 33 00 00 00 00 00  Length = 4288208 BitCount = 147 ID = 272867392x
   2.728957 1  10210040x       Rx   d 8 00 00 00 00 00 00 00 00  Length = 4288223 BitCount = 147 ID = 270598208x
   2.733611 1  1080A040x       Rx   d 7 00 00 00 00 00 00 00  Length = 4018227 BitCount = 138 ID = 276865088x
   2.738890 1  10220040x       Rx   d 8 10 00 00 00 00 06 00 00  Length = 4284562 BitCount = 147 ID = 270663744x
   2.748856 1  1022E040x       Rx   d 8 30 00 00 00 30 00 00 00  Length = 4288208 BitCount = 147 ID = 270721088x
   2.751890 1  106B0040x       Rx   d 1 00  Length = 2308263 BitCount = 81 ID = 275447872x
   2.758879 1  10230040x       Rx   d 8 00 00 00 00 00 00 00 00  Length = 4284562 BitCount = 147 ID = 270729280x
   2.778804 1  10240040x       Rx   d 8 83 FE 88 01 01 13 0F FC  Length = 4164566 BitCount = 143 ID = 270794816x
   2.787900 1  102C0040x       Rx   d 5 AE EF 44 59 03  Length = 3298239 BitCount = 114 ID = 271319104x
   2.798884 1  102CA040x       Rx   d 8 00 40 0C A6 29 00 F1 00  Length = 4138223 BitCount = 142 ID = 271360064x
   2.803263 1  10306099x       Rx   d 3 44 59 01  Length = 2754642 BitCount = 96 ID = 271605913x
   2.815322 1  10304058x       Rx   d 3 44 59 01  Length = 2724642 BitCount = 95 ID = 271597656x
   2.819672 1  10264040x       Rx   d 8 04 06 00 00 00 00 00 25  Length = 4224562 BitCount = 145 ID = 270942272x
   2.822587 1  10308060x       Rx   d 3 44 59 01  Length = 2788247 BitCount = 97 ID = 271614048x
   2.828922 1  10210040x       Rx   d 8 00 00 00 00 00 00 00 00  Length = 4288223 BitCount = 147 ID = 270598208x
   2.833785 1  1022A040x       Rx   d 8 00 B0 00 12 42 00 00 22  Length = 4138208 BitCount = 142 ID = 270704704x
   2.838944 1  10220040x       Rx   d 8 10 00 00 00 00 04 00 00  Length = 4314558 BitCount = 148 ID = 270663744x
   2.843295 1  1022C040x       Rx   d 6 00 10 00 20 00 00  Length = 3684586 BitCount = 127 ID = 270712896x
   2.848881 1  1022E040x       Rx   d 8 10 00 00 00 10 00 00 00  Length = 4258208 BitCount = 146 ID = 270721088x
   2.852214 1  10250040x       Rx   d 2 00 03  Length = 2608240 BitCount = 91 ID = 270860352x
   2.858877 1  10230040x       Rx   d 8 20 00 00 00 20 00 00 00  Length = 4258208 BitCount = 146 ID = 270729280x
   2.863798 1  102CC040x       Rx   d 8 00 09 CF 69 00 87 06 A9  Length = 4048212 BitCount = 139 ID = 271368256x
   2.868781 1  102CE040x       Rx   d 8 90 00 63 7F 00 00 26 A7  Length = 4108212 BitCount = 141 ID = 271376448x
   2.873735 1  102D0040x       Rx   d 8 01 69 01 ED 7C 89 00 FF  Length = 4078227 BitCount = 140 ID = 271384640x
   2.878896 1  10240040x       Rx   d 8 83 FE 88 01 01 13 0F FC  Length = 4168208 BitCount = 143 ID = 270794816x
   2.883847 1  102E0040x       Rx   d 8 00 33 CA 6F 8A 00 62 81  Length = 4138223 BitCount = 142 ID = 271450176x
   2.886940 1  106B0040x       Rx   d 1 00  Length = 2308248 BitCount = 81 ID = 275447872x
   2.893960 1  106B8040x       Rx   d 8 00 00 00 00 00 00 00 00  Length = 4314558 BitCount = 148 ID = 275480640x
   2.898884 1  102CA040x       Rx   d 8 00 40 0C A1 29 00 F1 00  Length = 4138208 BitCount = 142 ID = 271360064x
   2.903054 1  106C0040x       Rx   d 5 00 06 0F 07 00  Length = 3444598 BitCount = 119 ID = 275513408x
   2.908275 1  C800040x        Rx   d 6 08 CB 00 00 37 A1  Length = 3594590 BitCount = 124 ID = 209715264x
   2.912750 1  1077C040x       Rx   d 4 30 30 01 F4  Length = 3148224 BitCount = 109 ID = 276283456x
   2.918932 1  10264040x       Rx   d 8 04 06 00 00 00 00 00 37  Length = 4254577 BitCount = 146 ID = 270942272x
   2.924003 1  10780040x       Rx   d 8 00 00 01 04 08 00 00 22  Length = 4284562 BitCount = 147 ID = 276299840x
   2.929078 1  10210040x       Rx   d 8 00 00 00 00 00 00 00 00  Length = 4288208 BitCount = 147 ID = 270598208x
   2.933425 1  10788040x       Rx   d 6 08 00 00 00 00 00  Length = 3774582 BitCount = 130 ID = 276332608x
   2.938980 1  10220040x       Rx   d 8 10 00 00 00 00 04 00 00  Length = 4318208 BitCount = 148 ID = 270663744x
   2.943094 1  10806040x       Rx   d 5 00 00 00 00 19  Length = 3418235 BitCount = 118 ID = 276848704x
   2.946812 1  10734099x       Rx   d 6 24 40 00 7D 00 00  Length = 3594590 BitCount = 124 ID = 275988633x
   2.951222 1  1022E040x       Rx   d 8 30 00 00 00 30 00 00 00  Length = 4284562 BitCount = 147 ID = 270721088x
   2.958907 1  10230040x       Rx   d 8 00 00 00 00 00 00 00 00  Length = 4288208 BitCount = 147 ID = 270729280x
   2.968929 1  1043A040x       Rx   d 8 00 00 35 00 00 00 00 00  Length = 4288208 BitCount = 147 ID = 272867392x
   2.978894 1  10240040x       Rx   d 8 83 FF 88 01 01 13 0F FC  Length = 4198223 BitCount = 144 ID = 270794816x
   2.998847 1  102CA040x       Rx   d 8 00 40 0C AF 29 00 F1 00  Length = 4104566 BitCount = 141 ID = 271360064x
   3.002032 1  106B0040x       Rx   d 1 00  Length = 2308248 BitCount = 81 ID = 275447872x
   3.002601 1  Statistic: D 1 R 0 XD 150 XR 0 E 0 O 0 B 58.96%
   3.002601 2  Statistic: D 0 R 0 XD 0 XR 0 E 0 O 0 B 0.00%
   3.002601 3  Statistic: D 0 R 0 XD 0 XR 0 E 0 O 0 B 0.00%
   3.018928 1  10264040x       Rx   d 8 04 06 00 00 00 00 00 38  Length = 4258208 BitCount = 146 ID = 270942272x
   3.029102 1  10210040x       Rx   d 8 00 00 00 00 00 00 00 00  Length = 4288223 BitCount = 147 ID = 270598208x
   3.038753 CAN 1 Status:chip status error active  - TxErr: 0 RxErr: 1
   3.038761 1  ErrorFrame	Flags = 0xfffe	CodeExt = 0x2072	Code = 0x81	ID = 0x90220040	DLC = 8	Position = 120	Length = 4104375	Data = 0x10  0  0  0  0  0x6  0  0
   3.043342 CAN 1 Status:chip status error active
   3.043560 1  10220040x       Rx   d 8 10 00 00 00 00 06 00 00  Length = 4284562 BitCount = 147 ID = 270663744x
   3.048905 1  1022E040x       Rx   d 8 10 00 00 00 10 00 00 00  Length = 4258208 BitCount = 146 ID = 270721088x
   3.058901 1  10230040x       Rx   d 8 20 00 00 00 20 00 00 00  Length = 4258208 BitCount = 146 ID = 270729280x
   3.068232 1  621             Rx   d 8 00 52 00 00 00 00 00 00  Length = 3594590 BitCount = 124 ID = 1569
   3.078918 1  1022A040x       Rx   d 8 00 B0 00 12 42 00 00 22  Length = 4138208 BitCount = 142 ID = 270704704x
   3.083363 1  1022C040x       Rx   d 6 00 10 00 20 00 00  Length = 3688216 BitCount = 127 ID = 270712896x
   3.088918 1  10240040x       Rx   d 8 83 FF 88 01 01 13 0F FC  Length = 4198208 BitCount = 144 ID = 270794816x
   3.092972 1  102C0040x       Rx   d 5 AE EF 44 59 03  Length = 3298224 BitCount = 114 ID = 271319104x
   3.098525 1  10248040x       Rx   d 7 00 00 6D D2 CC 07 00  Length = 3838212 BitCount = 132 ID = 270827584x
   3.103865 1  102CA040x       Rx   d 8 00 40 0C B9 29 00 F1 00  Length = 4104581 BitCount = 141 ID = 271360064x
   3.108819 1  102CC040x       Rx   d 8 00 09 CF 69 00 87 06 A8  Length = 4078212 BitCount = 140 ID = 271368256x
   3.114043 1  106B8040x       Rx   d 8 00 00 00 00 00 00 00 00  Length = 4318208 BitCount = 148 ID = 275480640x
   3.116893 1  10304058x       Rx   d 3 44 59 01  Length = 2724642 BitCount = 95 ID = 271597656x
   3.121246 1  10264040x       Rx   d 8 04 06 00 00 00 00 00 25  Length = 4228208 BitCount = 145 ID = 270942272x
   3.129135 1  10210040x       Rx   d 8 00 00 00 00 00 00 00 00  Length = 4284573 BitCount = 147 ID = 270598208x
   3.131295 1  13FFE0BBx       Rx   d 0  Length = 2034718 BitCount = 72 ID = 335536315x
   3.135524 1  102CE040x       Rx   d 8 90 00 64 7F 00 00 26 A7  Length = 4104581 BitCount = 141 ID = 271376448x
   3.138439 1  10308060x       Rx   d 3 44 59 01  Length = 2788247 BitCount = 97 ID = 271614048x
   3.144022 1  10220040x       Rx   d 8 10 00 00 00 00 07 00 00  Length = 4318223 BitCount = 148 ID = 270663744x
   3.149037 1  1022E040x       Rx   d 8 30 00 00 00 30 00 00 00  Length = 4288208 BitCount = 147 ID = 270721088x
   3.152008 1  106B0040x       Rx   d 1 00  Length = 2308248 BitCount = 81 ID = 275447872x
   3.154888 1  10306099x       Rx   d 3 44 59 01  Length = 2754657 BitCount = 96 ID = 271605913x
   3.158641 1  C800040x        Rx   d 6 08 CB 00 00 37 A4  Length = 3628216 BitCount = 125 ID = 209715264x
   3.163981 1  10230040x       Rx   d 8 00 00 00 00 00 00 00 00  Length = 4284573 BitCount = 147 ID = 270729280x
   3.169056 1  10780040x       Rx   d 8 00 00 01 04 08 00 00 22  Length = 4288208 BitCount = 147 ID = 276299840x
   3.176166 1  10324058x       Rx   d 6 00 00 03 FF 00 00  Length = 3688216 BitCount = 127 ID = 271728728x
   3.180455 1  10240040x       Rx   d 8 83 FE 88 01 01 13 0F FC  Length = 4164581 BitCount = 143 ID = 270794816x
   3.198883 1  102CA040x       Rx   d 8 00 40 0C B0 29 00 F1 00  Length = 4108212 BitCount = 141 ID = 271360064x
   3.218990 1  10264040x       Rx   d 8 04 06 00 00 00 00 00 38  Length = 4258208 BitCount = 146 ID = 270942272x
   3.224005 1  1043A040x       Rx   d 8 00 00 36 00 00 00 00 00  Length = 4288208 BitCount = 147 ID = 272867392x
   3.229105 1  10210040x       Rx   d 8 00 00 00 00 00 00 00 00  Length = 4284562 BitCount = 147 ID = 270598208x
   3.239011 1  10220040x       Rx   d 8 10 00 00 00 00 05 00 00  Length = 4288208 BitCount = 147 ID = 270663744x
   3.248945 1  1022E040x       Rx   d 8 10 00 00 00 10 00 00 00  Length = 4258208 BitCount = 146 ID = 270721088x
   3.258970 1  10230040x       Rx   d 8 20 00 00 00 20 00 00 00  Length = 4258208 BitCount = 146 ID = 270729280x
   3.265633 1  108E0080x       Rx   d 6 0E 01 17 02 05 B1  Length = 3628216 BitCount = 125 ID = 277741696x
   3.268066 1  106B0040x       Rx   d 1 00  Length = 2308248 BitCount = 81 ID = 275447872x
   3.279049 1  10240040x       Rx   d 8 83 FF 88 01 01 13 0F FC  Length = 4198223 BitCount = 144 ID = 270794816x
   3.284062 1  106B8040x       Rx   d 8 00 00 00 00 00 00 00 00  Length = 4318208 BitCount = 148 ID = 275480640x
   3.298887 1  102CA040x       Rx   d 8 00 40 0C AE 29 00 F1 00  Length = 4078212 BitCount = 140 ID = 271360064x
   3.318996 1  10264040x       Rx   d 8 04 06 00 00 00 00 00 38  Length = 4258208 BitCount = 146 ID = 270942272x
   3.329081 1  10210040x       Rx   d 8 00 00 00 00 00 00 00 00  Length = 4288208 BitCount = 147 ID = 270598208x
   3.333914 1  1022A040x       Rx   d 8 00 B0 00 12 42 00 00 22  Length = 4138208 BitCount = 142 ID = 270704704x
   3.339047 1  10220040x       Rx   d 8 10 00 00 00 00 06 00 00  Length = 4288208 BitCount = 147 ID = 270663744x
   3.343424 1  1022C040x       Rx   d 6 00 10 00 20 00 00  Length = 3684586 BitCount = 127 ID = 270712896x
   3.349010 1  1022E040x       Rx   d 8 30 00 00 00 30 00 00 00  Length = 4288223 BitCount = 147 ID = 270721088x
   3.353065 1  10708040x       Rx   d 5 02 25 02 25 3D  Length = 3268224 BitCount = 113 ID = 275808320x
   3.359006 1  10230040x       Rx   d 8 00 00 00 00 00 00 00 00  Length = 4288208 BitCount = 147 ID = 270729280x
   3.363929 1  102CC040x       Rx   d 8 00 09 CF 69 00 87 06 A8  Length = 4078212 BitCount = 140 ID = 271368256x
   3.368910 1  102CE040x       Rx   d 8 90 00 64 7F 00 00 26 A7  Length = 4108212 BitCount = 141 ID = 271376448x
   3.373893 1  102D0040x       Rx   d 8 01 69 01 ED 7C 8A 00 FF  Length = 4078227 BitCount = 140 ID = 271384640x
   3.378965 1  10240040x       Rx   d 8 83 FF 88 01 01 13 0F FC  Length = 4198208 BitCount = 144 ID = 270794816x
   3.382058 1  106B0040x       Rx   d 1 00  Length = 2308248 BitCount = 81 ID = 275447872x
   3.388027 1  102C0040x       Rx   d 5 AE EF 44 59 03  Length = 3294606 BitCount = 114 ID = 271319104x
   3.393189 1  10806040x       Rx   d 5 00 00 00 00 19  Length = 3414598 BitCount = 118 ID = 276848704x
   3.398983 1  102CA040x       Rx   d 8 00 40 0C BD 29 00 F1 00  Length = 4138208 BitCount = 142 ID = 271360064x
   3.404113 1  10780040x       Rx   d 8 00 00 01 04 08 00 00 22  Length = 4284562 BitCount = 147 ID = 276299840x
   3.406998 1  10306099x       Rx   d 3 44 59 01  Length = 2758251 BitCount = 96 ID = 271605913x
   3.410747 1  C800040x        Rx   d 6 08 CB 00 00 37 A6  Length = 3624586 BitCount = 125 ID = 209715264x
   3.415247 1  10304058x       Rx   d 3 44 59 01  Length = 2724657 BitCount = 95 ID = 271597656x
   3.419627 1  10264040x       Rx   d 8 04 06 00 00 00 00 00 38  Length = 4254562 BitCount = 146 ID = 270942272x
   3.422542 1  10308060x       Rx   d 3 44 59 01  Length = 2788236 BitCount = 97 ID = 271614048x
   3.426444 1  10788040x       Rx   d 6 08 00 00 00 00 00  Length = 3778216 BitCount = 130 ID = 276332608x
   3.434070 1  10210040x       Rx   d 8 00 00 00 00 00 00 00 00  Length = 4288223 BitCount = 147 ID = 270598208x
   3.439111 1  10220040x       Rx   d 8 10 00 00 00 00 07 00 00  Length = 4318223 BitCount = 148 ID = 270663744x
   3.444123 1  10734099x       Rx   d 6 24 40 00 7D 00 00  Length = 3598216 BitCount = 124 ID = 275988633x
   3.448986 1  1022E040x       Rx   d 8 10 00 00 00 10 00 00 00  Length = 4258208 BitCount = 146 ID = 270721088x
   3.459010 1  10230040x       Rx   d 8 20 00 00 00 20 00 00 00  Length = 4258208 BitCount = 146 ID = 270729280x
   3.469064 1  1043A040x       Rx   d 8 00 00 34 00 00 00 00 00  Length = 4288208 BitCount = 147 ID = 272867392x
   3.478999 1  10240040x       Rx   d 8 83 FF 88 01 01 13 0F FC  Length = 4198223 BitCount = 144 ID = 270794816x
   3.484132 1  106B8040x       Rx   d 8 00 00 00 00 00 00 00 00  Length = 4318208 BitCount = 148 ID = 275480640x
   3.486800 1  13FFE040x       Rx   d 0  Length = 2064714 BitCount = 73 ID = 335536192x
   3.498922 1  102CA040x       Rx   d 8 00 40 0C B5 29 00 F1 00  Length = 4074581 BitCount = 140 ID = 271360064x
   3.502137 1  106B0040x       Rx   d 1 00  Length = 2308248 BitCount = 81 ID = 275447872x
   3.514110 1  13FFE080x       Rx   d 0  Length = 2068260 BitCount = 73 ID = 335536256x
   3.516333 1  13FFE060x       Rx   d 0  Length = 2098256 BitCount = 74 ID = 335536224x
   3.520681 1  10264040x       Rx   d 8 04 06 00 00 00 00 00 25  Length = 4224562 BitCount = 145 ID = 270942272x
   3.529117 1  10210040x       Rx   d 8 00 00 00 00 00 00 00 00  Length = 4288208 BitCount = 147 ID = 270598208x
   3.532595 1  13FFE099x       Rx   d 0  Length = 2064714 BitCount = 73 ID = 335536281x
   3.539139 1  10220040x       Rx   d 8 10 00 00 00 00 08 00 00  Length = 4318223 BitCount = 148 ID = 270663744x
   3.549074 1  1022E040x       Rx   d 8 30 00 00 00 30 00 00 00  Length = 4288208 BitCount = 147 ID = 270721088x
   3.559040 1  10230040x       Rx   d 8 00 00 00 00 00 00 00 00  Length = 4288223 BitCount = 147 ID = 270729280x
   3.574488 1  13FFE058x       Rx   d 0  Length = 2098256 BitCount = 74 ID = 335536216x
   3.578987 1  1022A040x       Rx   d 8 00 B0 00 12 42 00 00 22  Length = 4134566 BitCount = 142 ID = 270704704x
   3.583492 1  1022C040x       Rx   d 6 00 10 00 20 00 00  Length = 3688216 BitCount = 127 ID = 270712896x
   3.588987 1  10240040x       Rx   d 8 83 FE 88 01 01 13 0F FC  Length = 4168208 BitCount = 143 ID = 270794816x
   3.595676 1  13FFE0AFx       Rx   d 0  Length = 2064714 BitCount = 73 ID = 335536303x
   3.599640 1  10248040x       Rx   d 7 00 00 6D D2 CC 07 00  Length = 3838212 BitCount = 132 ID = 270827584x
   3.604053 1  102CA040x       Rx   d 8 00 40 0C B9 29 00 F1 00  Length = 4108212 BitCount = 141 ID = 271360064x
   3.608918 1  102CC040x       Rx   d 8 00 09 CF 69 00 87 06 A8  Length = 4078227 BitCount = 140 ID = 271368256x
   3.619093 1  10264040x       Rx   d 8 04 06 00 00 00 00 00 38  Length = 4258208 BitCount = 146 ID = 270942272x
   3.624014 1  102CE040x       Rx   d 8 90 00 64 7F 00 00 26 A8  Length = 4108212 BitCount = 141 ID = 271376448x
   3.627768 1  624             Rx   d 8 00 20 00 00 00 00 00 00  Length = 3628216 BitCount = 125 ID = 1572
   3.632178 1  10210040x       Rx   d 8 00 00 00 00 00 00 00 00  Length = 4284562 BitCount = 147 ID = 270598208x
   3.639172 1  10220040x       Rx   d 8 10 00 00 00 00 07 00 00  Length = 4318208 BitCount = 148 ID = 270663744x
   3.642113 1  106B0040x       Rx   d 1 00  Length = 2308248 BitCount = 81 ID = 275447872x
   3.649048 1  1022E040x       Rx   d 8 10 00 00 00 10 00 00 00  Length = 4258208 BitCount = 146 ID = 270721088x
   3.654240 1  10780040x       Rx   d 8 00 00 01 04 08 00 00 22  Length = 4284562 BitCount = 147 ID = 276299840x
   3.658475 1  C800040x        Rx   d 6 08 CB 00 00 37 AA  Length = 3628216 BitCount = 125 ID = 209715264x
   3.664176 1  10230040x       Rx   d 8 20 00 00 00 20 00 00 00  Length = 4258208 BitCount = 146 ID = 270729280x
   3.679028 1  10240040x       Rx   d 8 83 FF 88 01 01 13 0F FC  Length = 4194562 BitCount = 144 ID = 270794816x
   3.684159 1  106B8040x       Rx   d 8 00 00 00 00 00 00 00 00  Length = 4314558 BitCount = 148 ID = 275480640x
   3.688094 1  102C0040x       Rx   d 5 AE EF 44 59 03  Length = 3298239 BitCount = 114 ID = 271319104x
   3.696193 1  10448060x       Rx   d 4 00 00 45 40  Length = 3084618 BitCount = 107 ID = 272924768x
   3.700426 1  102CA040x       Rx   d 8 00 40 0C BA 2A 00 F1 00  Length = 4108223 BitCount = 141 ID = 271360064x
   3.703303 1  10306099x       Rx   d 3 44 59 01  Length = 2754642 BitCount = 96 ID = 271605913x
   3.715212 1  10304058x       Rx   d 3 44 59 01  Length = 2724642 BitCount = 95 ID = 271597656x
   3.719535 1  10264040x       Rx   d 8 04 06 00 00 00 00 00 3A  Length = 4198208 BitCount = 144 ID = 270942272x
   3.724152 1  1043A040x       Rx   d 8 00 00 33 00 00 00 00 00  Length = 4284562 BitCount = 147 ID = 272867392x
   3.729164 1  10210040x       Rx   d 8 00 00 00 00 00 00 00 00  Length = 4284562 BitCount = 147 ID = 270598208x
   3.734058 1  1080A040x       Rx   d 7 00 00 00 00 00 00 00  Length = 4018212 BitCount = 138 ID = 276865088x
   3.737812 1  62C             Rx   d 8 00 40 00 00 00 00 00 00  Length = 3628216 BitCount = 125 ID = 1580
   3.742254 1  10220040x       Rx   d 8 10 00 00 00 00 08 00 00  Length = 4318208 BitCount = 148 ID = 270663744x
   3.745166 1  10308060x       Rx   d 3 44 59 01  Length = 2788236 BitCount = 97 ID = 271614048x
   3.749580 1  1022E040x       Rx   d 8 30 00 00 00 30 00 00 00  Length = 4288208 BitCount = 147 ID = 270721088x
   3.753273 1  631             Rx   d 8 00 40 00 00 00 00 00 00  Length = 3568231 BitCount = 123 ID = 1585
   3.759095 1  10230040x       Rx   d 8 00 00 00 00 00 00 00 00  Length = 4288208 BitCount = 147 ID = 270729280x
   3.762248 1  106B0040x       Rx   d 1 00  Length = 2308248 BitCount = 81 ID = 275447872x
   3.779053 1  10240040x       Rx   d 8 83 FF 88 01 01 13 0F FC  Length = 4198208 BitCount = 144 ID = 270794816x
   3.799067 1  102CA040x       Rx   d 8 00 40 0C BE 29 00 F1 00  Length = 4134581 BitCount = 142 ID = 271360064x
   3.819085 1  10264040x       Rx   d 8 04 06 00 00 00 00 00 27  Length = 4228208 BitCount = 145 ID = 270942272x
   3.829172 1  10210040x       Rx   d 8 00 00 00 00 00 00 00 00  Length = 4288208 BitCount = 147 ID = 270598208x
   3.834033 1  1022A040x       Rx   d 8 00 B0 00 12 42 00 00 22  Length = 4138208 BitCount = 142 ID = 270704704x
   3.839196 1  10220040x       Rx   d 8 10 00 00 00 00 04 00 00  Length = 4318208 BitCount = 148 ID = 270663744x
   3.843547 1  1022C040x       Rx   d 6 00 10 00 20 00 00  Length = 3688231 BitCount = 127 ID = 270712896x
   3.849098 1  1022E040x       Rx   d 8 10 00 00 00 10 00 00 00  Length = 4258208 BitCount = 146 ID = 270721088x
   3.852460 1  10250040x       Rx   d 2 00 03  Length = 2604654 BitCount = 91 ID = 270860352x
   3.859095 1  10230040x       Rx   d 8 20 00 00 00 20 00 00 00  Length = 4258208 BitCount = 146 ID = 270729280x
   3.864164 1  102CC040x       Rx   d 8 00 09 CF 69 00 87 06 A7  Length = 4074566 BitCount = 140 ID = 271368256x
   3.869059 1  102CE040x       Rx   d 8 90 00 64 7F 00 00 26 A7  Length = 4108212 BitCount = 141 ID = 271376448x
   3.873982 1  102D0040x       Rx   d 8 01 69 01 ED 7C 8A 00 FF  Length = 4078227 BitCount = 140 ID = 271384640x
   3.879112 1  10240040x       Rx   d 8 83 FF 88 01 01 13 0F FC  Length = 4194562 BitCount = 144 ID = 270794816x
   3.884363 1  102E0040x       Rx   d 8 00 33 CA 6F 8A 00 62 81  Length = 4134566 BitCount = 142 ID = 271450176x
   3.888328 1  10466040x       Rx   d 5 00 00 00 00 00  Length = 3448220 BitCount = 119 ID = 273047616x
   3.892171 1  106B0040x       Rx   d 1 00  Length = 2308248 BitCount = 81 ID = 275447872x
   3.894870 1  106D0080x       Rx   d 2 00 00  Length = 2574669 BitCount = 90 ID = 275579008x
   3.899074 1  102CA040x       Rx   d 8 00 40 0C C4 29 00 F1 00  Length = 4078212 BitCount = 140 ID = 271360064x
   3.901266 1  13FFE068x       Rx   d 0  Length = 2068260 BitCount = 73 ID = 335536232x
   3.905704 1  106B8040x       Rx   d 8 00 00 00 00 00 00 00 00  Length = 4314558 BitCount = 148 ID = 275480640x
   3.913596 1  C800040x        Rx   d 6 08 CB 00 00 37 AC  Length = 3654586 BitCount = 126 ID = 209715264x
   3.919086 1  10264040x       Rx   d 8 04 06 00 00 00 00 00 3A  Length = 4194577 BitCount = 144 ID = 270942272x
   3.923317 1  106C0040x       Rx   d 5 00 06 0F 07 00  Length = 3444609 BitCount = 119 ID = 275513408x
   3.929232 1  10210040x       Rx   d 8 00 00 00 00 00 00 00 00  Length = 4288208 BitCount = 147 ID = 270598208x
   3.933133 1  10708040x       Rx   d 5 02 26 02 26 3D  Length = 3268239 BitCount = 113 ID = 275808320x
   3.939226 1  10220040x       Rx   d 8 10 00 00 00 00 04 00 00  Length = 4318208 BitCount = 148 ID = 270663744x
   3.943007 1  1077C040x       Rx   d 4 30 30 01 F4  Length = 3148224 BitCount = 109 ID = 276283456x
   3.946728 1  10734099x       Rx   d 6 24 40 00 7D 00 00  Length = 3594590 BitCount = 124 ID = 275988633x
   3.951137 1  1022E040x       Rx   d 8 30 00 00 00 30 00 00 00  Length = 4284573 BitCount = 147 ID = 270721088x
   3.959153 1  10230040x       Rx   d 8 00 00 00 00 00 00 00 00  Length = 4288208 BitCount = 147 ID = 270729280x
   3.964284 1  10780040x       Rx   d 8 00 00 01 04 08 00 00 22  Length = 4284562 BitCount = 147 ID = 276299840x
   3.969209 1  1043A040x       Rx   d 8 00 00 36 00 00 00 00 00  Length = 4288208 BitCount = 147 ID = 272867392x
   3.973767 1  10788040x       Rx   d 6 08 00 00 00 00 00  Length = 3774593 BitCount = 130 ID = 276332608x
   3.979172 1  10240040x       Rx   d 8 83 FF 88 01 01 13 0F FC  Length = 4198208 BitCount = 144 ID = 270794816x
   3.983343 1  10806040x       Rx   d 5 00 00 00 00 19  Length = 3414598 BitCount = 118 ID = 276848704x
   3.988178 1  102C0040x       Rx   d 5 AE EF 44 59 03  Length = 3298224 BitCount = 114 ID = 271319104x
   3.999073 1  102CA040x       Rx   d 8 00 40 0C C7 29 00 F1 00  Length = 4108223 BitCount = 141 ID = 271360064x
   4.002601 1  Statistic: D 4 R 0 XD 153 XR 0 E 1 O 0 B 61.95%
   4.002601 2  Statistic: D 0 R 0 XD 0 XR 0 E 0 O 0 B 0.00%
   4.002601 3  Statistic: D 0 R 0 XD 0 XR 0 E 0 O 0 B 0.00%
   4.003257 Li SleepModeEvent 0 entering sleep mode due to bus idle timeout
   4.003276 1  10306099x       Rx   d 3 44 59 01  Length = 2758236 BitCount = 96 ID = 271605913x
   4.007177 1  106B0040x       Rx   d 1 00  Length = 2308248 BitCount = 81 ID = 275447872x
   4.015009 1  10304058x       Rx   d 3 44 59 01  Length = 2728236 BitCount = 95 ID = 271597656x
   4.019332 1  10264040x       Rx   d 8 04 06 00 00 00 00 00 3A  Length = 4198223 BitCount = 144 ID = 270942272x
   4.022244 1  10308060x       Rx   d 3 44 59 01  Length = 2788247 BitCount = 97 ID = 271614048x
   4.029204 1  10210040x       Rx   d 8 00 00 00 00 00 00 00 00  Length = 4284562 BitCount = 147 ID = 270598208x
   4.039260 1  10220040x       Rx   d 8 10 00 00 00 00 04 00 00  Length = 4318208 BitCount = 148 ID = 270663744x
   4.049135 1  1022E040x       Rx   d 8 10 00 00 00 10 00 00 00  Length = 4258223 BitCount = 146 ID = 270721088x
   4.059159 1  10230040x       Rx   d 8 20 00 00 00 20 00 00 00  Length = 4258208 BitCount = 146 ID = 270729280x
   4.068494 1  621             Rx   d 8 00 52 00 00 00 00 00 00  Length = 3598216 BitCount = 124 ID = 1569
   4.079082 1  1022A040x       Rx   d 8 00 B0 00 12 42 00 00 22  Length = 4134566 BitCount = 142 ID = 270704704x
   4.083617 1  1022C040x       Rx   d 6 00 10 00 20 00 00  Length = 3688216 BitCount = 127 ID = 270712896x
   4.089172 1  10240040x       Rx   d 8 83 FF 88 01 01 13 0F FC  Length = 4198208 BitCount = 144 ID = 270794816x
   4.094276 1  106B8040x       Rx   d 8 00 00 00 00 00 00 00 00  Length = 4318208 BitCount = 148 ID = 275480640x
   4.098773 1  10248040x       Rx   d 7 00 00 6D D2 CC 07 00  Length = 3834578 BitCount = 132 ID = 270827584x
   4.104148 1  102CA040x       Rx   d 8 00 40 0C CF 29 00 F1 00  Length = 4078212 BitCount = 140 ID = 271360064x
   4.109043 1  102CC040x       Rx   d 8 00 09 CF 69 00 87 06 A6  Length = 4078212 BitCount = 140 ID = 271368256x
   4.119126 1  10264040x       Rx   d 8 04 06 00 00 00 00 00 3A  Length = 4198208 BitCount = 144 ID = 270942272x
   4.124109 1  102CE040x       Rx   d 8 90 00 64 7F 00 00 26 A6  Length = 4108223 BitCount = 141 ID = 271376448x
   4.129388 1  10210040x       Rx   d 8 00 00 00 00 00 00 00 00  Length = 4284562 BitCount = 147 ID = 270598208x
   4.132213 1  106B0040x       Rx   d 1 00  Length = 2308248 BitCount = 81 ID = 275447872x
   4.139233 1  10220040x       Rx   d 8 10 00 00 00 00 06 00 00  Length = 4284562 BitCount = 147 ID = 270663744x
   4.149229 1  1022E040x       Rx   d 8 30 00 00 00 30 00 00 00  Length = 4288208 BitCount = 147 ID = 270721088x
   4.154302 1  10780040x       Rx   d 8 00 00 01 04 08 00 00 22  Length = 4288223 BitCount = 147 ID = 276299840x
   4.158593 1  C800040x        Rx   d 6 08 CB 00 00 37 B0  Length = 3628216 BitCount = 125 ID = 209715264x
   4.164205 1  10230040x       Rx   d 8 00 00 00 00 00 00 00 00  Length = 4288208 BitCount = 147 ID = 270729280x
   4.179182 1  10240040x       Rx   d 8 83 FF 88 01 01 13 0F FC  Length = 4198208 BitCount = 144 ID = 270794816x
   4.183865 1  10EC4040x       Rx   d 8 4C 41 5A 41 36 39 53 44  Length = 3958212 BitCount = 136 ID = 283918400x
   4.188820 1  10EC8040x       Rx   d 8 48 42 37 30 31 34 39 36  Length = 3898212 BitCount = 134 ID = 283934784x
   4.199113 1  102CA040x       Rx   d 8 00 40 0C B9 29 00 F1 00  Length = 4108212 BitCount = 141 ID = 271360064x
   4.219190 1  10264040x       Rx   d 8 04 06 00 00 00 00 00 26  Length = 4228223 BitCount = 145 ID = 270942272x
   4.224263 1  1043A040x       Rx   d 8 00 00 36 00 00 00 00 00  Length = 4288208 BitCount = 147 ID = 272867392x
   4.229336 1  10210040x       Rx   d 8 00 00 00 00 00 00 00 00  Length = 4288208 BitCount = 147 ID = 270598208x
   4.239269 1  10220040x       Rx   d 8 10 00 00 00 00 07 00 00  Length = 4318208 BitCount = 148 ID = 270663744x
   4.249263 1  1022E040x       Rx   d 8 10 00 00 00 10 00 00 00  Length = 4258208 BitCount = 146 ID = 270721088x
   4.252236 1  106B0040x       Rx   d 1 00  Length = 2308263 BitCount = 81 ID = 275447872x
   4.259231 1  10230040x       Rx   d 8 20 00 00 00 20 00 00 00  Length = 4258208 BitCount = 146 ID = 270729280x
   4.265622 1  108E0080x       Rx   d 6 0E 01 17 02 05 B2  Length = 3624601 BitCount = 125 ID = 277741696x
   4.279218 1  10240040x       Rx   d 8 83 FF 88 01 01 13 0F FC  Length = 4198208 BitCount = 144 ID = 270794816x
   4.284318 1  106B8040x       Rx   d 8 00 00 00 00 00 00 00 00  Length = 4314573 BitCount = 148 ID = 275480640x
   4.288253 1  102C0040x       Rx   d 5 AE EF 44 59 03  Length = 3298224 BitCount = 114 ID = 271319104x
   4.299177 1  102CA040x       Rx   d 8 00 40 0C B0 29 00 F1 00  Length = 4108212 BitCount = 141 ID = 271360064x
   4.303258 1  10306099x       Rx   d 3 44 59 01  Length = 2758236 BitCount = 96 ID = 271605913x
   4.314929 1  10304058x       Rx   d 3 44 59 01  Length = 2728251 BitCount = 95 ID = 271597656x
   4.319308 1  10264040x       Rx   d 8 04 06 00 00 00 00 00 37  Length = 4254562 BitCount = 146 ID = 270942272x
   4.329395 1  10210040x       Rx   d 8 00 00 00 00 00 00 00 00  Length = 4288223 BitCount = 147 ID = 270598208x
   4.334168 1  1022A040x       Rx   d 8 00 B0 00 12 42 00 00 22  Length = 4138223 BitCount = 142 ID = 270704704x
   4.337081 1  10308060x       Rx   d 3 44 59 01  Length = 2788247 BitCount = 97 ID = 271614048x
   4.341525 1  10220040x       Rx   d 8 10 00 00 00 00 04 00 00  Length = 4318208 BitCount = 148 ID = 270663744x
   4.343685 1  13FFE0BBx       Rx   d 0  Length = 2034733 BitCount = 72 ID = 335536315x
   4.348697 1  1022C040x       Rx   d 6 00 10 00 20 00 00  Length = 3688216 BitCount = 127 ID = 270712896x
   4.354251 1  1022E040x       Rx   d 8 30 00 00 00 30 00 00 00  Length = 4288223 BitCount = 147 ID = 270721088x
   4.359264 1  10230040x       Rx   d 8 00 00 00 00 00 00 00 00  Length = 4288208 BitCount = 147 ID = 270729280x
   4.364127 1  102CC040x       Rx   d 8 00 09 CF 69 00 87 06 A8  Length = 4078227 BitCount = 140 ID = 271368256x
   4.369140 1  102CE040x       Rx   d 8 90 00 64 7F 00 00 26 A7  Length = 4108212 BitCount = 141 ID = 271376448x
   4.374091 1  102D0040x       Rx   d 8 01 69 01 ED 7C 89 00 FF  Length = 4078212 BitCount = 140 ID = 271384640x
   4.379221 1  10240040x       Rx   d 8 83 FF 88 01 01 13 0F FC  Length = 4194562 BitCount = 144 ID = 270794816x
   4.382286 1  106B0040x       Rx   d 1 00  Length = 2308248 BitCount = 81 ID = 275447872x
   4.388465 1  10806040x       Rx   d 5 00 00 00 00 19  Length = 3414598 BitCount = 118 ID = 276848704x
   4.399211 1  102CA040x       Rx   d 8 00 40 0C C0 29 00 F1 00  Length = 4138208 BitCount = 142 ID = 271360064x
   4.404345 1  10780040x       Rx   d 8 00 00 01 04 08 00 00 22  Length = 4288223 BitCount = 147 ID = 276299840x
   4.408692 1  C800040x        Rx   d 6 08 CB 00 00 37 B2  Length = 3654601 BitCount = 126 ID = 209715264x
   4.413797 1  10788040x       Rx   d 6 08 00 00 00 00 00  Length = 3778216 BitCount = 130 ID = 276332608x
   4.419097 CAN 1 Status:chip status error active  - TxErr: 0 RxErr: 1
   4.419104 1  ErrorFrame	Flags = 0xfffe	CodeExt = 0x2072	Code = 0x81	ID = 0x90264040	DLC = 8	Position = 120	Length = 4074375	Data = 0x4  0x6  0  0  0  0  0  0x37
   4.423656 CAN 1 Status:chip status error active
   4.423874 1  10264040x       Rx   d 8 04 06 00 00 00 00 00 37  Length = 4254562 BitCount = 146 ID = 270942272x
   4.429369 1  10210040x       Rx   d 8 00 00 00 00 00 00 00 00  Length = 4288208 BitCount = 147 ID = 270598208x
   4.439303 1  10220040x       Rx   d 8 10 00 00 00 00 06 00 00  Length = 4288208 BitCount = 147 ID = 270663744x
   4.444137 1  10734099x       Rx   d 6 24 40 00 7D 00 00  Length = 3598231 BitCount = 124 ID = 275988633x
   4.449269 1  1022E040x       Rx   d 8 10 00 00 00 10 00 00 00  Length = 4258208 BitCount = 146 ID = 270721088x
   4.459354 1  10230040x       Rx   d 8 20 00 00 00 20 00 00 00  Length = 4258208 BitCount = 146 ID = 270729280x
   4.469316 1  1043A040x       Rx   d 8 00 00 33 00 00 00 00 00  Length = 4288208 BitCount = 147 ID = 272867392x
   4.479253 1  10240040x       Rx   d 8 83 FE 88 01 01 13 0F FC  Length = 4168208 BitCount = 143 ID = 270794816x
   4.484352 1  106B8040x       Rx   d 8 00 00 00 00 00 00 00 00  Length = 4314558 BitCount = 148 ID = 275480640x
   4.499270 1  102CA040x       Rx   d 8 00 40 0C C0 29 00 F1 00  Length = 4138208 BitCount = 142 ID = 271360064x
   4.502425 1  106B0040x       Rx   d 1 00  Length = 2308263 BitCount = 81 ID = 275447872x
   4.515357 1  10244060x       Rx   d 1 02  Length = 2308248 BitCount = 81 ID = 270811232x
   4.519741 1  10264040x       Rx   d 8 04 06 00 00 00 00 00 38  Length = 4258208 BitCount = 146 ID = 270942272x
   4.529343 1  10210040x       Rx   d 8 00 00 00 00 00 00 00 00  Length = 4284562 BitCount = 147 ID = 270598208x
   4.533576 1  10814099x       Rx   d 4 20 44 2E 00  Length = 3058228 BitCount = 106 ID = 276906137x
   4.539309 1  10220040x       Rx   d 8 10 00 00 00 00 05 00 00  Length = 4288223 BitCount = 147 ID = 270663744x
   4.549364 1  1022E040x       Rx   d 8 30 00 00 00 30 00 00 00  Length = 4288208 BitCount = 147 ID = 270721088x
   4.559388 1  10230040x       Rx   d 8 00 00 00 00 00 00 00 00  Length = 4288208 BitCount = 147 ID = 270729280x
   4.579191 1  1022A040x       Rx   d 8 00 B0 00 12 42 00 00 22  Length = 4134566 BitCount = 142 ID = 270704704x
   4.583726 1  1022C040x       Rx   d 6 00 10 00 20 00 00  Length = 3688216 BitCount = 127 ID = 270712896x
   4.589251 1  10240040x       Rx   d 8 83 FE 88 01 01 13 0F FC  Length = 4168208 BitCount = 143 ID = 270794816x
   4.593334 1  102C0040x       Rx   d 5 AE EF 44 59 03  Length = 3298239 BitCount = 114 ID = 271319104x
   4.597358 1  10242040x       Rx   d 1 02  Length = 2308248 BitCount = 81 ID = 270803008x
   4.603931 1  10248040x       Rx   d 7 00 00 6D D2 CC 08 00  Length = 3868212 BitCount = 133 ID = 270827584x
   4.609244 1  102CA040x       Rx   d 8 00 40 0C C7 29 00 F1 00  Length = 4108212 BitCount = 141 ID = 271360064x
   4.614169 1  102CC040x       Rx   d 8 00 09 CF 69 00 87 06 A7  Length = 4078212 BitCount = 140 ID = 271368256x
   4.617017 1  10304058x       Rx   d 3 44 59 01  Length = 2724642 BitCount = 95 ID = 271597656x
   4.621367 1  10264040x       Rx   d 8 04 06 00 00 00 00 00 25  Length = 4224562 BitCount = 145 ID = 270942272x
   4.624282 1  10308060x       Rx   d 3 44 59 01  Length = 2788236 BitCount = 97 ID = 271614048x
   4.629445 1  10210040x       Rx   d 8 00 00 00 00 00 00 00 00  Length = 4288208 BitCount = 147 ID = 270598208x
   4.634216 1  102CE040x       Rx   d 8 90 00 64 7F 00 00 26 A7  Length = 4108212 BitCount = 141 ID = 271376448x
   4.639378 1  10220040x       Rx   d 8 10 00 00 00 00 06 00 00  Length = 4284562 BitCount = 147 ID = 270663744x
   4.642353 1  106B0040x       Rx   d 1 00  Length = 2308248 BitCount = 81 ID = 275447872x
   4.649282 1  1022E040x       Rx   d 8 10 00 00 00 10 00 00 00  Length = 4254577 BitCount = 146 ID = 270721088x
   4.654413 1  10780040x       Rx   d 8 00 00 01 04 08 00 00 22  Length = 4284562 BitCount = 147 ID = 276299840x
   4.657294 1  10306099x       Rx   d 3 44 59 01  Length = 2754642 BitCount = 96 ID = 271605913x
   4.661047 1  C800040x        Rx   d 6 08 CB 00 00 37 B6  Length = 3628216 BitCount = 125 ID = 209715264x
   4.669303 1  10230040x       Rx   d 8 30 00 00 00 30 00 00 00  Length = 4258208 BitCount = 146 ID = 270729280x
   4.679267 1  10240040x       Rx   d 8 83 FF 88 01 01 13 0F FC  Length = 4198208 BitCount = 144 ID = 270794816x
   4.684400 1  106B8040x       Rx   d 8 00 00 00 00 00 00 00 00  Length = 4318208 BitCount = 148 ID = 275480640x
   4.687098 1  13FFE040x       Rx   d 0  Length = 2064714 BitCount = 73 ID = 335536192x
   4.696159 1  10448060x       Rx   d 4 00 00 45 40  Length = 3084618 BitCount = 107 ID = 272924768x
   4.700388 1  102CA040x       Rx   d 8 00 40 0C D1 29 00 F1 00  Length = 4104566 BitCount = 141 ID = 271360064x
   4.714069 1  13FFE080x       Rx   d 0  Length = 2064729 BitCount = 73 ID = 335536256x
   4.716292 1  13FFE060x       Rx   d 0  Length = 2098256 BitCount = 74 ID = 335536224x
   4.720671 1  10264040x       Rx   d 8 04 06 00 00 00 00 00 37  Length = 4254577 BitCount = 146 ID = 270942272x
   4.729467 1  10210040x       Rx   d 8 00 00 00 00 00 00 00 00  Length = 4288208 BitCount = 147 ID = 270598208x
   4.734362 1  1043A040x       Rx   d 8 00 00 34 00 00 00 00 00  Length = 4288208 BitCount = 147 ID = 272867392x
   4.736554 1  13FFE099x       Rx   d 0  Length = 2068260 BitCount = 73 ID = 335536281x
   4.740966 1  10220040x       Rx   d 8 10 00 00 00 00 06 00 00  Length = 4288208 BitCount = 147 ID = 270663744x
   4.749488 1  1022E040x       Rx   d 8 30 00 00 00 30 00 00 00  Length = 4288208 BitCount = 147 ID = 270721088x
   4.754171 1  1080A040x       Rx   d 7 00 00 00 00 00 00 00  Length = 4018212 BitCount = 138 ID = 276865088x
   4.759361 1  10230040x       Rx   d 8 00 00 00 00 00 00 00 00  Length = 4284562 BitCount = 147 ID = 270729280x
   4.762365 1  106B0040x       Rx   d 1 00  Length = 2308248 BitCount = 81 ID = 275447872x
   4.774183 1  13FFE058x       Rx   d 0  Length = 2094710 BitCount = 74 ID = 335536216x
   4.779316 1  10240040x       Rx   d 8 83 FE 88 01 01 13 0F FC  Length = 4164566 BitCount = 143 ID = 270794816x
   4.795427 1  13FFE0AFx       Rx   d 0  Length = 2068260 BitCount = 73 ID = 335536303x
   4.799660 1  102CA040x       Rx   d 8 00 40 0C C7 29 00 F1 00  Length = 4108212 BitCount = 141 ID = 271360064x
   4.819375 1  10264040x       Rx   d 8 04 06 00 00 00 00 00 38  Length = 4258208 BitCount = 146 ID = 270942272x
   4.829519 1  10210040x       Rx   d 8 00 00 00 00 00 00 00 00  Length = 4288208 BitCount = 147 ID = 270598208x
   4.834291 1  1022A040x       Rx   d 8 00 B0 00 12 42 00 00 22  Length = 4138223 BitCount = 142 ID = 270704704x
   4.839422 1  10220040x       Rx   d 8 10 00 00 00 00 07 00 00  Length = 4314573 BitCount = 148 ID = 270663744x
   4.843773 1  1022C040x       Rx   d 6 00 10 00 20 00 00  Length = 3684586 BitCount = 127 ID = 270712896x
   4.849388 1  1022E040x       Rx   d 8 10 00 00 00 10 00 00 00  Length = 4258208 BitCount = 146 ID = 270721088x
   4.852691 1  10250040x       Rx   d 2 00 03  Length = 2608255 BitCount = 91 ID = 270860352x
   4.859353 1  10230040x       Rx   d 8 20 00 00 00 20 00 00 00  Length = 4258208 BitCount = 146 ID = 270729280x
   4.864306 1  102CC040x       Rx   d 8 00 09 CF 69 00 87 06 A6  Length = 4078227 BitCount = 140 ID = 271368256x
   4.869259 1  102CE040x       Rx   d 8 90 00 63 7F 00 00 26 A6  Length = 4078212 BitCount = 140 ID = 271376448x
   4.874210 1  102D0040x       Rx   d 8 01 69 01 ED 7C 89 00 FF  Length = 4078227 BitCount = 140 ID = 271384640x
   4.879370 1  10240040x       Rx   d 8 83 FE 88 01 01 13 0F FC  Length = 4164566 BitCount = 143 ID = 270794816x
   4.884355 1  102E0040x       Rx   d 8 00 33 CA 6F 8A 00 62 81  Length = 4138208 BitCount = 142 ID = 271450176x
   4.888408 1  102C0040x       Rx   d 5 AE EF 44 59 03  Length = 3298224 BitCount = 114 ID = 271319104x
   4.892399 1  106B0040x       Rx   d 1 00  Length = 2308248 BitCount = 81 ID = 275447872x
   4.899332 1  102CA040x       Rx   d 8 00 40 0C BC 29 00 F1 00  Length = 4078212 BitCount = 140 ID = 271360064x
   4.904553 1  106B8040x       Rx   d 8 00 00 00 00 00 00 00 00  Length = 4318208 BitCount = 148 ID = 275480640x
   4.907430 1  10306099x       Rx   d 3 44 59 01  Length = 2754657 BitCount = 96 ID = 271605913x
   4.911149 1  C800040x        Rx   d 6 08 CB 00 00 37 B8  Length = 3594590 BitCount = 124 ID = 209715264x
   4.914899 1  10304058x       Rx   d 3 44 59 01  Length = 2724642 BitCount = 95 ID = 271597656x
   4.919403 1  10264040x       Rx   d 8 04 06 00 00 00 00 00 25  Length = 4228208 BitCount = 145 ID = 270942272x
   4.923545 1  106C0040x       Rx   d 5 00 06 0F 07 00  Length = 3444598 BitCount = 119 ID = 275513408x
   4.929580 1  10210040x       Rx   d 8 00 00 00 00 00 00 00 00  Length = 4288208 BitCount = 147 ID = 270598208x
   4.933241 1  1077C040x       Rx   d 4 30 30 01 F4  Length = 3148239 BitCount = 109 ID = 276283456x
   4.936151 1  10308060x       Rx   d 3 44 59 01  Length = 2784638 BitCount = 97 ID = 271614048x
   4.940561 1  10220040x       Rx   d 8 10 00 00 00 00 05 00 00  Length = 4284562 BitCount = 147 ID = 270663744x
   4.944285 1  10734099x       Rx   d 6 24 40 00 7D 00 00  Length = 3598231 BitCount = 124 ID = 275988633x
   4.949418 1  1022E040x       Rx   d 8 30 00 00 00 30 00 00 00  Length = 4288223 BitCount = 147 ID = 270721088x
   4.954488 1  10780040x       Rx   d 8 00 00 01 04 08 00 00 22  Length = 4284573 BitCount = 147 ID = 276299840x
   4.959413 1  10230040x       Rx   d 8 00 00 00 00 00 00 00 00  Length = 4288208 BitCount = 147 ID = 270729280x
   4.963946 1  10788040x       Rx   d 6 08 00 00 00 00 00  Length = 3778216 BitCount = 130 ID = 276332608x
   4.969441 1  1043A040x       Rx   d 8 00 00 35 00 00 00 00 00  Length = 4288208 BitCount = 147 ID = 272867392x
   4.973584 1  10806040x       Rx   d 5 00 00 00 00 19  Length = 3418220 BitCount = 118 ID = 276848704x
   4.979408 1  10240040x       Rx   d 8 83 FF 88 01 01 13 0F FC  Length = 4198208 BitCount = 144 ID = 270794816x
   4.988380 1  10708040x       Rx   d 5 02 25 02 25 3D  Length = 3268224 BitCount = 113 ID = 275808320x
   4.999336 1  102CA040x       Rx   d 8 00 40 0C BA 29 00 F1 00  Length = 4108212 BitCount = 141 ID = 271360064x
   5.002602 1  Statistic: D 1 R 0 XD 156 XR 0 E 1 O 0 B 61.21%
   5.002602 2  Statistic: D 0 R 0 XD 0 XR 0 E 0 O 0 B 0.00%
   5.002602 3  Statistic: D 0 R 0 XD 0 XR 0 E 0 O 0 B 0.00%
   5.007411 1  106B0040x       Rx   d 1 00  Length = 2308248 BitCount = 81 ID = 275447872x
   5.019415 1  10264040x       Rx   d 8 04 06 00 00 00 00 00 37  Length = 4258208 BitCount = 146 ID = 270942272x
   5.029586 1  10210040x       Rx   d 8 00 00 00 00 00 00 00 00  Length = 4284562 BitCount = 147 ID = 270598208x
   5.039462 1  10220040x       Rx   d 8 10 00 00 00 00 03 00 00  Length = 4318208 BitCount = 148 ID = 270663744x
   5.049397 1  1022E040x       Rx   d 8 10 00 00 00 10 00 00 00  Length = 4258208 BitCount = 146 ID = 270721088x
   5.059483 1  10230040x       Rx   d 8 20 00 00 00 20 00 00 00  Length = 4258208 BitCount = 146 ID = 270729280x
   5.068695 1  621             Rx   d 8 00 52 00 00 00 00 00 00  Length = 3598216 BitCount = 124 ID = 1569
   5.079410 1  1022A040x       Rx   d 8 00 B0 00 12 42 00 00 22  Length = 4138208 BitCount = 142 ID = 270704704x
   5.083855 1  1022C040x       Rx   d 6 00 10 00 20 00 00  Length = 3688216 BitCount = 127 ID = 270712896x
   5.089380 1  10240040x       Rx   d 8 83 FF 88 01 01 13 0F FC  Length = 4198208 BitCount = 144 ID = 270794816x
   5.094514 1  106B8040x       Rx   d 8 00 00 00 00 00 00 00 00  Length = 4318208 BitCount = 148 ID = 275480640x
   5.097212 1  106D0080x       Rx   d 2 00 00  Length = 2574669 BitCount = 90 ID = 275579008x
   5.101175 1  10248040x       Rx   d 7 00 00 6D D2 CC 07 00  Length = 3838212 BitCount = 132 ID = 270827584x
   5.103368 1  13FFE068x       Rx   d 0  Length = 2068275 BitCount = 73 ID = 335536232x
   5.109341 1  102CA040x       Rx   d 8 00 40 0C AE 29 00 F1 00  Length = 4078227 BitCount = 140 ID = 271360064x
   5.114294 1  102CC040x       Rx   d 8 00 09 CF 69 00 87 06 A8  Length = 4078212 BitCount = 140 ID = 271368256x
   5.119455 1  10264040x       Rx   d 8 04 06 00 00 00 00 00 37  Length = 4258223 BitCount = 146 ID = 270942272x
   5.124347 1  102CE040x       Rx   d 8 90 00 64 7F 00 00 26 A7  Length = 4108212 BitCount = 141 ID = 271376448x
   5.129566 1  10210040x       Rx   d 8 00 00 00 00 00 00 00 00  Length = 4284573 BitCount = 147 ID = 270598208x
   5.132451 1  106B0040x       Rx   d 1 00  Length = 2308263 BitCount = 81 ID = 275447872x
   5.139506 1  10220040x       Rx   d 8 10 00 00 00 00 04 00 00  Length = 4318208 BitCount = 148 ID = 270663744x
   5.149473 1  1022E040x       Rx   d 8 30 00 00 00 30 00 00 00  Length = 4288208 BitCount = 147 ID = 270721088x
   5.154546 1  10780040x       Rx   d 8 00 00 01 04 08 00 00 22  Length = 4288223 BitCount = 147 ID = 276299840x
   5.158837 1  C800040x        Rx   d 6 08 CB 00 00 37 BB  Length = 3628216 BitCount = 125 ID = 209715264x
   5.164448 1  10230040x       Rx   d 8 00 00 00 00 00 00 00 00  Length = 4288223 BitCount = 147 ID = 270729280x
   5.175667 1  10324058x       Rx   d 6 00 00 03 FF 00 00  Length = 3684586 BitCount = 127 ID = 271728728x
   5.179986 1  10240040x       Rx   d 8 83 FF 88 01 01 13 0F FC  Length = 4194562 BitCount = 144 ID = 270794816x
   5.188452 1  102C0040x       Rx   d 5 AE EF 44 59 03  Length = 3298224 BitCount = 114 ID = 271319104x
   5.199405 1  102CA040x       Rx   d 8 00 40 0C C9 29 00 F1 00  Length = 4078212 BitCount = 140 ID = 271360064x
   5.203243 1  10306099x       Rx   d 3 44 59 01  Length = 2754642 BitCount = 96 ID = 271605913x
   5.214700 1  10304058x       Rx   d 3 44 59 01  Length = 2724642 BitCount = 95 ID = 271597656x
   5.217609 1  10308060x       Rx   d 3 44 59 01  Length = 2784638 BitCount = 97 ID = 271614048x
   5.221959 1  10264040x       Rx   d 8 04 06 00 00 00 00 00 39  Length = 4224562 BitCount = 145 ID = 270942272x
   5.229644 1  10210040x       Rx   d 8 00 00 00 00 00 00 00 00  Length = 4288208 BitCount = 147 ID = 270598208x
   5.234505 1  1043A040x       Rx   d 8 00 00 34 00 00 00 00 00  Length = 4288208 BitCount = 147 ID = 272867392x
   5.239518 1  10220040x       Rx   d 8 10 00 00 00 00 06 00 00  Length = 4288208 BitCount = 147 ID = 270663744x
   5.249423 1  1022E040x       Rx   d 8 10 00 00 00 10 00 00 00  Length = 4258208 BitCount = 146 ID = 270721088x
   5.252486 1  106B0040x       Rx   d 1 00  Length = 2308248 BitCount = 81 ID = 275447872x
   5.259446 1  10230040x       Rx   d 8 20 00 00 00 20 00 00 00  Length = 4254562 BitCount = 146 ID = 270729280x
   5.265570 1  108E0080x       Rx   d 6 0E 01 17 02 05 B3  Length = 3598231 BitCount = 124 ID = 277741696x
   5.279464 1  10240040x       Rx   d 8 83 FF 88 01 01 13 0F FC  Length = 4198208 BitCount = 144 ID = 270794816x
   5.284566 1  106B8040x       Rx   d 8 00 00 00 00 00 00 00 00  Length = 4314558 BitCount = 148 ID = 275480640x
   5.299389 1  102CA040x       Rx   d 8 00 40 0C D2 29 00 F1 00  Length = 4074566 BitCount = 140 ID = 271360064x
   5.319438 1  10264040x       Rx   d 8 04 06 00 00 00 00 00 26  Length = 4228208 BitCount = 145 ID = 270942272x
   5.329584 1  10210040x       Rx   d 8 00 00 00 00 00 00 00 00  Length = 4288208 BitCount = 147 ID = 270598208x
   5.334385 1  1022A040x       Rx   d 8 00 B0 00 12 42 00 00 22  Length = 4138208 BitCount = 142 ID = 270704704x
   5.339549 1  10220040x       Rx   d 8 10 00 00 00 00 04 00 00  Length = 4318208 BitCount = 148 ID = 270663744x
   5.343900 1  1022C040x       Rx   d 6 00 10 00 20 00 00  Length = 3688231 BitCount = 127 ID = 270712896x
   5.349541 1  1022E040x       Rx   d 8 30 00 00 00 30 00 00 00  Length = 4288208 BitCount = 147 ID = 270721088x
   5.359565 1  10230040x       Rx   d 8 00 00 00 00 00 00 00 00  Length = 4288208 BitCount = 147 ID = 270729280x
   5.364369 1  102CC040x       Rx   d 8 00 09 CF 69 00 87 06 A6  Length = 4078212 BitCount = 140 ID = 271368256x
   5.369410 1  102CE040x       Rx   d 8 90 00 64 7F 00 00 26 A6  Length = 4104566 BitCount = 141 ID = 271376448x
   5.374335 1  102D0040x       Rx   d 8 01 69 01 ED 7C 89 00 FF  Length = 4078212 BitCount = 140 ID = 271384640x
   5.379495 1  10240040x       Rx   d 8 83 FF 88 01 01 13 0F FC  Length = 4194562 BitCount = 144 ID = 270794816x
   5.382529 1  106B0040x       Rx   d 1 00  Length = 2308248 BitCount = 81 ID = 275447872x
   5.388679 1  10806040x       Rx   d 5 00 00 00 00 19  Length = 3414598 BitCount = 118 ID = 276848704x
   5.399425 1  102CA040x       Rx   d 8 00 40 0C D5 29 00 F1 00  Length = 4078212 BitCount = 140 ID = 271360064x
   5.404675 1  10780040x       Rx   d 8 00 00 01 04 08 00 00 22  Length = 4284562 BitCount = 147 ID = 276299840x
   5.408906 1  C800040x        Rx   d 6 08 CB 00 00 37 BE  Length = 3624586 BitCount = 125 ID = 209715264x
   5.414041 1  10788040x       Rx   d 6 08 00 00 00 00 00  Length = 3778231 BitCount = 130 ID = 276332608x
   5.419472 1  10264040x       Rx   d 8 04 06 00 00 00 00 00 3A  Length = 4198208 BitCount = 144 ID = 270942272x
   5.429588 1  10210040x       Rx   d 8 00 00 00 00 00 00 00 00  Length = 4288208 BitCount = 147 ID = 270598208x
   5.439553 1  10220040x       Rx   d 8 10 00 00 00 00 05 00 00  Length = 4288208 BitCount = 147 ID = 270663744x
   5.444110 1  10734099x       Rx   d 6 24 40 00 7D 00 00  Length = 3594590 BitCount = 124 ID = 275988633x
   5.449485 1  1022E040x       Rx   d 8 10 00 00 00 10 00 00 00  Length = 4258208 BitCount = 146 ID = 270721088x
   5.459482 1  10230040x       Rx   d 8 20 00 00 00 20 00 00 00  Length = 4258223 BitCount = 146 ID = 270729280x
   5.469566 1  1043A040x       Rx   d 8 00 00 34 00 00 00 00 00  Length = 4288208 BitCount = 147 ID = 272867392x
   5.479471 1  10240040x       Rx   d 8 83 FF 88 01 01 13 0F FC  Length = 4198208 BitCount = 144 ID = 270794816x
   5.484604 1  106B8040x       Rx   d 8 00 00 00 00 00 00 00 00  Length = 4318208 BitCount = 148 ID = 275480640x
   5.488535 1  102C0040x       Rx   d 5 AE EF 44 59 03  Length = 3298224 BitCount = 114 ID = 271319104x
   5.499519 1  102CA040x       Rx   d 8 00 40 0C CE 29 00 F1 00  Length = 4078212 BitCount = 140 ID = 271360064x
   5.502553 1  106B0040x       Rx   d 1 00  Length = 2308248 BitCount = 81 ID = 275447872x
   5.505436 1  10306099x       Rx   d 3 44 59 01  Length = 2758236 BitCount = 96 ID = 271605913x
   5.514734 1  10304058x       Rx   d 3 44 59 01  Length = 2724657 BitCount = 95 ID = 271597656x
   5.519478 1  10264040x       Rx   d 8 04 06 00 00 00 00 00 3A  Length = 4198208 BitCount = 144 ID = 270942272x
   5.529593 1  10210040x       Rx   d 8 00 00 00 00 00 00 00 00  Length = 4288208 BitCount = 147 ID = 270598208x
   5.535832 1  10308060x       Rx   d 3 44 59 01  Length = 2784653 BitCount = 97 ID = 271614048x
   5.540245 1  10220040x       Rx   d 8 10 00 00 00 00 06 00 00  Length = 4288208 BitCount = 147 ID = 270663744x
   5.542403 1  13FFE0BBx       Rx   d 0  Length = 2034733 BitCount = 72 ID = 335536315x
   5.549575 1  1022E040x       Rx   d 8 30 00 00 00 30 00 00 00  Length = 4288208 BitCount = 147 ID = 270721088x
   5.553511 1  10708040x       Rx   d 5 02 26 02 25 3D  Length = 3268224 BitCount = 113 ID = 275808320x
   5.559540 1  10230040x       Rx   d 8 00 00 00 00 00 00 00 00  Length = 4284562 BitCount = 147 ID = 270729280x
   5.579529 1  1022A040x       Rx   d 8 00 B0 00 12 42 00 00 22  Length = 4138208 BitCount = 142 ID = 270704704x
   5.583974 1  1022C040x       Rx   d 6 00 10 00 20 00 00  Length = 3688231 BitCount = 127 ID = 270712896x
   5.589499 1  10240040x       Rx   d 8 83 FF 88 01 01 13 0F FC  Length = 4198208 BitCount = 144 ID = 270794816x
   5.599136 1  10248040x       Rx   d 7 00 00 6D D2 CC 07 00  Length = 3838212 BitCount = 132 ID = 270827584x
   5.604481 1  102CA040x       Rx   d 8 00 40 0C C5 29 00 F1 00  Length = 4108212 BitCount = 141 ID = 271360064x
   5.609406 1  102CC040x       Rx   d 8 00 09 CF 69 00 87 06 A5  Length = 4048212 BitCount = 139 ID = 271368256x
   5.619548 1  10264040x       Rx   d 8 04 06 00 00 00 00 00 26  Length = 4228208 BitCount = 145 ID = 270942272x
   5.624472 1  102CE040x       Rx   d 8 90 00 64 7F 00 00 26 A6  Length = 4108212 BitCount = 141 ID = 271376448x
   5.629721 1  10210040x       Rx   d 8 00 00 00 00 00 00 00 00  Length = 4284573 BitCount = 147 ID = 270598208x
   5.632576 1  106B0040x       Rx   d 1 00  Length = 2308248 BitCount = 81 ID = 275447872x
   5.639625 1  10220040x       Rx   d 8 10 00 00 00 00 09 00 00  Length = 4284562 BitCount = 147 ID = 270663744x
   5.649592 1  1022E040x       Rx   d 8 10 00 00 00 10 00 00 00  Length = 4258208 BitCount = 146 ID = 270721088x
   5.654665 1  10780040x       Rx   d 8 00 00 01 04 08 00 00 22  Length = 4288208 BitCount = 147 ID = 276299840x
   5.658986 1  C800040x        Rx   d 6 08 CB 00 00 37 C2  Length = 3658216 BitCount = 126 ID = 209715264x
   5.664537 1  10230040x       Rx   d 8 20 00 00 00 20 00 00 00  Length = 4258223 BitCount = 146 ID = 270729280x
   5.679575 1  10240040x       Rx   d 8 83 FF 88 01 01 13 0F FC  Length = 4198208 BitCount = 144 ID = 270794816x
   5.684648 1  106B8040x       Rx   d 8 00 00 00 00 00 00 00 00  Length = 4318208 BitCount = 148 ID = 275480640x
   5.696166 1  10448060x       Rx   d 4 00 00 45 40  Length = 3084618 BitCount = 107 ID = 272924768x
   5.700428 1  102CA040x       Rx   d 8 00 40 0C C1 29 00 F1 00  Length = 4134581 BitCount = 142 ID = 271360064x
   5.719577 1  10264040x       Rx   d 8 04 06 00 00 00 00 00 39  Length = 4228208 BitCount = 145 ID = 270942272x
   5.724622 1  1043A040x       Rx   d 8 00 00 36 00 00 00 00 00  Length = 4288208 BitCount = 147 ID = 272867392x
   5.729663 1  10210040x       Rx   d 8 00 00 00 00 00 00 00 00  Length = 4288208 BitCount = 147 ID = 270598208x
   5.734346 1  1080A040x       Rx   d 7 00 00 00 00 00 00 00  Length = 4018227 BitCount = 138 ID = 276865088x
   5.739656 1  10220040x       Rx   d 8 10 00 00 00 00 07 00 00  Length = 4314558 BitCount = 148 ID = 270663744x
   5.749652 1  1022E040x       Rx   d 8 30 00 00 00 30 00 00 00  Length = 4288208 BitCount = 147 ID = 270721088x
   5.752625 1  106B0040x       Rx   d 1 00  Length = 2308248 BitCount = 81 ID = 275447872x
   5.759614 1  10230040x       Rx   d 8 00 00 00 00 00 00 00 00  Length = 4284562 BitCount = 147 ID = 270729280x
   5.779539 1  10240040x       Rx   d 8 83 FF 88 01 01 13 0F FC  Length = 4194577 BitCount = 144 ID = 270794816x
   5.788636 1  102C0040x       Rx   d 5 AE EF 44 59 03  Length = 3298239 BitCount = 114 ID = 271319104x
   5.799590 1  102CA040x       Rx   d 8 00 40 0C B8 29 00 F1 00  Length = 4138223 BitCount = 142 ID = 271360064x
   5.803249 1  10306099x       Rx   d 3 44 59 01  Length = 2754642 BitCount = 96 ID = 271605913x
   5.814646 1  10304058x       Rx   d 3 44 59 01  Length = 2724642 BitCount = 95 ID = 271597656x
   5.817559 1  10308060x       Rx   d 3 44 59 01  Length = 2788236 BitCount = 97 ID = 271614048x
   5.821911 1  10264040x       Rx   d 8 04 06 00 00 00 00 00 39  Length = 4228223 BitCount = 145 ID = 270942272x
   5.829683 1  10210040x       Rx   d 8 00 00 00 00 00 00 00 00  Length = 4288208 BitCount = 147 ID = 270598208x
   5.834514 1  1022A040x       Rx   d 8 00 B0 00 12 42 00 00 22  Length = 4138223 BitCount = 142 ID = 270704704x
   5.839678 1  10220040x       Rx   d 8 10 00 00 00 00 08 00 00  Length = 4318208 BitCount = 148 ID = 270663744x
   5.844031 1  1022C040x       Rx   d 6 00 10 00 20 00 00  Length = 3688231 BitCount = 127 ID = 270712896x
   5.849586 1  1022E040x       Rx   d 8 10 00 00 00 10 00 00 00  Length = 4258208 BitCount = 146 ID = 270721088x
   5.852949 1  10250040x       Rx   d 2 00 03  Length = 2608240 BitCount = 91 ID = 270860352x
   5.859672 1  10230040x       Rx   d 8 20 00 00 00 20 00 00 00  Length = 4258208 BitCount = 146 ID = 270729280x
   5.864474 1  102CC040x       Rx   d 8 00 09 CF 69 00 87 06 A7  Length = 4078212 BitCount = 140 ID = 271368256x
   5.869517 1  102CE040x       Rx   d 8 90 00 64 7F 00 00 26 A7  Length = 4108212 BitCount = 141 ID = 271376448x
   5.874440 1  102D0040x       Rx   d 8 01 69 01 ED 7C 89 00 FF  Length = 4078227 BitCount = 140 ID = 271384640x
   5.879661 1  10240040x       Rx   d 8 83 FF 88 01 01 13 0F FC  Length = 4198208 BitCount = 144 ID = 270794816x
   5.884583 1  102E0040x       Rx   d 8 00 33 CA 6F 8A 00 62 81  Length = 4138208 BitCount = 142 ID = 271450176x
   5.888816 1  10466040x       Rx   d 5 00 00 00 00 00  Length = 3448220 BitCount = 119 ID = 273047616x
   5.892657 1  106B0040x       Rx   d 1 00  Length = 2308263 BitCount = 81 ID = 275447872x
   5.899588 1  102CA040x       Rx   d 8 00 40 0C B4 29 00 F1 00  Length = 4104566 BitCount = 141 ID = 271360064x
