date Tue Sep 20 04:07:36.231 pm 2016
base hex  timestamps absolute
internal events logged
// version 9.0.0
Begin Triggerblock Tue Sep 20 04:07:36.231 pm 2016
   0.000000 Start of measurement
   0.002212 Li SleepModeEvent 0 starting up in wake mode
   0.005427 CAN 1 Status:chip status error active
   0.005427 CAN 2 Status:chip status error active
   0.005427 CAN 3 Status:chip status error active
   0.005919 1  10308060x       Rx   d 3 44 59 01  Length = 2784638 BitCount = 97 ID = 271614048x
   0.014287 1  10304058x       Rx   d 3 44 59 01  Length = 2724642 BitCount = 95 ID = 271597656x
   0.022392 1  10264040x       Rx   d 8 04 06 00 00 00 00 00 2E  Length = 4228208 BitCount = 145 ID = 270942272x
   0.032478 1  10210040x       Rx   d 8 00 00 00 00 00 00 00 00  Length = 4288223 BitCount = 147 ID = 270598208x
   0.037339 1  1022A040x       Rx   d 8 00 B0 00 12 42 00 00 22  Length = 4138223 BitCount = 142 ID = 270704704x
   0.042503 1  10220040x       Rx   d 8 10 00 00 00 00 03 00 00  Length = 4318223 BitCount = 148 ID = 270663744x
   0.045384 1  10306099x       Rx   d 3 44 59 01  Length = 2758236 BitCount = 96 ID = 271605913x
   0.049198 1  1022C040x       Rx   d 6 00 10 00 20 00 00  Length = 3688231 BitCount = 127 ID = 270712896x
   0.053671 1  13FFE058x       Rx   d 0  Length = 2098256 BitCount = 74 ID = 335536216x
   0.058048 1  1022E040x       Rx   d 8 10 00 00 00 10 00 00 00  Length = 4254562 BitCount = 146 ID = 270721088x
   0.062433 1  10230040x       Rx   d 8 20 00 00 00 20 00 00 00  Length = 4258208 BitCount = 146 ID = 270729280x
   0.065825 1  10250040x       Rx   d 2 00 00  Length = 2604654 BitCount = 91 ID = 270860352x
   0.072280 1  102CC040x       Rx   d 8 00 09 CF 66 00 87 06 9A  Length = 4048212 BitCount = 139 ID = 271368256x
   0.077351 1  102CE040x       Rx   d 8 90 00 65 7F 00 00 26 99  Length = 4104566 BitCount = 141 ID = 271376448x
   0.082513 1  10240040x       Rx   d 8 83 FE 88 01 00 F0 0F FC  Length = 4194562 BitCount = 144 ID = 270794816x
   0.087348 1  102D0040x       Rx   d 8 01 6A 01 ED 7C 2E 00 FF  Length = 4138208 BitCount = 142 ID = 271384640x
   0.092421 1  102E0040x       Rx   d 8 00 33 CA 71 8A 00 64 80  Length = 4138208 BitCount = 142 ID = 271450176x
   0.095482 1  106B0040x       Rx   d 1 00  Length = 2308248 BitCount = 81 ID = 275447872x
   0.102415 1  102CA040x       Rx   d 8 00 40 0C B7 21 00 F1 00  Length = 4138208 BitCount = 142 ID = 271360064x
   0.106132 1  108E0080x       Rx   d 6 0E 01 17 02 0B C8  Length = 3594590 BitCount = 124 ID = 277741696x
   0.110571 1  106B8040x       Rx   d 8 00 00 00 00 00 00 00 00  Length = 4314558 BitCount = 148 ID = 275480640x
   0.116847 1  C800040x        Rx   d 6 08 CB 00 00 79 AD  Length = 3628216 BitCount = 125 ID = 209715264x
   0.122492 1  10264040x       Rx   d 8 04 06 00 00 00 00 00 2E  Length = 4228208 BitCount = 145 ID = 270942272x
   0.126605 1  106C0040x       Rx   d 5 00 06 0F 07 00  Length = 3448235 BitCount = 119 ID = 275513408x
   0.132515 1  10210040x       Rx   d 8 00 00 00 00 00 00 00 00  Length = 4284562 BitCount = 147 ID = 270598208x
   0.136330 1  1077C040x       Rx   d 4 30 30 01 F4  Length = 3148239 BitCount = 109 ID = 276283456x
   0.142515 1  10220040x       Rx   d 8 10 00 00 00 00 06 00 00  Length = 4288208 BitCount = 147 ID = 270663744x
   0.147556 1  10780040x       Rx   d 8 00 00 01 04 08 00 00 22  Length = 4284562 BitCount = 147 ID = 276299840x
   0.152481 1  1022E040x       Rx   d 8 30 00 00 00 30 00 00 00  Length = 4288208 BitCount = 147 ID = 270721088x
   0.156984 1  10788040x       Rx   d 6 08 00 00 00 00 00  Length = 3778216 BitCount = 130 ID = 276332608x
   0.159174 1  13FFE0AFx       Rx   d 0  Length = 2064714 BitCount = 73 ID = 335536303x
   0.163582 1  10230040x       Rx   d 8 00 00 00 00 00 00 00 00  Length = 4284573 BitCount = 147 ID = 270729280x
   0.172588 1  1043A040x       Rx   d 8 00 00 2E 00 00 00 00 00  Length = 4318208 BitCount = 148 ID = 272867392x
   0.176641 1  10806040x       Rx   d 5 00 00 00 00 19  Length = 3418220 BitCount = 118 ID = 276848704x
   0.182525 1  10240040x       Rx   d 8 83 FE 88 01 00 F0 0F FC  Length = 4198223 BitCount = 144 ID = 270794816x
   0.202388 1  102CA040x       Rx   d 8 00 40 0C B8 21 00 F1 00  Length = 4104581 BitCount = 141 ID = 271360064x
   0.210494 1  106B0040x       Rx   d 1 00  Length = 2308263 BitCount = 81 ID = 275447872x
   0.222438 1  10264040x       Rx   d 8 04 06 00 00 00 00 00 1E  Length = 4198208 BitCount = 144 ID = 270942272x
   0.232523 1  10210040x       Rx   d 8 00 00 00 00 00 00 00 00  Length = 4288208 BitCount = 147 ID = 270598208x
   0.242545 1  10220040x       Rx   d 8 10 00 00 00 00 07 00 00  Length = 4318208 BitCount = 148 ID = 270663744x
   0.252480 1  1022E040x       Rx   d 8 10 00 00 00 10 00 00 00  Length = 4258223 BitCount = 146 ID = 270721088x
   0.262446 1  10230040x       Rx   d 8 20 00 00 00 20 00 00 00  Length = 4258208 BitCount = 146 ID = 270729280x
   0.282403 1  1022A040x       Rx   d 8 00 B0 00 12 42 00 00 22  Length = 4138208 BitCount = 142 ID = 270704704x
   0.286123 1  10734099x       Rx   d 6 24 44 00 7D 00 00  Length = 3594590 BitCount = 124 ID = 275988633x
   0.289937 1  1022C040x       Rx   d 6 00 10 00 20 00 00  Length = 3688231 BitCount = 127 ID = 270712896x
   0.297503 1  10240040x       Rx   d 8 83 FF 88 01 00 F0 0F FC  Length = 4228208 BitCount = 145 ID = 270794816x
   0.302094 1  10248040x       Rx   d 7 00 00 5F D1 CC D1 00  Length = 3838227 BitCount = 132 ID = 270827584x
   0.306509 1  102C0040x       Rx   d 5 AE EF 44 59 03  Length = 3298224 BitCount = 114 ID = 271319104x
   0.312454 1  102CA040x       Rx   d 8 00 40 0C B9 21 00 F1 00  Length = 4108212 BitCount = 141 ID = 271360064x
   0.317345 1  102CC040x       Rx   d 8 00 09 CF 66 00 87 06 9A  Length = 4048212 BitCount = 139 ID = 271368256x
   0.322539 1  10264040x       Rx   d 8 04 06 00 00 00 00 00 2E  Length = 4228208 BitCount = 145 ID = 270942272x
   0.325870 1  10308060x       Rx   d 3 44 59 01  Length = 2788247 BitCount = 97 ID = 271614048x
   0.330101 1  102CE040x       Rx   d 8 90 00 65 7F 00 00 26 99  Length = 4108212 BitCount = 141 ID = 271376448x
   0.334242 1  10304058x       Rx   d 3 44 59 01  Length = 2728236 BitCount = 95 ID = 271597656x
   0.338651 1  10210040x       Rx   d 8 00 00 00 00 00 00 00 00  Length = 4284562 BitCount = 147 ID = 270598208x
   0.343005 1  10306099x       Rx   d 3 44 59 01  Length = 2758236 BitCount = 96 ID = 271605913x
   0.345287 1  13FFE060x       Rx   d 0  Length = 2098256 BitCount = 74 ID = 335536224x
   0.349696 1  10220040x       Rx   d 8 10 00 00 00 00 06 00 00  Length = 4284562 BitCount = 147 ID = 270663744x
   0.351889 1  13FFE080x       Rx   d 0  Length = 2068260 BitCount = 73 ID = 335536256x
   0.357531 1  1022E040x       Rx   d 8 30 00 00 00 30 00 00 00  Length = 4288208 BitCount = 147 ID = 270721088x
   0.361883 1  C800040x        Rx   d 6 08 CB 00 00 79 B0  Length = 3594590 BitCount = 124 ID = 209715264x
   0.367558 1  10230040x       Rx   d 8 00 00 00 00 00 00 00 00  Length = 4288208 BitCount = 147 ID = 270729280x
   0.370561 1  106B0040x       Rx   d 1 00  Length = 2308248 BitCount = 81 ID = 275447872x
   0.372753 1  13FFE099x       Rx   d 0  Length = 2068260 BitCount = 73 ID = 335536281x
   0.377586 1  106B8040x       Rx   d 8 00 00 00 00 00 00 00 00  Length = 4318208 BitCount = 148 ID = 275480640x
   0.382509 1  10240040x       Rx   d 8 83 FF 88 01 00 F0 0F FC  Length = 4228208 BitCount = 145 ID = 270794816x
   0.387609 1  10780040x       Rx   d 8 00 00 01 04 08 00 00 22  Length = 4284562 BitCount = 147 ID = 276299840x
   0.402402 1  102CA040x       Rx   d 8 00 40 0C B2 21 00 F1 00  Length = 4074581 BitCount = 140 ID = 271360064x
   0.422481 1  10264040x       Rx   d 8 04 06 00 00 00 00 00 2E  Length = 4228208 BitCount = 145 ID = 270942272x
   0.426625 1  102C6060x       Rx   d 6 00 14 D3 00 32 CE  Length = 3538220 BitCount = 122 ID = 271343712x
   0.431033 1  1043A040x       Rx   d 8 00 00 2D 00 00 00 00 00  Length = 4284573 BitCount = 147 ID = 272867392x
   0.437579 1  10210040x       Rx   d 8 00 00 00 00 00 00 00 00  Length = 4288208 BitCount = 147 ID = 270598208x
   0.442592 1  10220040x       Rx   d 8 10 00 00 00 00 03 00 00  Length = 4318208 BitCount = 148 ID = 270663744x
   0.446823 1  621             Rx   d 8 00 52 00 00 00 00 00 00  Length = 3598231 BitCount = 124 ID = 1569
   0.452527 1  1022E040x       Rx   d 8 10 00 00 00 10 00 00 00  Length = 4258208 BitCount = 146 ID = 270721088x
   0.462491 1  10230040x       Rx   d 8 20 00 00 00 20 00 00 00  Length = 4258208 BitCount = 146 ID = 270729280x
   0.482508 1  10240040x       Rx   d 8 83 FE 88 01 00 F0 0F FC  Length = 4198208 BitCount = 144 ID = 270794816x
   0.485573 1  106B0040x       Rx   d 1 00  Length = 2308248 BitCount = 81 ID = 275447872x
   0.492626 1  106B8040x       Rx   d 8 00 00 00 00 00 00 00 00  Length = 4318208 BitCount = 148 ID = 275480640x
   0.502473 1  102CA040x       Rx   d 8 00 40 0C C1 21 00 F1 00  Length = 4138208 BitCount = 142 ID = 271360064x
   0.522546 1  10264040x       Rx   d 8 04 06 00 00 00 00 00 2E  Length = 4224562 BitCount = 145 ID = 270942272x
   0.526176 1  10448060x       Rx   d 4 00 00 45 00  Length = 3054618 BitCount = 106 ID = 272924768x
   0.532660 1  10210040x       Rx   d 8 00 00 00 00 00 00 00 00  Length = 4288208 BitCount = 147 ID = 270598208x
   0.537465 1  1022A040x       Rx   d 8 00 B0 00 12 42 00 00 22  Length = 4138208 BitCount = 142 ID = 270704704x
   0.542655 1  10220040x       Rx   d 8 10 00 00 00 00 04 00 00  Length = 4314558 BitCount = 148 ID = 270663744x
   0.546980 1  1022C040x       Rx   d 6 00 10 00 20 00 00  Length = 3688216 BitCount = 127 ID = 270712896x
   0.552565 1  1022E040x       Rx   d 8 30 00 00 00 30 00 00 00  Length = 4288208 BitCount = 147 ID = 270721088x
   0.562559 1  10230040x       Rx   d 8 00 00 00 00 00 00 00 00  Length = 4288208 BitCount = 147 ID = 270729280x
   0.567482 1  102CC040x       Rx   d 8 00 09 CF 66 00 87 06 99  Length = 4048227 BitCount = 139 ID = 271368256x
   0.572466 1  102CE040x       Rx   d 8 90 00 65 7F 00 00 26 99  Length = 4108212 BitCount = 141 ID = 271376448x
   0.577479 1  102D0040x       Rx   d 8 01 6A 01 ED 7C 2E 00 FF  Length = 4138208 BitCount = 142 ID = 271384640x
   0.582520 1  10240040x       Rx   d 8 83 FE 88 01 00 F0 0F FC  Length = 4198208 BitCount = 144 ID = 270794816x
   0.591555 1  102C0040x       Rx   d 5 AE EF 44 59 03  Length = 3298224 BitCount = 114 ID = 271319104x
   0.596568 1  10708040x       Rx   d 5 02 24 02 24 3A  Length = 3268224 BitCount = 113 ID = 275808320x
   0.602509 1  102CA040x       Rx   d 8 00 40 0C B9 21 00 F1 00  Length = 4108212 BitCount = 141 ID = 271360064x
   0.605899 1  10308060x       Rx   d 3 44 59 01  Length = 2784653 BitCount = 97 ID = 271614048x
   0.608329 1  106B0040x       Rx   d 1 00  Length = 2304697 BitCount = 81 ID = 275447872x
   0.614244 1  10304058x       Rx   d 3 44 59 01  Length = 2728236 BitCount = 95 ID = 271597656x
   0.617997 1  C800040x        Rx   d 6 08 CB 00 00 79 B2  Length = 3628216 BitCount = 125 ID = 209715264x
   0.622620 1  10264040x       Rx   d 8 04 06 00 00 00 00 00 20  Length = 4228223 BitCount = 145 ID = 270942272x
   0.626370 1  624             Rx   d 8 00 20 00 00 00 00 00 00  Length = 3624586 BitCount = 125 ID = 1572
   0.630780 1  10780040x       Rx   d 8 00 00 01 04 08 00 00 22  Length = 4284562 BitCount = 147 ID = 276299840x
   0.637622 1  10210040x       Rx   d 8 00 00 00 00 00 00 00 00  Length = 4284562 BitCount = 147 ID = 270598208x
   0.642637 1  10220040x       Rx   d 8 10 00 00 00 00 06 00 00  Length = 4288223 BitCount = 147 ID = 270663744x
   0.645519 1  10306099x       Rx   d 3 44 59 01  Length = 2758236 BitCount = 96 ID = 271605913x
   0.649423 1  10788040x       Rx   d 6 08 00 00 00 00 00  Length = 3778216 BitCount = 130 ID = 276332608x
   0.657556 1  1022E040x       Rx   d 8 10 00 00 00 10 00 00 00  Length = 4258208 BitCount = 146 ID = 270721088x
   0.662572 1  10230040x       Rx   d 8 20 00 00 00 20 00 00 00  Length = 4258208 BitCount = 146 ID = 270729280x
   0.666773 1  10806040x       Rx   d 5 00 00 00 00 19  Length = 3418220 BitCount = 118 ID = 276848704x
   0.672626 1  1043A040x       Rx   d 8 00 00 2D 00 00 00 00 00  Length = 4288223 BitCount = 147 ID = 272867392x
   0.682559 1  10240040x       Rx   d 8 83 FE 88 01 00 F0 0F FC  Length = 4198208 BitCount = 144 ID = 270794816x
   0.687662 1  106B8040x       Rx   d 8 00 00 00 00 00 00 00 00  Length = 4318208 BitCount = 148 ID = 275480640x
   0.690365 1  13FFE040x       Rx   d 0  Length = 2068275 BitCount = 73 ID = 335536192x
   0.702488 1  102CA040x       Rx   d 8 00 40 0C CB 21 00 F1 00  Length = 4104566 BitCount = 141 ID = 271360064x
   0.722626 1  10264040x       Rx   d 8 04 06 00 00 00 00 00 30  Length = 4288223 BitCount = 147 ID = 270942272x
   0.724820 1  13FFE068x       Rx   d 0  Length = 2068260 BitCount = 73 ID = 335536232x
   0.727252 1  106B0040x       Rx   d 1 00  Length = 2308248 BitCount = 81 ID = 275447872x
   0.732655 1  10210040x       Rx   d 8 00 00 00 00 00 00 00 00  Length = 4288223 BitCount = 147 ID = 270598208x
   0.735356 1  106D0080x       Rx   d 2 00 00  Length = 2574669 BitCount = 90 ID = 275579008x
   0.742619 1  10220040x       Rx   d 8 10 00 00 00 00 05 00 00  Length = 4288208 BitCount = 147 ID = 270663744x
   0.752586 1  1022E040x       Rx   d 8 30 00 00 00 30 00 00 00  Length = 4288208 BitCount = 147 ID = 270721088x
   0.762640 1  10230040x       Rx   d 8 00 00 00 00 00 00 00 00  Length = 4288223 BitCount = 147 ID = 270729280x
   0.782503 1  1022A040x       Rx   d 8 00 B0 00 12 42 00 00 22  Length = 4134566 BitCount = 142 ID = 270704704x
   0.786223 1  10734099x       Rx   d 6 24 44 00 7D 00 00  Length = 3594590 BitCount = 124 ID = 275988633x
   0.790037 1  1022C040x       Rx   d 6 00 10 00 20 00 00  Length = 3688216 BitCount = 127 ID = 270712896x
   0.797601 1  10240040x       Rx   d 8 83 FE 88 01 00 F0 00 00  Length = 4228208 BitCount = 145 ID = 270794816x
   0.802194 1  10248040x       Rx   d 7 00 00 5F D1 CC D1 00  Length = 3838227 BitCount = 132 ID = 270827584x
   0.807539 1  102CA040x       Rx   d 8 00 40 0C D4 21 00 F1 00  Length = 4108212 BitCount = 141 ID = 271360064x
   0.812524 1  102CC040x       Rx   d 8 00 09 CF 66 00 87 06 98  Length = 4108212 BitCount = 141 ID = 271368256x
   0.822697 1  10264040x       Rx   d 8 04 06 00 00 00 00 00 30  Length = 4288208 BitCount = 147 ID = 270942272x
   0.827500 1  102CE040x       Rx   d 8 90 00 66 7F 00 00 26 98  Length = 4078212 BitCount = 140 ID = 271376448x
   0.832719 1  10210040x       Rx   d 8 00 00 00 00 00 00 00 00  Length = 4284573 BitCount = 147 ID = 270598208x
   0.842686 1  10220040x       Rx   d 8 10 00 00 00 00 04 00 00  Length = 4318208 BitCount = 148 ID = 270663744x
   0.845659 1  106B0040x       Rx   d 1 00  Length = 2308263 BitCount = 81 ID = 275447872x
   0.852622 1  1022E040x       Rx   d 8 10 00 00 00 10 00 00 00  Length = 4258208 BitCount = 146 ID = 270721088x
   0.857723 1  10780040x       Rx   d 8 00 00 01 04 08 00 00 22  Length = 4288208 BitCount = 147 ID = 276299840x
   0.862044 1  C800040x        Rx   d 6 08 CB 00 00 79 B5  Length = 3628216 BitCount = 125 ID = 209715264x
   0.867626 1  10230040x       Rx   d 8 20 00 00 00 20 00 00 00  Length = 4258208 BitCount = 146 ID = 270729280x
   0.873325 1  10814099x       Rx   d 4 20 44 2E 00  Length = 3054618 BitCount = 106 ID = 276906137x
   0.882599 1  10240040x       Rx   d 8 83 FE 88 01 00 F0 0F FC  Length = 4198208 BitCount = 144 ID = 270794816x
   0.887729 1  106B8040x       Rx   d 8 00 00 00 00 00 00 00 00  Length = 4314558 BitCount = 148 ID = 275480640x
   0.891694 1  102C0040x       Rx   d 5 AE EF 44 59 03  Length = 3298239 BitCount = 114 ID = 271319104x
   0.902528 1  102CA040x       Rx   d 8 00 40 0C BA 21 00 F1 00  Length = 4078227 BitCount = 140 ID = 271360064x
   0.914049 1  10304058x       Rx   d 3 44 59 01  Length = 2728236 BitCount = 95 ID = 271597656x
   0.922693 1  10264040x       Rx   d 8 04 06 00 00 00 00 00 20  Length = 4228208 BitCount = 145 ID = 270942272x
   0.925874 1  10308060x       Rx   d 3 44 59 01  Length = 2788236 BitCount = 97 ID = 271614048x
   0.930313 1  1043A040x       Rx   d 8 00 00 2E 00 00 00 00 00  Length = 4314558 BitCount = 148 ID = 272867392x
   0.937699 1  10210040x       Rx   d 8 00 00 00 00 00 00 00 00  Length = 4288223 BitCount = 147 ID = 270598208x
   0.942742 1  10220040x       Rx   d 8 10 00 00 00 00 07 00 00  Length = 4318208 BitCount = 148 ID = 270663744x
   0.945619 1  10306099x       Rx   d 3 44 59 01  Length = 2754642 BitCount = 96 ID = 271605913x
   0.949762 1  1080A040x       Rx   d 7 00 00 00 00 00 00 00  Length = 4018227 BitCount = 138 ID = 276865088x
   0.957656 1  1022E040x       Rx   d 8 30 00 00 00 30 00 00 00  Length = 4288208 BitCount = 147 ID = 270721088x
   0.962671 1  10230040x       Rx   d 8 00 00 00 00 00 00 00 00  Length = 4288208 BitCount = 147 ID = 270729280x
   0.966358 1  631             Rx   d 8 00 40 00 00 00 00 00 00  Length = 3564590 BitCount = 123 ID = 1585
   0.968789 1  106B0040x       Rx   d 1 00  Length = 2304697 BitCount = 81 ID = 275447872x
   0.972545 1  62C             Rx   d 8 00 40 00 00 00 00 00 00  Length = 3628231 BitCount = 125 ID = 1580
   0.982630 1  10240040x       Rx   d 8 83 FE 88 01 00 F0 0F FC  Length = 4198208 BitCount = 144 ID = 270794816x
   1.002425 CAN 1 Status:chip status error active  - TxErr: 0 RxErr: 1
   1.002433 1  ErrorFrame	Flags = 0xfffe	CodeExt = 0x2072	Code = 0x81	ID = 0x902ca040	DLC = 8	Position = 120	Length = 3924375	Data = 0  0x40  0xc  0xc7  0x21  0  0xf1  0
   1.005427 1  Statistic: D 4 R 0 XD 153 XR 0 E 1 O 0 B 61.60%
   1.005427 2  Statistic: D 0 R 0 XD 0 XR 0 E 0 O 0 B 0.00%
   1.005427 3  Statistic: D 0 R 0 XD 0 XR 0 E 0 O 0 B 0.00%
   1.006834 CAN 1 Status:chip status error active
   1.007052 1  102CA040x       Rx   d 8 00 40 0C C7 21 00 F1 00  Length = 4104566 BitCount = 141 ID = 271360064x
   1.022716 1  10264040x       Rx   d 8 04 06 00 00 00 00 00 2F  Length = 4224562 BitCount = 145 ID = 270942272x
   1.032742 1  10210040x       Rx   d 8 00 00 00 00 00 00 00 00  Length = 4288208 BitCount = 147 ID = 270598208x
   1.037603 1  1022A040x       Rx   d 8 00 B0 00 12 42 00 00 22  Length = 4138208 BitCount = 142 ID = 270704704x
   1.042736 1  10220040x       Rx   d 8 10 00 00 00 00 05 00 00  Length = 4288208 BitCount = 147 ID = 270663744x
   1.047090 1  1022C040x       Rx   d 6 00 10 00 20 00 00  Length = 3688216 BitCount = 127 ID = 270712896x
   1.052675 1  1022E040x       Rx   d 8 10 00 00 00 10 00 00 00  Length = 4258208 BitCount = 146 ID = 270721088x
   1.056008 1  10250040x       Rx   d 2 00 00  Length = 2608240 BitCount = 91 ID = 270860352x
   1.062671 1  10230040x       Rx   d 8 20 00 00 00 20 00 00 00  Length = 4258223 BitCount = 146 ID = 270729280x
   1.067683 1  102CC040x       Rx   d 8 00 09 CF 66 00 87 06 98  Length = 4108212 BitCount = 141 ID = 271368256x
   1.072576 1  102CE040x       Rx   d 8 90 00 65 7F 00 00 26 98  Length = 4078227 BitCount = 140 ID = 271376448x
   1.077585 1  102D0040x       Rx   d 8 01 6A 01 ED 7C 2E 00 FF  Length = 4134581 BitCount = 142 ID = 271384640x
   1.082746 1  10240040x       Rx   d 8 83 FE 88 01 00 F0 0F FC  Length = 4194562 BitCount = 144 ID = 270794816x
   1.087641 1  102E0040x       Rx   d 8 00 33 CA 71 8A 00 64 80  Length = 4138208 BitCount = 142 ID = 271450176x
   1.091874 1  10466040x       Rx   d 5 00 00 00 00 00  Length = 3448220 BitCount = 119 ID = 273047616x
   1.095716 1  106B0040x       Rx   d 1 00  Length = 2308248 BitCount = 81 ID = 275447872x
   1.102621 1  102CA040x       Rx   d 8 00 40 0C D5 21 00 F1 00  Length = 4108223 BitCount = 141 ID = 271360064x
   1.106341 1  108E0080x       Rx   d 6 0E 01 17 02 0B C9  Length = 3594590 BitCount = 124 ID = 277741696x
   1.110781 1  106B8040x       Rx   d 8 00 00 00 00 00 00 00 00  Length = 4314573 BitCount = 148 ID = 275480640x
   1.117087 1  C800040x        Rx   d 6 08 CB 00 00 79 B7  Length = 3598216 BitCount = 124 ID = 209715264x
   1.122762 1  10264040x       Rx   d 8 04 06 00 00 00 00 00 2F  Length = 4228208 BitCount = 145 ID = 270942272x
   1.126875 1  106C0040x       Rx   d 5 00 06 0F 07 00  Length = 3448220 BitCount = 119 ID = 275513408x
   1.132786 1  10210040x       Rx   d 8 00 00 00 00 00 00 00 00  Length = 4288208 BitCount = 147 ID = 270598208x
   1.136570 1  1077C040x       Rx   d 4 30 30 01 F4  Length = 3148239 BitCount = 109 ID = 276283456x
   1.142779 1  10220040x       Rx   d 8 10 00 00 00 00 03 00 00  Length = 4314558 BitCount = 148 ID = 270663744x
   1.146714 1  10708040x       Rx   d 5 02 25 02 25 3A  Length = 3298224 BitCount = 114 ID = 275808320x
   1.152743 1  1022E040x       Rx   d 8 30 00 00 00 30 00 00 00  Length = 4284562 BitCount = 147 ID = 270721088x
   1.157788 1  10780040x       Rx   d 8 00 00 01 04 08 00 00 22  Length = 4288208 BitCount = 147 ID = 276299840x
   1.159946 1  13FFE0BBx       Rx   d 0  Length = 2034718 BitCount = 72 ID = 335536315x
   1.164354 1  10230040x       Rx   d 8 00 00 00 00 00 00 00 00  Length = 4284562 BitCount = 147 ID = 270729280x
   1.172760 1  1043A040x       Rx   d 8 00 00 2D 00 00 00 00 00  Length = 4288208 BitCount = 147 ID = 272867392x
   1.177228 1  10788040x       Rx   d 6 08 00 00 00 00 00  Length = 3774582 BitCount = 130 ID = 276332608x
   1.182783 1  10240040x       Rx   d 8 83 FE 88 01 00 F0 0F FC  Length = 4198208 BitCount = 144 ID = 270794816x
   1.186896 1  10806040x       Rx   d 5 00 00 00 00 19  Length = 3418220 BitCount = 118 ID = 276848704x
   1.191729 1  102C0040x       Rx   d 5 AE EF 44 59 03  Length = 3298224 BitCount = 114 ID = 271319104x
   1.202593 1  102CA040x       Rx   d 8 00 40 0C BD 21 00 F1 00  Length = 4078212 BitCount = 140 ID = 271360064x
   1.205896 1  10308060x       Rx   d 3 44 59 01  Length = 2788236 BitCount = 97 ID = 271614048x
   1.210758 1  106B0040x       Rx   d 1 00  Length = 2308263 BitCount = 81 ID = 275447872x
   1.213971 1  10304058x       Rx   d 3 44 59 01  Length = 2728236 BitCount = 95 ID = 271597656x
   1.222794 1  10264040x       Rx   d 8 04 06 00 00 00 00 00 2F  Length = 4228208 BitCount = 145 ID = 270942272x
   1.232791 1  10210040x       Rx   d 8 00 00 00 00 00 00 00 00  Length = 4288208 BitCount = 147 ID = 270598208x
   1.242815 1  10220040x       Rx   d 8 10 00 00 00 00 03 00 00  Length = 4318208 BitCount = 148 ID = 270663744x
   1.245694 1  10306099x       Rx   d 3 44 59 01  Length = 2754642 BitCount = 96 ID = 271605913x
   1.252684 1  1022E040x       Rx   d 8 10 00 00 00 10 00 00 00  Length = 4254562 BitCount = 146 ID = 270721088x
   1.254908 1  13FFE058x       Rx   d 0  Length = 2098256 BitCount = 74 ID = 335536216x
   1.262678 1  10230040x       Rx   d 8 20 00 00 00 20 00 00 00  Length = 4254577 BitCount = 146 ID = 270729280x
   1.282667 1  1022A040x       Rx   d 8 00 B0 00 12 42 00 00 22  Length = 4138208 BitCount = 142 ID = 270704704x
   1.286387 1  10734099x       Rx   d 6 24 44 00 7D 00 00  Length = 3594590 BitCount = 124 ID = 275988633x
   1.290201 1  1022C040x       Rx   d 6 00 10 00 20 00 00  Length = 3688216 BitCount = 127 ID = 270712896x
   1.297736 1  10240040x       Rx   d 8 83 FE 88 01 00 F0 00 00  Length = 4228208 BitCount = 145 ID = 270794816x
   1.302358 1  10248040x       Rx   d 7 00 00 5F D1 CC D1 00  Length = 3838212 BitCount = 132 ID = 270827584x
   1.307793 1  102CA040x       Rx   d 8 00 40 0C B7 21 00 F1 00  Length = 4138223 BitCount = 142 ID = 271360064x
   1.312598 1  102CC040x       Rx   d 8 00 09 CF 66 00 87 06 9A  Length = 4048212 BitCount = 139 ID = 271368256x
   1.317818 1  106B8040x       Rx   d 8 00 00 00 00 00 00 00 00  Length = 4314558 BitCount = 148 ID = 275480640x
   1.322713 1  10264040x       Rx   d 8 04 06 00 00 00 00 00 1E  Length = 4198223 BitCount = 144 ID = 270942272x
   1.327636 1  102CE040x       Rx   d 8 90 00 65 7F 00 00 26 99  Length = 4108212 BitCount = 141 ID = 271376448x
   1.332857 1  10210040x       Rx   d 8 00 00 00 00 00 00 00 00  Length = 4288208 BitCount = 147 ID = 270598208x
   1.335768 1  106B0040x       Rx   d 1 00  Length = 2308248 BitCount = 81 ID = 275447872x
   1.342823 1  10220040x       Rx   d 8 10 00 00 00 00 05 00 00  Length = 4288208 BitCount = 147 ID = 270663744x
   1.352760 1  1022E040x       Rx   d 8 30 00 00 00 30 00 00 00  Length = 4288208 BitCount = 147 ID = 270721088x
   1.357863 1  10780040x       Rx   d 8 00 00 01 04 08 00 00 22  Length = 4288208 BitCount = 147 ID = 276299840x
   1.360054 1  13FFE0AFx       Rx   d 0  Length = 2068260 BitCount = 73 ID = 335536303x
   1.363803 1  C800040x        Rx   d 6 08 CB 00 00 79 BA  Length = 3624586 BitCount = 125 ID = 209715264x
   1.372869 1  10230040x       Rx   d 8 10 00 00 00 10 00 00 00  Length = 4258208 BitCount = 146 ID = 270729280x
   1.382743 1  10240040x       Rx   d 8 83 FE 88 01 00 F0 0F FC  Length = 4198208 BitCount = 144 ID = 270794816x
   1.402666 1  102CA040x       Rx   d 8 00 40 0C AC 21 00 F1 00  Length = 4104566 BitCount = 141 ID = 271360064x
   1.422554 CAN 1 Status:chip status error active  - TxErr: 0 RxErr: 1
   1.422561 1  ErrorFrame	Flags = 0xfffe	CodeExt = 0x2072	Code = 0x81	ID = 0x90264040	DLC = 8	Position = 120	Length = 4014375	Data = 0x4  0x6  0  0  0  0  0  0x2d
   1.427053 CAN 1 Status:chip status error active
   1.427270 1  10264040x       Rx   d 8 04 06 00 00 00 00 00 2D  Length = 4194562 BitCount = 144 ID = 270942272x
   1.432825 1  10210040x       Rx   d 8 00 00 00 00 00 00 00 00  Length = 4288208 BitCount = 147 ID = 270598208x
   1.437809 1  1043A040x       Rx   d 8 00 00 2F 00 00 00 00 00  Length = 4288208 BitCount = 147 ID = 272867392x
   1.442822 1  10220040x       Rx   d 8 10 00 00 00 00 05 00 00  Length = 4288208 BitCount = 147 ID = 270663744x
   1.452754 1  1022E040x       Rx   d 8 10 00 00 00 10 00 00 00  Length = 4258208 BitCount = 146 ID = 270721088x
   1.455818 1  106B0040x       Rx   d 1 00  Length = 2308248 BitCount = 81 ID = 275447872x
   1.462753 1  10230040x       Rx   d 8 20 00 00 00 20 00 00 00  Length = 4258208 BitCount = 146 ID = 270729280x
   1.467288 1  621             Rx   d 8 00 52 00 00 00 00 00 00  Length = 3598216 BitCount = 124 ID = 1569
   1.482862 1  10240040x       Rx   d 8 83 FE 88 01 00 F0 0F FC  Length = 4194562 BitCount = 144 ID = 270794816x
   1.487877 1  106B8040x       Rx   d 8 00 00 00 00 00 00 00 00  Length = 4318208 BitCount = 148 ID = 275480640x
   1.491838 1  102C0040x       Rx   d 5 AE EF 44 59 03  Length = 3298239 BitCount = 114 ID = 271319104x
   1.502732 1  102CA040x       Rx   d 8 00 40 0C B1 21 00 F1 00  Length = 4108223 BitCount = 141 ID = 271360064x
   1.513889 1  10304058x       Rx   d 3 44 59 01  Length = 2724642 BitCount = 95 ID = 271597656x
   1.522775 1  10264040x       Rx   d 8 04 06 00 00 00 00 00 2E  Length = 4228223 BitCount = 145 ID = 270942272x
   1.525869 1  10308060x       Rx   d 3 44 59 01  Length = 2788247 BitCount = 97 ID = 271614048x
   1.529052 1  10448060x       Rx   d 4 00 00 45 00  Length = 3058243 BitCount = 106 ID = 272924768x
   1.533464 1  10210040x       Rx   d 8 00 00 00 00 00 00 00 00  Length = 4288223 BitCount = 147 ID = 270598208x
   1.542856 1  10220040x       Rx   d 8 10 00 00 00 00 05 00 00  Length = 4288208 BitCount = 147 ID = 270663744x
   1.545734 1  10306099x       Rx   d 3 44 59 01  Length = 2754657 BitCount = 96 ID = 271605913x
   1.549994 1  1022A040x       Rx   d 8 00 B0 00 12 42 00 00 22  Length = 4134566 BitCount = 142 ID = 270704704x
   1.552218 1  13FFE060x       Rx   d 0  Length = 2098256 BitCount = 74 ID = 335536224x
   1.554411 1  13FFE080x       Rx   d 0  Length = 2068260 BitCount = 73 ID = 335536256x
   1.558224 1  1022C040x       Rx   d 6 00 10 00 20 00 00  Length = 3688216 BitCount = 127 ID = 270712896x
   1.562656 CAN 1 Status:chip status error active  - TxErr: 0 RxErr: 1
   1.562663 1  ErrorFrame	Flags = 0xfffe	CodeExt = 0x2072	Code = 0x81	ID = 0x9022e040	DLC = 8	Position = 120	Length = 4134390	Data = 0  0  0  0  0  0  0  0
   1.567275 CAN 1 Status:chip status error active
   1.567492 1  1022E040x       Rx   d 8 00 00 00 00 00 00 00 00  Length = 4314558 BitCount = 148 ID = 270721088x
   1.572838 1  10230040x       Rx   d 8 10 00 00 00 10 00 00 00  Length = 4258208 BitCount = 146 ID = 270729280x
   1.575032 1  13FFE099x       Rx   d 0  Length = 2068260 BitCount = 73 ID = 335536281x
   1.579202 1  102CC040x       Rx   d 8 00 09 CF 66 00 87 06 99  Length = 4044570 BitCount = 139 ID = 271368256x
   1.587817 1  10240040x       Rx   d 8 83 FF 88 01 00 F0 0F FC  Length = 4228208 BitCount = 145 ID = 270794816x
   1.592708 1  102CE040x       Rx   d 8 90 00 65 7F 00 00 26 99  Length = 4108223 BitCount = 141 ID = 271376448x
   1.597722 1  102D0040x       Rx   d 8 01 6A 01 ED 7C 2E 00 FF  Length = 4138223 BitCount = 142 ID = 271384640x
   1.602703 1  102CA040x       Rx   d 8 00 40 0C BD 21 00 F1 00  Length = 4078212 BitCount = 140 ID = 271360064x
   1.605856 1  106B0040x       Rx   d 1 00  Length = 2308248 BitCount = 81 ID = 275447872x
   1.612189 1  C800040x        Rx   d 6 08 CB 00 00 79 BC  Length = 3598216 BitCount = 124 ID = 209715264x
   1.617925 1  10780040x       Rx   d 8 00 00 01 04 08 00 00 22  Length = 4288208 BitCount = 147 ID = 276299840x
   1.622816 1  10264040x       Rx   d 8 04 06 00 00 00 00 00 2E  Length = 4228208 BitCount = 145 ID = 270942272x
   1.627345 1  10788040x       Rx   d 6 08 00 00 00 00 00  Length = 3774582 BitCount = 130 ID = 276332608x
   1.632900 1  10210040x       Rx   d 8 00 00 00 00 00 00 00 00  Length = 4288223 BitCount = 147 ID = 270598208x
   1.636984 1  10806040x       Rx   d 5 00 00 00 00 19  Length = 3418220 BitCount = 118 ID = 276848704x
   1.642893 1  10220040x       Rx   d 8 10 00 00 00 00 08 00 00  Length = 4314558 BitCount = 148 ID = 270663744x
   1.652799 1  1022E040x       Rx   d 8 10 00 00 00 10 00 00 00  Length = 4258208 BitCount = 146 ID = 270721088x
   1.656609 1  10324058x       Rx   d 6 00 00 03 FF 00 00  Length = 3684586 BitCount = 127 ID = 271728728x
   1.662818 1  10230040x       Rx   d 8 20 00 00 00 20 00 00 00  Length = 4254562 BitCount = 146 ID = 270729280x
   1.672904 1  1043A040x       Rx   d 8 00 00 2F 00 00 00 00 00  Length = 4288208 BitCount = 147 ID = 272867392x
   1.682778 1  10240040x       Rx   d 8 83 FE 88 01 00 F0 0F FC  Length = 4198208 BitCount = 144 ID = 270794816x
   1.687912 1  106B8040x       Rx   d 8 00 00 00 00 00 00 00 00  Length = 4318208 BitCount = 148 ID = 275480640x
   1.702762 1  102CA040x       Rx   d 8 00 40 0C BE 21 00 F1 00  Length = 4104566 BitCount = 141 ID = 271360064x
   1.722780 1  10264040x       Rx   d 8 04 06 00 00 00 00 00 1E  Length = 4198208 BitCount = 144 ID = 270942272x
   1.725875 1  106B0040x       Rx   d 1 00  Length = 2308248 BitCount = 81 ID = 275447872x
   1.732929 1  10210040x       Rx   d 8 00 00 00 00 00 00 00 00  Length = 4288208 BitCount = 147 ID = 270598208x
   1.742895 1  10220040x       Rx   d 8 10 00 00 00 00 05 00 00  Length = 4288223 BitCount = 147 ID = 270663744x
   1.752860 1  1022E040x       Rx   d 8 30 00 00 00 30 00 00 00  Length = 4288208 BitCount = 147 ID = 270721088x
   1.762854 1  10230040x       Rx   d 8 00 00 00 00 00 00 00 00  Length = 4288208 BitCount = 147 ID = 270729280x
   1.782807 1  1022A040x       Rx   d 8 00 B0 00 12 42 00 00 22  Length = 4134566 BitCount = 142 ID = 270704704x
   1.786527 1  10734099x       Rx   d 6 24 44 00 7D 00 00  Length = 3594590 BitCount = 124 ID = 275988633x
   1.790341 1  1022C040x       Rx   d 6 00 10 00 20 00 00  Length = 3688216 BitCount = 127 ID = 270712896x
   1.797817 1  10240040x       Rx   d 8 83 FE 88 01 00 F0 0F FC  Length = 4198208 BitCount = 144 ID = 270794816x
   1.802468 1  10248040x       Rx   d 7 00 00 5F D1 CC D1 00  Length = 3838212 BitCount = 132 ID = 270827584x
   1.806879 1  102C0040x       Rx   d 5 AE EF 44 59 03  Length = 3294606 BitCount = 114 ID = 271319104x
   1.812791 1  102CA040x       Rx   d 8 00 40 0C AC 21 00 F1 00  Length = 4104566 BitCount = 141 ID = 271360064x
   1.817775 1  102CC040x       Rx   d 8 00 09 CF 66 00 87 06 98  Length = 4108212 BitCount = 141 ID = 271368256x
   1.822875 1  10264040x       Rx   d 8 04 06 00 00 00 00 00 2E  Length = 4224577 BitCount = 145 ID = 270942272x
   1.827770 1  102CE040x       Rx   d 8 90 00 65 7F 00 00 26 99  Length = 4108212 BitCount = 141 ID = 271376448x
   1.832959 1  10210040x       Rx   d 8 00 00 00 00 00 00 00 00  Length = 4284562 BitCount = 147 ID = 270598208x
   1.835814 1  10304058x       Rx   d 3 44 59 01  Length = 2728236 BitCount = 95 ID = 271597656x
   1.842954 1  10220040x       Rx   d 8 10 00 00 00 00 03 00 00  Length = 4314558 BitCount = 148 ID = 270663744x
   1.845838 1  10306099x       Rx   d 3 44 59 01  Length = 2758236 BitCount = 96 ID = 271605913x
   1.848747 1  10308060x       Rx   d 3 44 59 01  Length = 2784638 BitCount = 97 ID = 271614048x
   1.851180 1  106B0040x       Rx   d 1 00  Length = 2308248 BitCount = 81 ID = 275447872x
   1.857873 1  1022E040x       Rx   d 8 10 00 00 00 10 00 00 00  Length = 4258208 BitCount = 146 ID = 270721088x
   1.862284 1  C800040x        Rx   d 6 08 CB 00 00 79 BF  Length = 3628216 BitCount = 125 ID = 209715264x
   1.867866 1  10230040x       Rx   d 8 20 00 00 00 20 00 00 00  Length = 4258208 BitCount = 146 ID = 270729280x
   1.872999 1  10780040x       Rx   d 8 00 00 01 04 08 00 00 22  Length = 4288208 BitCount = 147 ID = 276299840x
   1.882843 1  10240040x       Rx   d 8 83 FE 88 01 00 F0 0F FC  Length = 4198223 BitCount = 144 ID = 270794816x
   1.887976 1  106B8040x       Rx   d 8 00 00 00 00 00 00 00 00  Length = 4318208 BitCount = 148 ID = 275480640x
   1.890644 1  13FFE040x       Rx   d 0  Length = 2064729 BitCount = 73 ID = 335536192x
   1.902766 1  102CA040x       Rx   d 8 00 40 0C 9E 21 00 F1 00  Length = 4074566 BitCount = 140 ID = 271360064x
   1.922875 1  10264040x       Rx   d 8 04 06 00 00 00 00 00 2E  Length = 4228208 BitCount = 145 ID = 270942272x
   1.925069 1  13FFE068x       Rx   d 0  Length = 2068260 BitCount = 73 ID = 335536232x
   1.929479 1  1043A040x       Rx   d 8 00 00 2D 00 00 00 00 00  Length = 4284562 BitCount = 147 ID = 272867392x
   1.932209 1  106D0080x       Rx   d 2 00 00  Length = 2574658 BitCount = 90 ID = 275579008x
   1.937943 1  10210040x       Rx   d 8 00 00 00 00 00 00 00 00  Length = 4288208 BitCount = 147 ID = 270598208x
   1.942956 1  10220040x       Rx   d 8 10 00 00 00 00 06 00 00  Length = 4288223 BitCount = 147 ID = 270663744x
   1.947667 1  1080A040x       Rx   d 7 00 00 00 00 00 00 00  Length = 4018212 BitCount = 138 ID = 276865088x
   1.952922 1  1022E040x       Rx   d 8 30 00 00 00 30 00 00 00  Length = 4288208 BitCount = 147 ID = 270721088x
   1.962919 1  10230040x       Rx   d 8 00 00 00 00 00 00 00 00  Length = 4288208 BitCount = 147 ID = 270729280x
   1.965952 1  106B0040x       Rx   d 1 00  Length = 2308248 BitCount = 81 ID = 275447872x
   1.982938 1  10240040x       Rx   d 8 83 FE 88 01 00 F0 0F FC  Length = 4198223 BitCount = 144 ID = 270794816x
   2.002831 1  102CA040x       Rx   d 8 00 40 0C B3 21 00 F1 00  Length = 4104566 BitCount = 141 ID = 271360064x
   2.005428 1  Statistic: D 1 R 0 XD 153 XR 0 E 2 O 0 B 60.79%
   2.005428 2  Statistic: D 0 R 0 XD 0 XR 0 E 0 O 0 B 0.00%
   2.005428 3  Statistic: D 0 R 0 XD 0 XR 0 E 0 O 0 B 0.00%
   2.022939 1  10264040x       Rx   d 8 04 06 00 00 00 00 00 1E  Length = 4198208 BitCount = 144 ID = 270942272x
   2.033116 1  10210040x       Rx   d 8 00 00 00 00 00 00 00 00  Length = 4288208 BitCount = 147 ID = 270598208x
   2.037827 1  1022A040x       Rx   d 8 00 B0 00 12 42 00 00 22  Length = 4138208 BitCount = 142 ID = 270704704x
   2.043018 1  10220040x       Rx   d 8 10 00 00 00 00 03 00 00  Length = 4314558 BitCount = 148 ID = 270663744x
   2.047340 1  1022C040x       Rx   d 6 00 10 00 20 00 00  Length = 3684586 BitCount = 127 ID = 270712896x
   2.052925 1  1022E040x       Rx   d 8 10 00 00 00 10 00 00 00  Length = 4258208 BitCount = 146 ID = 270721088x
   2.056258 1  10250040x       Rx   d 2 00 00  Length = 2608240 BitCount = 91 ID = 270860352x
   2.062919 1  10230040x       Rx   d 8 20 00 00 00 20 00 00 00  Length = 4258208 BitCount = 146 ID = 270729280x
   2.067842 1  102CC040x       Rx   d 8 00 09 CF 66 00 87 06 9A  Length = 4048212 BitCount = 139 ID = 271368256x
   2.072826 1  102CE040x       Rx   d 8 90 00 65 7F 00 00 26 99  Length = 4108223 BitCount = 141 ID = 271376448x
   2.077837 1  102D0040x       Rx   d 8 01 6A 01 ED 7C 2E 00 FF  Length = 4138208 BitCount = 142 ID = 271384640x
   2.082996 1  10240040x       Rx   d 8 83 FE 88 01 00 F0 0F FC  Length = 4194562 BitCount = 144 ID = 270794816x
   2.087891 1  102E0040x       Rx   d 8 00 33 CA 71 8A 00 64 80  Length = 4138208 BitCount = 142 ID = 271450176x
   2.091944 1  102C0040x       Rx   d 5 AE EF 44 59 03  Length = 3298224 BitCount = 114 ID = 271319104x
   2.095966 1  106B0040x       Rx   d 1 00  Length = 2308248 BitCount = 81 ID = 275447872x
   2.102869 1  102CA040x       Rx   d 8 00 40 0C B8 21 00 F1 00  Length = 4108212 BitCount = 141 ID = 271360064x
   2.106586 1  108E0080x       Rx   d 6 0E 01 17 02 0B CA  Length = 3594601 BitCount = 124 ID = 277741696x
   2.111029 1  106B8040x       Rx   d 8 00 00 00 00 00 00 00 00  Length = 4318208 BitCount = 148 ID = 275480640x
   2.113875 1  10304058x       Rx   d 3 44 59 01  Length = 2724642 BitCount = 95 ID = 271597656x
   2.117659 1  C800040x        Rx   d 6 08 CB 00 00 79 C0  Length = 3658216 BitCount = 126 ID = 209715264x
   2.122910 1  10264040x       Rx   d 8 04 06 00 00 00 00 00 2E  Length = 4224562 BitCount = 145 ID = 270942272x
   2.125974 1  10308060x       Rx   d 3 44 59 01  Length = 2788236 BitCount = 97 ID = 271614048x
   2.129548 1  106C0040x       Rx   d 5 00 06 0F 07 00  Length = 3448220 BitCount = 119 ID = 275513408x
   2.138013 1  10210040x       Rx   d 8 00 00 00 00 00 00 00 00  Length = 4288208 BitCount = 147 ID = 270598208x
   2.142995 1  10220040x       Rx   d 8 10 00 00 00 00 06 00 00  Length = 4288208 BitCount = 147 ID = 270663744x
   2.145878 1  10306099x       Rx   d 3 44 59 01  Length = 2758236 BitCount = 96 ID = 271605913x
   2.149149 1  1077C040x       Rx   d 4 30 30 01 F4  Length = 3144614 BitCount = 109 ID = 276283456x
   2.157941 1  1022E040x       Rx   d 8 30 00 00 00 30 00 00 00  Length = 4284562 BitCount = 147 ID = 270721088x
   2.162982 1  10230040x       Rx   d 8 00 00 00 00 00 00 00 00  Length = 4284562 BitCount = 147 ID = 270729280x
   2.168117 1  10780040x       Rx   d 8 00 00 01 04 08 00 00 22  Length = 4288208 BitCount = 147 ID = 276299840x
   2.173008 1  1043A040x       Rx   d 8 00 00 2D 00 00 00 00 00  Length = 4288223 BitCount = 147 ID = 272867392x
   2.177478 1  10788040x       Rx   d 6 08 00 00 00 00 00  Length = 3774582 BitCount = 130 ID = 276332608x
   2.182912 1  10240040x       Rx   d 8 83 FE 88 01 00 F0 0F FC  Length = 4198208 BitCount = 144 ID = 270794816x
   2.187116 1  10806040x       Rx   d 5 00 00 00 00 19  Length = 3418235 BitCount = 118 ID = 276848704x
   2.202871 1  102CA040x       Rx   d 8 00 40 0C B3 21 00 F1 00  Length = 4108212 BitCount = 141 ID = 271360064x
   2.210978 1  106B0040x       Rx   d 1 00  Length = 2308248 BitCount = 81 ID = 275447872x
   2.222952 1  10264040x       Rx   d 8 04 06 00 00 00 00 00 2E  Length = 4228208 BitCount = 145 ID = 270942272x
   2.233005 1  10210040x       Rx   d 8 00 00 00 00 00 00 00 00  Length = 4288208 BitCount = 147 ID = 270598208x
   2.243029 1  10220040x       Rx   d 8 10 00 00 00 00 06 00 00  Length = 4288208 BitCount = 147 ID = 270663744x
   2.252963 1  1022E040x       Rx   d 8 10 00 00 00 10 00 00 00  Length = 4258208 BitCount = 146 ID = 270721088x
   2.262930 1  10230040x       Rx   d 8 20 00 00 00 20 00 00 00  Length = 4258208 BitCount = 146 ID = 270729280x
   2.282887 1  1022A040x       Rx   d 8 00 B0 00 12 42 00 00 22  Length = 4138223 BitCount = 142 ID = 270704704x
   2.286607 1  10734099x       Rx   d 6 24 44 00 7D 00 00  Length = 3594590 BitCount = 124 ID = 275988633x
   2.290421 1  1022C040x       Rx   d 6 00 10 00 20 00 00  Length = 3688216 BitCount = 127 ID = 270712896x
   2.297956 1  10240040x       Rx   d 8 83 FE 88 01 00 F0 0F FC  Length = 4198208 BitCount = 144 ID = 270794816x
   2.302578 1  10248040x       Rx   d 7 00 00 5F D1 CC D1 00  Length = 3838212 BitCount = 132 ID = 270827584x
   2.307893 1  102CA040x       Rx   d 8 00 40 0C AC 21 00 F1 00  Length = 4108223 BitCount = 141 ID = 271360064x
   2.312818 1  102CC040x       Rx   d 8 00 09 CF 66 00 87 06 9A  Length = 4048227 BitCount = 139 ID = 271368256x
   2.318071 1  106B8040x       Rx   d 8 00 00 00 00 00 00 00 00  Length = 4318208 BitCount = 148 ID = 275480640x
   2.323057 1  10264040x       Rx   d 8 04 06 00 00 00 00 00 1E  Length = 4198208 BitCount = 144 ID = 270942272x
   2.327888 1  102CE040x       Rx   d 8 90 00 65 7F 00 00 26 99  Length = 4108212 BitCount = 141 ID = 271376448x
   2.333051 1  10210040x       Rx   d 8 00 00 00 00 00 00 00 00  Length = 4288208 BitCount = 147 ID = 270598208x
   2.336024 1  106B0040x       Rx   d 1 00  Length = 2308248 BitCount = 81 ID = 275447872x
   2.343107 1  10220040x       Rx   d 8 10 00 00 00 00 08 00 00  Length = 4318208 BitCount = 148 ID = 270663744x
   2.352984 1  1022E040x       Rx   d 8 30 00 00 00 30 00 00 00  Length = 4288223 BitCount = 147 ID = 270721088x
   2.358117 1  10780040x       Rx   d 8 00 00 01 04 08 00 00 22  Length = 4288208 BitCount = 147 ID = 276299840x
   2.362408 1  C800040x        Rx   d 6 08 CB 00 00 79 C3  Length = 3628216 BitCount = 125 ID = 209715264x
   2.364566 1  13FFE0BBx       Rx   d 0  Length = 2034718 BitCount = 72 ID = 335536315x
   2.368974 1  10230040x       Rx   d 8 00 00 00 00 00 00 00 00  Length = 4284562 BitCount = 147 ID = 270729280x
   2.382961 1  10240040x       Rx   d 8 83 FE 88 01 00 F0 0F FC  Length = 4198208 BitCount = 144 ID = 270794816x
   2.392028 1  102C0040x       Rx   d 5 AE EF 44 59 03  Length = 3298224 BitCount = 114 ID = 271319104x
   2.402952 1  102CA040x       Rx   d 8 00 40 0C B8 21 00 F1 00  Length = 4108212 BitCount = 141 ID = 271360064x
   2.405985 1  10308060x       Rx   d 3 44 59 01  Length = 2788236 BitCount = 97 ID = 271614048x
   2.413662 1  10304058x       Rx   d 3 44 59 01  Length = 2724642 BitCount = 95 ID = 271597656x
   2.423087 1  10264040x       Rx   d 8 04 06 00 00 00 00 00 2E  Length = 4228208 BitCount = 145 ID = 270942272x
   2.428068 1  1043A040x       Rx   d 8 00 00 2F 00 00 00 00 00  Length = 4288208 BitCount = 147 ID = 272867392x
   2.433081 1  10210040x       Rx   d 8 00 00 00 00 00 00 00 00  Length = 4288223 BitCount = 147 ID = 270598208x
   2.443104 1  10220040x       Rx   d 8 10 00 00 00 00 04 00 00  Length = 4318208 BitCount = 148 ID = 270663744x
   2.445983 1  10306099x       Rx   d 3 44 59 01  Length = 2754642 BitCount = 96 ID = 271605913x
   2.453002 1  1022E040x       Rx   d 8 10 00 00 00 10 00 00 00  Length = 4254562 BitCount = 146 ID = 270721088x
   2.455227 1  13FFE058x       Rx   d 0  Length = 2098271 BitCount = 74 ID = 335536216x
   2.457660 1  106B0040x       Rx   d 1 00  Length = 2308248 BitCount = 81 ID = 275447872x
   2.463093 1  10230040x       Rx   d 8 20 00 00 00 20 00 00 00  Length = 4258208 BitCount = 146 ID = 270729280x
   2.472367 1  621             Rx   d 8 00 52 00 00 00 00 00 00  Length = 3598216 BitCount = 124 ID = 1569
   2.483052 1  10240040x       Rx   d 8 83 FE 88 01 00 F0 0F FC  Length = 4198208 BitCount = 144 ID = 270794816x
   2.488123 1  106B8040x       Rx   d 8 00 00 00 00 00 00 00 00  Length = 4314558 BitCount = 148 ID = 275480640x
   2.502947 1  102CA040x       Rx   d 8 00 40 0C CB 21 00 F1 00  Length = 4104566 BitCount = 141 ID = 271360064x
   2.523020 1  10264040x       Rx   d 8 04 06 00 00 00 00 00 2E  Length = 4224562 BitCount = 145 ID = 270942272x
   2.526204 1  10448060x       Rx   d 4 00 00 45 00  Length = 3058228 BitCount = 106 ID = 272924768x
   2.533104 1  10210040x       Rx   d 8 00 00 00 00 00 00 00 00  Length = 4284562 BitCount = 147 ID = 270598208x
   2.537969 1  1022A040x       Rx   d 8 00 B0 00 12 42 00 00 22  Length = 4138208 BitCount = 142 ID = 270704704x
   2.543130 1  10220040x       Rx   d 8 10 00 00 00 00 04 00 00  Length = 4318208 BitCount = 148 ID = 270663744x
   2.547483 1  1022C040x       Rx   d 6 00 10 00 20 00 00  Length = 3688216 BitCount = 127 ID = 270712896x
   2.553069 1  1022E040x       Rx   d 8 30 00 00 00 30 00 00 00  Length = 4288208 BitCount = 147 ID = 270721088x
   2.558617 1  13FFE0AFx       Rx   d 0  Length = 2064714 BitCount = 73 ID = 335536303x
   2.563057 1  10230040x       Rx   d 8 00 00 00 00 00 00 00 00  Length = 4284562 BitCount = 147 ID = 270729280x
   2.567892 1  102CC040x       Rx   d 8 00 09 CF 66 00 87 06 9A  Length = 4048212 BitCount = 139 ID = 271368256x
   2.572992 1  102CE040x       Rx   d 8 90 00 65 7F 00 00 26 99  Length = 4104566 BitCount = 141 ID = 271376448x
   2.578007 1  102D0040x       Rx   d 8 01 6A 01 ED 7C 2F 00 FF  Length = 4168208 BitCount = 143 ID = 271384640x
   2.583018 1  10240040x       Rx   d 8 83 FE 88 01 00 F0 0F FC  Length = 4198208 BitCount = 144 ID = 270794816x
   2.586171 1  106B0040x       Rx   d 1 00  Length = 2308248 BitCount = 81 ID = 275447872x
   2.592261 1  10806040x       Rx   d 5 00 00 00 00 19  Length = 3414613 BitCount = 118 ID = 276848704x
   2.603007 1  102CA040x       Rx   d 8 00 40 0C C0 21 00 F1 00  Length = 4138208 BitCount = 142 ID = 271360064x
   2.608166 1  10780040x       Rx   d 8 00 00 01 04 08 00 00 22  Length = 4284562 BitCount = 147 ID = 276299840x
   2.612431 1  C800040x        Rx   d 6 08 CB 00 00 79 C5  Length = 3598231 BitCount = 124 ID = 209715264x
   2.617592 1  10788040x       Rx   d 6 08 00 00 00 00 00  Length = 3778216 BitCount = 130 ID = 276332608x
   2.623054 1  10264040x       Rx   d 8 04 06 00 00 00 00 00 2F  Length = 4228208 BitCount = 145 ID = 270942272x
   2.633110 1  10210040x       Rx   d 8 00 00 00 00 00 00 00 00  Length = 4288208 BitCount = 147 ID = 270598208x
   2.643135 1  10220040x       Rx   d 8 10 00 00 00 00 04 00 00  Length = 4318208 BitCount = 148 ID = 270663744x
   2.653039 1  1022E040x       Rx   d 8 10 00 00 00 10 00 00 00  Length = 4258208 BitCount = 146 ID = 270721088x
   2.663033 1  10230040x       Rx   d 8 20 00 00 00 20 00 00 00  Length = 4258208 BitCount = 146 ID = 270729280x
   2.673088 1  1043A040x       Rx   d 8 00 00 2F 00 00 00 00 00  Length = 4288208 BitCount = 147 ID = 272867392x
   2.683022 1  10240040x       Rx   d 8 83 FE 88 01 00 F0 0F FC  Length = 4198208 BitCount = 144 ID = 270794816x
   2.688216 1  106B8040x       Rx   d 8 00 00 00 00 00 00 00 00  Length = 4318208 BitCount = 148 ID = 275480640x
   2.692087 1  102C0040x       Rx   d 5 AE EF 44 59 03  Length = 3298224 BitCount = 114 ID = 271319104x
   2.702983 1  102CA040x       Rx   d 8 00 40 0C C7 21 00 F1 00  Length = 4108212 BitCount = 141 ID = 271360064x
   2.706134 1  106B0040x       Rx   d 1 00  Length = 2308263 BitCount = 81 ID = 275447872x
   2.713603 1  10304058x       Rx   d 3 44 59 01  Length = 2724642 BitCount = 95 ID = 271597656x
   2.723054 1  10264040x       Rx   d 8 04 06 00 00 00 00 00 20  Length = 4224562 BitCount = 145 ID = 270942272x
   2.725969 1  10308060x       Rx   d 3 44 59 01  Length = 2788236 BitCount = 97 ID = 271614048x
   2.733139 1  10210040x       Rx   d 8 00 00 00 00 00 00 00 00  Length = 4284562 BitCount = 147 ID = 270598208x
   2.743135 1  10220040x       Rx   d 8 10 00 00 00 00 05 00 00  Length = 4288208 BitCount = 147 ID = 270663744x
   2.746013 1  10306099x       Rx   d 3 44 59 01  Length = 2754642 BitCount = 96 ID = 271605913x
   2.748236 1  13FFE060x       Rx   d 0  Length = 2098256 BitCount = 74 ID = 335536224x
   2.753099 1  1022E040x       Rx   d 8 30 00 00 00 30 00 00 00  Length = 4288208 BitCount = 147 ID = 270721088x
   2.755292 1  13FFE080x       Rx   d 0  Length = 2068260 BitCount = 73 ID = 335536256x
   2.763122 1  10230040x       Rx   d 8 00 00 00 00 00 00 00 00  Length = 4284573 BitCount = 147 ID = 270729280x
   2.772301 1  13FFE099x       Rx   d 0  Length = 2064714 BitCount = 73 ID = 335536281x
   2.783017 1  1022A040x       Rx   d 8 00 B0 00 12 42 00 00 22  Length = 4138208 BitCount = 142 ID = 270704704x
   2.786736 1  10734099x       Rx   d 6 24 44 00 7D 00 00  Length = 3594590 BitCount = 124 ID = 275988633x
   2.790551 1  1022C040x       Rx   d 6 00 10 00 20 00 00  Length = 3688216 BitCount = 127 ID = 270712896x
   2.798055 1  10240040x       Rx   d 8 83 FE 88 01 00 F0 0F FC  Length = 4198208 BitCount = 144 ID = 270794816x
   2.802678 1  10248040x       Rx   d 7 00 00 5F D1 CC D1 00  Length = 3838212 BitCount = 132 ID = 270827584x
   2.808143 1  102CA040x       Rx   d 8 00 40 0C C9 21 00 F1 00  Length = 4138223 BitCount = 142 ID = 271360064x
   2.812946 1  102CC040x       Rx   d 8 00 09 CF 66 00 87 06 99  Length = 4048212 BitCount = 139 ID = 271368256x
   2.823150 1  10264040x       Rx   d 8 04 06 00 00 00 00 00 30  Length = 4288208 BitCount = 147 ID = 270942272x
   2.828074 1  102CE040x       Rx   d 8 90 00 65 7F 00 00 26 98  Length = 4078227 BitCount = 140 ID = 271376448x
   2.833203 1  10210040x       Rx   d 8 00 00 00 00 00 00 00 00  Length = 4284562 BitCount = 147 ID = 270598208x
   2.836148 1  106B0040x       Rx   d 1 00  Length = 2308248 BitCount = 81 ID = 275447872x
   2.843168 1  10220040x       Rx   d 8 10 00 00 00 00 05 00 00  Length = 4284562 BitCount = 147 ID = 270663744x
   2.853074 1  1022E040x       Rx   d 8 10 00 00 00 10 00 00 00  Length = 4258208 BitCount = 146 ID = 270721088x
   2.858237 1  10780040x       Rx   d 8 00 00 01 04 08 00 00 22  Length = 4288208 BitCount = 147 ID = 276299840x
   2.862528 1  C800040x        Rx   d 6 08 CB 00 00 79 C8  Length = 3628216 BitCount = 125 ID = 209715264x
   2.868140 1  10230040x       Rx   d 8 20 00 00 00 20 00 00 00  Length = 4258208 BitCount = 146 ID = 270729280x
   2.883117 1  10240040x       Rx   d 8 83 FF 88 01 00 F0 0F FC  Length = 4228208 BitCount = 145 ID = 270794816x
   2.888397 1  106B8040x       Rx   d 8 00 00 00 00 00 00 00 00  Length = 4314558 BitCount = 148 ID = 275480640x
   2.903070 1  102CA040x       Rx   d 8 00 40 0C C0 21 00 F1 00  Length = 4134566 BitCount = 142 ID = 271360064x
   2.923089 1  10264040x       Rx   d 8 04 06 00 00 00 00 00 2F  Length = 4228223 BitCount = 145 ID = 270942272x
   2.928250 1  1043A040x       Rx   d 8 00 00 2C 00 00 00 00 00  Length = 4344573 BitCount = 149 ID = 272867392x
   2.933205 1  10210040x       Rx   d 8 00 00 00 00 00 00 00 00  Length = 4288208 BitCount = 147 ID = 270598208x
   2.937918 1  1080A040x       Rx   d 7 00 00 00 00 00 00 00  Length = 4018212 BitCount = 138 ID = 276865088x
   2.943198 1  10220040x       Rx   d 8 10 00 00 00 00 06 00 00  Length = 4284562 BitCount = 147 ID = 270663744x
   2.953134 1  1022E040x       Rx   d 8 30 00 00 00 30 00 00 00  Length = 4288208 BitCount = 147 ID = 270721088x
   2.956227 1  106B0040x       Rx   d 1 00  Length = 2308248 BitCount = 81 ID = 275447872x
   2.963187 1  10230040x       Rx   d 8 00 00 00 00 00 00 00 00  Length = 4284562 BitCount = 147 ID = 270729280x
   2.983112 1  10240040x       Rx   d 8 83 FE 88 01 00 F0 0F FC  Length = 4194562 BitCount = 144 ID = 270794816x
   2.992148 1  102C0040x       Rx   d 5 AE EF 44 59 03  Length = 3298224 BitCount = 114 ID = 271319104x
   3.003072 1  102CA040x       Rx   d 8 00 40 0C B5 21 00 F1 00  Length = 4108212 BitCount = 141 ID = 271360064x
   3.005428 1  Statistic: D 1 R 0 XD 147 XR 0 E 0 O 0 B 58.51%
   3.005428 2  Statistic: D 0 R 0 XD 0 XR 0 E 0 O 0 B 0.00%
   3.005428 3  Statistic: D 0 R 0 XD 0 XR 0 E 0 O 0 B 0.00%
   3.005985 1  10308060x       Rx   d 3 44 59 01  Length = 2788236 BitCount = 97 ID = 271614048x
   3.013513 1  10304058x       Rx   d 3 44 59 01  Length = 2724642 BitCount = 95 ID = 271597656x
   3.023117 1  10264040x       Rx   d 8 04 06 00 00 00 00 00 2F  Length = 4228223 BitCount = 145 ID = 270942272x
   3.033200 1  10210040x       Rx   d 8 00 00 00 00 00 00 00 00  Length = 4288208 BitCount = 147 ID = 270598208x
   3.038093 1  1022A040x       Rx   d 8 00 B0 00 12 42 00 00 22  Length = 4138208 BitCount = 142 ID = 270704704x
   3.043252 1  10220040x       Rx   d 8 10 00 00 00 00 08 00 00  Length = 4314558 BitCount = 148 ID = 270663744x
   3.046137 1  10306099x       Rx   d 3 44 59 01  Length = 2758236 BitCount = 96 ID = 271605913x
   3.049950 1  1022C040x       Rx   d 6 00 10 00 20 00 00  Length = 3688231 BitCount = 127 ID = 270712896x
   3.058176 1  1022E040x       Rx   d 8 10 00 00 00 10 00 00 00  Length = 4258208 BitCount = 146 ID = 270721088x
   3.063159 1  10230040x       Rx   d 8 20 00 00 00 20 00 00 00  Length = 4258223 BitCount = 146 ID = 270729280x
   3.066608 1  10250040x       Rx   d 2 00 00  Length = 2604669 BitCount = 91 ID = 270860352x
   3.073034 1  102CC040x       Rx   d 8 00 09 CF 66 00 87 06 99  Length = 4048227 BitCount = 139 ID = 271368256x
   3.078167 1  102CE040x       Rx   d 8 90 00 65 7F 00 00 26 99  Length = 4108212 BitCount = 141 ID = 271376448x
   3.083178 1  10240040x       Rx   d 8 83 FF 88 01 00 F0 0F FC  Length = 4228223 BitCount = 145 ID = 270794816x
   3.088277 1  102D0040x       Rx   d 8 01 6A 01 ED 7C 2E 00 FF  Length = 4134566 BitCount = 142 ID = 271384640x
   3.093172 1  102E0040x       Rx   d 8 00 33 CA 71 8A 00 64 80  Length = 4138208 BitCount = 142 ID = 271450176x
   3.097345 1  10466040x       Rx   d 5 00 00 00 00 00  Length = 3448235 BitCount = 119 ID = 273047616x
   3.103077 1  102CA040x       Rx   d 8 00 40 0C C5 21 00 F1 00  Length = 4078212 BitCount = 140 ID = 271360064x
   3.106796 1  108E0080x       Rx   d 6 0E 01 17 02 0B CB  Length = 3594590 BitCount = 124 ID = 277741696x
   3.109229 1  106B0040x       Rx   d 1 00  Length = 2308248 BitCount = 81 ID = 275447872x
   3.117602 1  C800040x        Rx   d 6 08 CB 00 00 79 CA  Length = 3598216 BitCount = 124 ID = 209715264x
   3.123214 1  10264040x       Rx   d 8 04 06 00 00 00 00 00 1F  Length = 4258208 BitCount = 146 ID = 270942272x
   3.125407 1  13FFE068x       Rx   d 0  Length = 2068260 BitCount = 73 ID = 335536232x
   3.129851 1  106B8040x       Rx   d 8 00 00 00 00 00 00 00 00  Length = 4318208 BitCount = 148 ID = 275480640x
   3.132555 1  106D0080x       Rx   d 2 00 00  Length = 2578240 BitCount = 90 ID = 275579008x
   3.138257 1  10210040x       Rx   d 8 00 00 00 00 00 00 00 00  Length = 4288223 BitCount = 147 ID = 270598208x
   3.143297 1  10220040x       Rx   d 8 10 00 00 00 00 04 00 00  Length = 4314558 BitCount = 148 ID = 270663744x
   3.147352 1  106C0040x       Rx   d 5 00 06 0F 07 00  Length = 3448220 BitCount = 119 ID = 275513408x
   3.153205 1  1022E040x       Rx   d 8 30 00 00 00 30 00 00 00  Length = 4288208 BitCount = 147 ID = 270721088x
   3.157046 1  1077C040x       Rx   d 4 30 30 01 F4  Length = 3148239 BitCount = 109 ID = 276283456x
   3.163201 1  10230040x       Rx   d 8 00 00 00 00 00 00 00 00  Length = 4288208 BitCount = 147 ID = 270729280x
   3.168303 1  10780040x       Rx   d 8 00 00 01 04 08 00 00 22  Length = 4284562 BitCount = 147 ID = 276299840x
   3.173258 1  1043A040x       Rx   d 8 00 00 2D 00 00 00 00 00  Length = 4288208 BitCount = 147 ID = 272867392x
   3.177731 1  10788040x       Rx   d 6 08 00 00 00 00 00  Length = 3778216 BitCount = 130 ID = 276332608x
   3.183166 1  10240040x       Rx   d 8 83 FE 88 01 00 F0 0F FC  Length = 4198223 BitCount = 144 ID = 270794816x
   3.187458 1  10806040x       Rx   d 5 00 00 00 00 19  Length = 3414613 BitCount = 118 ID = 276848704x
   3.190973 1  13FFE040x       Rx   d 0  Length = 2068275 BitCount = 73 ID = 335536192x
   3.203066 1  102CA040x       Rx   d 8 00 40 0C C5 21 00 F1 00  Length = 4074566 BitCount = 140 ID = 271360064x
   3.223204 1  10264040x       Rx   d 8 04 06 00 00 00 00 00 2F  Length = 4228208 BitCount = 145 ID = 270942272x
   3.226269 1  106B0040x       Rx   d 1 00  Length = 2308248 BitCount = 81 ID = 275447872x
   3.233293 1  10210040x       Rx   d 8 00 00 00 00 00 00 00 00  Length = 4288208 BitCount = 147 ID = 270598208x
   3.243289 1  10220040x       Rx   d 8 10 00 00 00 00 03 00 00  Length = 4318208 BitCount = 148 ID = 270663744x
   3.253193 1  1022E040x       Rx   d 8 10 00 00 00 10 00 00 00  Length = 4258208 BitCount = 146 ID = 270721088x
   3.263188 1  10230040x       Rx   d 8 20 00 00 00 20 00 00 00  Length = 4258208 BitCount = 146 ID = 270729280x
   3.283141 1  1022A040x       Rx   d 8 00 B0 00 12 42 00 00 22  Length = 4134566 BitCount = 142 ID = 270704704x
   3.286862 1  10734099x       Rx   d 6 24 44 00 7D 00 00  Length = 3594590 BitCount = 124 ID = 275988633x
   3.290675 1  1022C040x       Rx   d 6 00 10 00 20 00 00  Length = 3688231 BitCount = 127 ID = 270712896x
   3.298180 1  10240040x       Rx   d 8 83 FE 88 01 00 F0 0F FC  Length = 4198223 BitCount = 144 ID = 270794816x
   3.302922 1  10248040x       Rx   d 7 00 00 5F D1 CC D1 00  Length = 3838212 BitCount = 132 ID = 270827584x
   3.307243 1  102C0040x       Rx   d 5 AE EF 44 59 03  Length = 3294617 BitCount = 114 ID = 271319104x
   3.313154 1  102CA040x       Rx   d 8 00 40 0C BB 21 00 F1 00  Length = 4104566 BitCount = 141 ID = 271360064x
   3.318049 1  102CC040x       Rx   d 8 00 09 CF 66 00 87 06 99  Length = 4048212 BitCount = 139 ID = 271368256x
   3.323299 1  10264040x       Rx   d 8 04 06 00 00 00 00 00 2E  Length = 4224562 BitCount = 145 ID = 270942272x
   3.326213 1  10308060x       Rx   d 3 44 59 01  Length = 2788236 BitCount = 97 ID = 271614048x
   3.330476 1  102CE040x       Rx   d 8 90 00 65 7F FF 00 26 99  Length = 4138208 BitCount = 142 ID = 271376448x
   3.333538 1  10304058x       Rx   d 3 44 59 01  Length = 2728236 BitCount = 95 ID = 271597656x
   3.338280 1  10210040x       Rx   d 8 00 00 00 00 00 00 00 00  Length = 4288208 BitCount = 147 ID = 270598208x
   3.343325 1  10220040x       Rx   d 8 10 00 00 00 00 03 00 00  Length = 4318208 BitCount = 148 ID = 270663744x
   3.345756 1  10244060x       Rx   d 1 02  Length = 2308248 BitCount = 81 ID = 270811232x
   3.348634 1  10306099x       Rx   d 3 44 59 01  Length = 2754657 BitCount = 96 ID = 271605913x
   3.351064 1  106B0040x       Rx   d 1 00  Length = 2304686 BitCount = 81 ID = 275447872x
   3.358269 1  1022E040x       Rx   d 8 30 00 00 00 30 00 00 00  Length = 4288208 BitCount = 147 ID = 270721088x
   3.362620 1  C800040x        Rx   d 6 08 CB 00 00 79 CD  Length = 3594590 BitCount = 124 ID = 209715264x
   3.368385 1  10230040x       Rx   d 8 00 00 00 00 00 00 00 00  Length = 4288208 BitCount = 147 ID = 270729280x
   3.373369 1  106B8040x       Rx   d 8 00 00 00 00 00 00 00 00  Length = 4318223 BitCount = 148 ID = 275480640x
   3.376549 1  10814099x       Rx   d 4 20 44 2E 00  Length = 3058228 BitCount = 106 ID = 276906137x
   3.380959 1  10780040x       Rx   d 8 00 00 01 04 08 00 00 22  Length = 4284562 BitCount = 147 ID = 276299840x
   3.388224 1  10240040x       Rx   d 8 83 FE 88 01 00 F0 0F FC  Length = 4198223 BitCount = 144 ID = 270794816x
   3.392937 1  10EC4040x       Rx   d 8 4C 41 5A 41 36 39 53 44  Length = 3958212 BitCount = 136 ID = 283918400x
   3.397861 1  10EC8040x       Rx   d 8 48 42 37 30 31 34 39 36  Length = 3898212 BitCount = 134 ID = 283934784x
   3.403294 1  102CA040x       Rx   d 8 00 40 0C B4 21 00 F1 00  Length = 4108212 BitCount = 141 ID = 271360064x
   3.423249 1  10264040x       Rx   d 8 04 06 00 00 00 00 00 1E  Length = 4194562 BitCount = 144 ID = 270942272x
   3.428320 1  1043A040x       Rx   d 8 00 00 2E 00 00 00 00 00  Length = 4314558 BitCount = 148 ID = 272867392x
   3.433335 1  10210040x       Rx   d 8 00 00 00 00 00 00 00 00  Length = 4288208 BitCount = 147 ID = 270598208x
   3.443328 1  10220040x       Rx   d 8 10 00 00 00 00 04 00 00  Length = 4318208 BitCount = 148 ID = 270663744x
   3.453262 1  1022E040x       Rx   d 8 10 00 00 00 10 00 00 00  Length = 4258223 BitCount = 146 ID = 270721088x
   3.463229 1  10230040x       Rx   d 8 20 00 00 00 20 00 00 00  Length = 4258208 BitCount = 146 ID = 270729280x
   3.466322 1  106B0040x       Rx   d 1 00  Length = 2308263 BitCount = 81 ID = 275447872x
   3.472715 1  621             Rx   d 8 00 52 00 00 00 00 00 00  Length = 3598216 BitCount = 124 ID = 1569
   3.483306 1  10240040x       Rx   d 8 83 FE 88 01 00 F0 0F FC  Length = 4194577 BitCount = 144 ID = 270794816x
   3.488347 1  106B8040x       Rx   d 8 00 00 00 00 00 00 00 00  Length = 4314558 BitCount = 148 ID = 275480640x
   3.503231 1  102CA040x       Rx   d 8 00 40 0C B2 21 00 F1 00  Length = 4074581 BitCount = 140 ID = 271360064x
   3.523304 1  10264040x       Rx   d 8 04 06 00 00 00 00 00 2D  Length = 4194562 BitCount = 144 ID = 270942272x
   3.526489 1  10448060x       Rx   d 4 00 00 45 00  Length = 3058228 BitCount = 106 ID = 272924768x
   3.533328 1  10210040x       Rx   d 8 00 00 00 00 00 00 00 00  Length = 4284573 BitCount = 147 ID = 270598208x
   3.538193 1  1022A040x       Rx   d 8 00 B0 00 12 42 00 00 22  Length = 4138223 BitCount = 142 ID = 270704704x
   3.543322 1  10220040x       Rx   d 8 10 00 00 00 00 06 00 00  Length = 4284562 BitCount = 147 ID = 270663744x
   3.547704 1  1022C040x       Rx   d 6 00 10 00 20 00 00  Length = 3684586 BitCount = 127 ID = 270712896x
   3.553318 1  1022E040x       Rx   d 8 30 00 00 00 30 00 00 00  Length = 4288208 BitCount = 147 ID = 270721088x
   3.563313 1  10230040x       Rx   d 8 00 00 00 00 00 00 00 00  Length = 4288223 BitCount = 147 ID = 270729280x
   3.565472 1  13FFE0BBx       Rx   d 0  Length = 2034718 BitCount = 72 ID = 335536315x
   3.569641 1  102CC040x       Rx   d 8 00 09 CF 66 00 87 06 9A  Length = 4044570 BitCount = 139 ID = 271368256x
   3.578227 1  102CE040x       Rx   d 8 90 00 65 7F FF 00 26 99  Length = 4138208 BitCount = 142 ID = 271376448x
   3.583358 1  10240040x       Rx   d 8 83 FE 88 01 00 F0 0F FC  Length = 4198208 BitCount = 144 ID = 270794816x
   3.588189 1  102D0040x       Rx   d 8 01 6A 01 ED 7C 2E 00 FF  Length = 4138208 BitCount = 142 ID = 271384640x
   3.592302 1  102C0040x       Rx   d 5 AE EF 44 59 03  Length = 3298224 BitCount = 114 ID = 271319104x
   3.596326 1  106B0040x       Rx   d 1 00  Length = 2308248 BitCount = 81 ID = 275447872x
   3.603195 1  102CA040x       Rx   d 8 00 40 0C AD 21 00 F1 00  Length = 4074581 BitCount = 140 ID = 271360064x
   3.606110 1  10308060x       Rx   d 3 44 59 01  Length = 2788236 BitCount = 97 ID = 271614048x
   3.610523 1  10780040x       Rx   d 8 00 00 01 04 08 00 00 22  Length = 4288208 BitCount = 147 ID = 276299840x
   3.613400 1  10304058x       Rx   d 3 44 59 01  Length = 2724642 BitCount = 95 ID = 271597656x
   3.617752 1  C800040x        Rx   d 6 08 CB 00 00 79 CF  Length = 3688216 BitCount = 127 ID = 209715264x
   3.623082 CAN 1 Status:chip status error active  - TxErr: 0 RxErr: 1
   3.623090 1  ErrorFrame	Flags = 0xfffe	CodeExt = 0x2072	Code = 0x81	ID = 0x90264040	DLC = 8	Position = 120	Length = 4014375	Data = 0x4  0x6  0  0  0  0  0  0x2d
   3.627581 CAN 1 Status:chip status error active
   3.627799 1  10264040x       Rx   d 8 04 06 00 00 00 00 00 2D  Length = 4194577 BitCount = 144 ID = 270942272x
   3.631549 1  624             Rx   d 8 00 20 00 00 00 00 00 00  Length = 3624586 BitCount = 125 ID = 1572
   3.635959 1  10210040x       Rx   d 8 00 00 00 00 00 00 00 00  Length = 4284562 BitCount = 147 ID = 270598208x
   3.643344 1  10220040x       Rx   d 8 10 00 00 00 00 05 00 00  Length = 4288223 BitCount = 147 ID = 270663744x
   3.646222 1  10306099x       Rx   d 3 44 59 01  Length = 2754642 BitCount = 96 ID = 271605913x
   3.650126 1  10788040x       Rx   d 6 08 00 00 00 00 00  Length = 3778231 BitCount = 130 ID = 276332608x
   3.654299 1  10324058x       Rx   d 6 00 00 03 FF 00 00  Length = 3688216 BitCount = 127 ID = 271728728x
   3.658680 1  1022E040x       Rx   d 8 10 00 00 00 10 00 00 00  Length = 4258208 BitCount = 146 ID = 270721088x
   3.660902 1  13FFE058x       Rx   d 0  Length = 2098271 BitCount = 74 ID = 335536216x
   3.665280 1  10230040x       Rx   d 8 20 00 00 00 20 00 00 00  Length = 4254562 BitCount = 146 ID = 270729280x
   3.673506 1  1043A040x       Rx   d 8 00 00 2E 00 00 00 00 00  Length = 4318208 BitCount = 148 ID = 272867392x
   3.677499 1  10806040x       Rx   d 5 00 00 00 00 19  Length = 3418235 BitCount = 118 ID = 276848704x
   3.683352 1  10240040x       Rx   d 8 83 FE 88 01 00 F0 0F FC  Length = 4198208 BitCount = 144 ID = 270794816x
   3.688392 1  106B8040x       Rx   d 8 00 00 00 00 00 00 00 00  Length = 4314573 BitCount = 148 ID = 275480640x
   3.703185 1  102CA040x       Rx   d 8 00 40 0C BD 21 00 F1 00  Length = 4074581 BitCount = 140 ID = 271360064x
   3.711382 1  106B0040x       Rx   d 1 00  Length = 2308248 BitCount = 81 ID = 275447872x
   3.723356 1  10264040x       Rx   d 8 04 06 00 00 00 00 00 2E  Length = 4228208 BitCount = 145 ID = 270942272x
   3.733379 1  10210040x       Rx   d 8 00 00 00 00 00 00 00 00  Length = 4288223 BitCount = 147 ID = 270598208x
   3.743403 1  10220040x       Rx   d 8 10 00 00 00 00 08 00 00  Length = 4318208 BitCount = 148 ID = 270663744x
   3.753337 1  1022E040x       Rx   d 8 30 00 00 00 30 00 00 00  Length = 4288223 BitCount = 147 ID = 270721088x
   3.758381 1  13FFE0AFx       Rx   d 0  Length = 2068260 BitCount = 73 ID = 335536303x
   3.763364 1  10230040x       Rx   d 8 00 00 00 00 00 00 00 00  Length = 4288208 BitCount = 147 ID = 270729280x
   3.783259 1  1022A040x       Rx   d 8 00 B0 00 12 42 00 00 22  Length = 4138208 BitCount = 142 ID = 270704704x
   3.786976 1  10734099x       Rx   d 6 24 44 00 7D 00 00  Length = 3594590 BitCount = 124 ID = 275988633x
   3.790791 1  1022C040x       Rx   d 6 00 10 00 20 00 00  Length = 3688231 BitCount = 127 ID = 270712896x
   3.798324 1  10240040x       Rx   d 8 83 FE 88 01 00 F0 0F FC  Length = 4198208 BitCount = 144 ID = 270794816x
   3.801387 1  10242040x       Rx   d 1 02  Length = 2308263 BitCount = 81 ID = 270803008x
   3.807931 1  10248040x       Rx   d 7 00 00 5F D1 CC D1 00  Length = 3838212 BitCount = 132 ID = 270827584x
   3.813270 1  102CA040x       Rx   d 8 00 40 0C C7 21 00 F1 00  Length = 4104581 BitCount = 141 ID = 271360064x
   3.818193 1  102CC040x       Rx   d 8 00 09 CF 66 00 87 06 99  Length = 4048212 BitCount = 139 ID = 271368256x
   3.823413 1  10264040x       Rx   d 8 04 06 00 00 00 00 00 1F  Length = 4254562 BitCount = 146 ID = 270942272x
   3.828248 1  102CE040x       Rx   d 8 90 00 65 7F 00 00 26 99  Length = 4108212 BitCount = 141 ID = 271376448x
   3.833411 1  10210040x       Rx   d 8 00 00 00 00 00 00 00 00  Length = 4288223 BitCount = 147 ID = 270598208x
   3.836382 1  106B0040x       Rx   d 1 00  Length = 2308248 BitCount = 81 ID = 275447872x
   3.843432 1  10220040x       Rx   d 8 10 00 00 00 00 04 00 00  Length = 4314558 BitCount = 148 ID = 270663744x
   3.853368 1  1022E040x       Rx   d 8 10 00 00 00 10 00 00 00  Length = 4258223 BitCount = 146 ID = 270721088x
   3.858471 1  10780040x       Rx   d 8 00 00 01 04 08 00 00 22  Length = 4288208 BitCount = 147 ID = 276299840x
   3.862792 1  C800040x        Rx   d 6 08 CB 00 00 79 D2  Length = 3628231 BitCount = 125 ID = 209715264x
   3.868344 1  10230040x       Rx   d 8 20 00 00 00 20 00 00 00  Length = 4258223 BitCount = 146 ID = 270729280x
   3.883321 1  10240040x       Rx   d 8 83 FE 88 01 00 F0 0F FC  Length = 4198208 BitCount = 144 ID = 270794816x
   3.888454 1  106B8040x       Rx   d 8 00 00 00 00 00 00 00 00  Length = 4318208 BitCount = 148 ID = 275480640x
   3.892388 1  102C0040x       Rx   d 5 AE EF 44 59 03  Length = 3298224 BitCount = 114 ID = 271319104x
   3.903282 1  102CA040x       Rx   d 8 00 40 0C B5 21 00 F1 00  Length = 4108212 BitCount = 141 ID = 271360064x
   3.913272 1  10304058x       Rx   d 3 44 59 01  Length = 2728236 BitCount = 95 ID = 271597656x
   3.923445 1  10264040x       Rx   d 8 04 06 00 00 00 00 00 2E  Length = 4228208 BitCount = 145 ID = 270942272x
   3.926358 1  10308060x       Rx   d 3 44 59 01  Length = 2788236 BitCount = 97 ID = 271614048x
   3.930771 1  1043A040x       Rx   d 8 00 00 2D 00 00 00 00 00  Length = 4288223 BitCount = 147 ID = 272867392x
   3.938453 1  10210040x       Rx   d 8 00 00 00 00 00 00 00 00  Length = 4288208 BitCount = 147 ID = 270598208x
   3.943464 1  10220040x       Rx   d 8 10 00 00 00 00 04 00 00  Length = 4318208 BitCount = 148 ID = 270663744x
   3.946343 1  10306099x       Rx   d 3 44 59 01  Length = 2754657 BitCount = 96 ID = 271605913x
   3.950485 1  1080A040x       Rx   d 7 00 00 00 00 00 00 00  Length = 4018212 BitCount = 138 ID = 276865088x
   3.952707 1  13FFE060x       Rx   d 0  Length = 2098256 BitCount = 74 ID = 335536224x
   3.954900 1  13FFE080x       Rx   d 0  Length = 2068260 BitCount = 73 ID = 335536256x
   3.959314 1  1022E040x       Rx   d 8 30 00 00 00 30 00 00 00  Length = 4288208 BitCount = 147 ID = 270721088x
   3.963817 1  631             Rx   d 8 00 40 00 00 00 00 00 00  Length = 3568216 BitCount = 123 ID = 1585
   3.967569 1  62C             Rx   d 8 00 40 00 00 00 00 00 00  Length = 3628231 BitCount = 125 ID = 1580
   3.971979 1  10230040x       Rx   d 8 00 00 00 00 00 00 00 00  Length = 4284562 BitCount = 147 ID = 270729280x
   3.974172 1  13FFE099x       Rx   d 0  Length = 2068260 BitCount = 73 ID = 335536281x
   3.976604 1  106B0040x       Rx   d 1 00  Length = 2308248 BitCount = 81 ID = 275447872x
   3.983387 1  10240040x       Rx   d 8 83 FE 88 01 00 F0 0F FC  Length = 4198208 BitCount = 144 ID = 270794816x
   4.002524 Li SleepModeEvent 0 entering sleep mode due to bus idle timeout
   4.003281 1  102CA040x       Rx   d 8 00 40 0C A6 21 00 F1 00  Length = 4074566 BitCount = 140 ID = 271360064x
   4.005428 1  Statistic: D 4 R 0 XD 159 XR 0 E 1 O 0 B 63.20%
   4.005428 2  Statistic: D 0 R 0 XD 0 XR 0 E 0 O 0 B 0.00%
   4.005428 3  Statistic: D 0 R 0 XD 0 XR 0 E 0 O 0 B 0.00%
   4.023389 1  10264040x       Rx   d 8 04 06 00 00 00 00 00 2E  Length = 4228208 BitCount = 145 ID = 270942272x
   4.033444 1  10210040x       Rx   d 8 00 00 00 00 00 00 00 00  Length = 4288223 BitCount = 147 ID = 270598208x
   4.038337 1  1022A040x       Rx   d 8 00 B0 00 12 42 00 00 22  Length = 4138208 BitCount = 142 ID = 270704704x
   4.043470 1  10220040x       Rx   d 8 10 00 00 00 00 05 00 00  Length = 4288208 BitCount = 147 ID = 270663744x
   4.047818 1  1022C040x       Rx   d 6 00 10 00 20 00 00  Length = 3684586 BitCount = 127 ID = 270712896x
   4.053403 1  1022E040x       Rx   d 8 10 00 00 00 10 00 00 00  Length = 4258208 BitCount = 146 ID = 270721088x
   4.056736 1  10250040x       Rx   d 2 00 00  Length = 2608240 BitCount = 91 ID = 270860352x
   4.063399 1  10230040x       Rx   d 8 20 00 00 00 20 00 00 00  Length = 4258208 BitCount = 146 ID = 270729280x
   4.068320 1  102CC040x       Rx   d 8 00 09 CF 66 00 87 06 9B  Length = 4048212 BitCount = 139 ID = 271368256x
   4.073363 1  102CE040x       Rx   d 8 90 00 65 7F 00 00 26 99  Length = 4108212 BitCount = 141 ID = 271376448x
   4.078317 1  102D0040x       Rx   d 8 01 6A 01 ED 7C 2E 00 FF  Length = 4138208 BitCount = 142 ID = 271384640x
   4.083478 1  10240040x       Rx   d 8 83 FE 88 01 00 F0 0F FC  Length = 4198208 BitCount = 144 ID = 270794816x
   4.088399 1  102E0040x       Rx   d 8 00 33 CA 71 8A 00 64 80  Length = 4138208 BitCount = 142 ID = 271450176x
   4.091462 1  106B0040x       Rx   d 1 00  Length = 2308248 BitCount = 81 ID = 275447872x
   4.098512 1  106B8040x       Rx   d 8 00 00 00 00 00 00 00 00  Length = 4314558 BitCount = 148 ID = 275480640x
   4.103347 1  102CA040x       Rx   d 8 00 40 0C C7 21 00 F1 00  Length = 4108212 BitCount = 141 ID = 271360064x
   4.107065 1  108E0080x       Rx   d 6 0E 01 17 02 0B CC  Length = 3594590 BitCount = 124 ID = 277741696x
   4.110635 1  106C0040x       Rx   d 5 00 06 0F 07 00  Length = 3444598 BitCount = 119 ID = 275513408x
   4.117780 1  C800040x        Rx   d 6 08 CB 00 00 79 D3  Length = 3598216 BitCount = 124 ID = 209715264x
   4.123484 1  10264040x       Rx   d 8 04 06 00 00 00 00 00 1E  Length = 4198223 BitCount = 144 ID = 270942272x
   4.127297 1  1077C040x       Rx   d 4 30 30 01 F4  Length = 3148239 BitCount = 109 ID = 276283456x
   4.133291 CAN 1 Status:chip status error active  - TxErr: 0 RxErr: 1
   4.133298 1  ErrorFrame	Flags = 0xfffe	CodeExt = 0x2072	Code = 0x81	ID = 0x90210040	DLC = 8	Position = 120	Length = 4104375	Data = 0  0  0  0  0  0  0  0
   4.137880 CAN 1 Status:chip status error active
   4.138098 1  10210040x       Rx   d 8 00 00 00 00 00 00 00 00  Length = 4284562 BitCount = 147 ID = 270598208x
   4.143532 1  10220040x       Rx   d 8 10 00 00 00 00 04 00 00  Length = 4318223 BitCount = 148 ID = 270663744x
   4.148516 1  10780040x       Rx   d 8 00 00 01 04 08 00 00 22  Length = 4288208 BitCount = 147 ID = 276299840x
   4.153469 1  1022E040x       Rx   d 8 30 00 00 00 30 00 00 00  Length = 4288208 BitCount = 147 ID = 270721088x
   4.157966 1  10788040x       Rx   d 6 08 00 00 00 00 00  Length = 3774582 BitCount = 130 ID = 276332608x
   4.163431 1  10230040x       Rx   d 8 00 00 00 00 00 00 00 00  Length = 4288208 BitCount = 147 ID = 270729280x
   4.167633 1  10806040x       Rx   d 5 00 00 00 00 19  Length = 3414613 BitCount = 118 ID = 276848704x
   4.173518 1  1043A040x       Rx   d 8 00 00 2F 00 00 00 00 00  Length = 4288223 BitCount = 147 ID = 272867392x
   4.183480 1  10240040x       Rx   d 8 83 FE 88 01 00 F0 0F FC  Length = 4198223 BitCount = 144 ID = 270794816x
   4.192457 1  102C0040x       Rx   d 5 AE EF 44 59 03  Length = 3298224 BitCount = 114 ID = 271319104x
   4.203351 1  102CA040x       Rx   d 8 00 40 0C B1 21 00 F1 00  Length = 4108223 BitCount = 141 ID = 271360064x
   4.206265 1  10308060x       Rx   d 3 44 59 01  Length = 2788236 BitCount = 97 ID = 271614048x
   4.208697 1  106B0040x       Rx   d 1 00  Length = 2308248 BitCount = 81 ID = 275447872x
   4.213195 1  10304058x       Rx   d 3 44 59 01  Length = 2724642 BitCount = 95 ID = 271597656x
   4.223430 1  10264040x       Rx   d 8 04 06 00 00 00 00 00 2E  Length = 4228208 BitCount = 145 ID = 270942272x
   4.233514 1  10210040x       Rx   d 8 00 00 00 00 00 00 00 00  Length = 4288208 BitCount = 147 ID = 270598208x
   4.243509 1  10220040x       Rx   d 8 10 00 00 00 00 06 00 00  Length = 4288208 BitCount = 147 ID = 270663744x
   4.246387 1  10306099x       Rx   d 3 44 59 01  Length = 2754642 BitCount = 96 ID = 271605913x
   4.253411 1  1022E040x       Rx   d 8 10 00 00 00 10 00 00 00  Length = 4258208 BitCount = 146 ID = 270721088x
   4.263438 1  10230040x       Rx   d 8 20 00 00 00 20 00 00 00  Length = 4258223 BitCount = 146 ID = 270729280x
   4.283455 1  1022A040x       Rx   d 8 00 B0 00 12 42 00 00 22  Length = 4138208 BitCount = 142 ID = 270704704x
   4.287178 1  10734099x       Rx   d 6 24 44 00 7D 00 00  Length = 3598216 BitCount = 124 ID = 275988633x
   4.290989 1  1022C040x       Rx   d 6 00 10 00 20 00 00  Length = 3688216 BitCount = 127 ID = 270712896x
   4.298434 1  10240040x       Rx   d 8 83 FE 88 01 00 F0 0F FC  Length = 4198208 BitCount = 144 ID = 270794816x
   4.303088 1  10248040x       Rx   d 7 00 00 5F D1 CC D1 00  Length = 3838212 BitCount = 132 ID = 270827584x
   4.308397 1  102CA040x       Rx   d 8 00 40 0C 9E 21 00 F1 00  Length = 4074566 BitCount = 140 ID = 271360064x
   4.313322 1  102CC040x       Rx   d 8 00 09 CF 66 00 87 06 9A  Length = 4048212 BitCount = 139 ID = 271368256x
   4.318543 1  106B8040x       Rx   d 8 00 00 00 00 00 00 00 00  Length = 4318208 BitCount = 148 ID = 275480640x
   4.323554 1  10264040x       Rx   d 8 04 06 00 00 00 00 00 2E  Length = 4228223 BitCount = 145 ID = 270942272x
   4.325748 1  13FFE068x       Rx   d 0  Length = 2068275 BitCount = 73 ID = 335536232x
   4.329980 1  102CE040x       Rx   d 8 90 00 65 7F 00 00 26 99  Length = 4108212 BitCount = 141 ID = 271376448x
   4.332678 1  106D0080x       Rx   d 2 00 00  Length = 2574658 BitCount = 90 ID = 275579008x
   4.338532 1  10210040x       Rx   d 8 00 00 00 00 00 00 00 00  Length = 4288223 BitCount = 147 ID = 270598208x
   4.343513 1  10220040x       Rx   d 8 10 00 00 00 00 05 00 00  Length = 4288208 BitCount = 147 ID = 270663744x
   4.346516 1  106B0040x       Rx   d 1 00  Length = 2308263 BitCount = 81 ID = 275447872x
   4.353510 1  1022E040x       Rx   d 8 30 00 00 00 30 00 00 00  Length = 4288208 BitCount = 147 ID = 270721088x
   4.358611 1  10780040x       Rx   d 8 00 00 01 04 08 00 00 22  Length = 4288208 BitCount = 147 ID = 276299840x
   4.362872 1  C800040x        Rx   d 6 08 CB 00 00 79 D7  Length = 3598231 BitCount = 124 ID = 209715264x
   4.368513 1  10230040x       Rx   d 8 00 00 00 00 00 00 00 00  Length = 4288208 BitCount = 147 ID = 270729280x
   4.371339 1  13FFE040x       Rx   d 0  Length = 2068260 BitCount = 73 ID = 335536192x
   4.383433 1  10240040x       Rx   d 8 83 FE 88 01 00 F0 0F FC  Length = 4198208 BitCount = 144 ID = 270794816x
   4.403384 1  102CA040x       Rx   d 8 00 40 0C BD 21 00 F1 00  Length = 4074566 BitCount = 140 ID = 271360064x
   4.423493 1  10264040x       Rx   d 8 04 06 00 00 00 00 00 2E  Length = 4228208 BitCount = 145 ID = 270942272x
   4.428564 1  1043A040x       Rx   d 8 00 00 2E 00 00 00 00 00  Length = 4314558 BitCount = 148 ID = 272867392x
   4.433549 1  10210040x       Rx   d 8 00 00 00 00 00 00 00 00  Length = 4288208 BitCount = 147 ID = 270598208x
   4.443574 1  10220040x       Rx   d 8 10 00 00 00 00 08 00 00  Length = 4318208 BitCount = 148 ID = 270663744x
   4.453478 1  1022E040x       Rx   d 8 10 00 00 00 10 00 00 00  Length = 4258208 BitCount = 146 ID = 270721088x
   4.463473 1  10230040x       Rx   d 8 20 00 00 00 20 00 00 00  Length = 4258208 BitCount = 146 ID = 270729280x
   4.466596 1  106B0040x       Rx   d 1 00  Length = 2308248 BitCount = 81 ID = 275447872x
   4.472839 1  621             Rx   d 8 00 52 00 00 00 00 00 00  Length = 3598216 BitCount = 124 ID = 1569
   4.483466 1  10240040x       Rx   d 8 83 FE 88 01 00 F0 0F FC  Length = 4198208 BitCount = 144 ID = 270794816x
   4.488597 1  106B8040x       Rx   d 8 00 00 00 00 00 00 00 00  Length = 4314558 BitCount = 148 ID = 275480640x
   4.492532 1  102C0040x       Rx   d 5 AE EF 44 59 03  Length = 3298224 BitCount = 114 ID = 271319104x
   4.503546 1  102CA040x       Rx   d 8 00 40 0C B5 21 00 F1 00  Length = 4108212 BitCount = 141 ID = 271360064x
   4.513117 1  10304058x       Rx   d 3 44 59 01  Length = 2728236 BitCount = 95 ID = 271597656x
   4.523471 1  10264040x       Rx   d 8 04 06 00 00 00 00 00 1E  Length = 4198223 BitCount = 144 ID = 270942272x
   4.526384 1  10308060x       Rx   d 3 44 59 01  Length = 2788236 BitCount = 97 ID = 271614048x
   4.529566 1  10448060x       Rx   d 4 00 00 45 00  Length = 3058243 BitCount = 106 ID = 272924768x
   4.533980 1  10210040x       Rx   d 8 00 00 00 00 00 00 00 00  Length = 4288208 BitCount = 147 ID = 270598208x
   4.538455 1  1022A040x       Rx   d 8 00 B0 00 12 42 00 00 22  Length = 4138223 BitCount = 142 ID = 270704704x
   4.543586 1  10220040x       Rx   d 8 10 00 00 00 00 06 00 00  Length = 4284562 BitCount = 147 ID = 270663744x
   4.546467 1  10306099x       Rx   d 3 44 59 01  Length = 2754642 BitCount = 96 ID = 271605913x
   4.550280 1  1022C040x       Rx   d 6 00 10 00 20 00 00  Length = 3688216 BitCount = 127 ID = 270712896x
   4.558536 1  1022E040x       Rx   d 8 30 00 00 00 30 00 00 00  Length = 4288208 BitCount = 147 ID = 270721088x
   4.563549 1  10230040x       Rx   d 8 00 00 00 00 00 00 00 00  Length = 4288208 BitCount = 147 ID = 270729280x
   4.568470 1  102CC040x       Rx   d 8 00 09 CF 66 00 87 06 9A  Length = 4048212 BitCount = 139 ID = 271368256x
   4.573513 1  102CE040x       Rx   d 8 90 00 65 7F 00 00 26 99  Length = 4108212 BitCount = 141 ID = 271376448x
   4.578435 1  102D0040x       Rx   d 8 01 6A 01 ED 7C 2E 00 FF  Length = 4138208 BitCount = 142 ID = 271384640x
   4.583538 1  10240040x       Rx   d 8 83 FE 88 01 00 F0 0F FC  Length = 4198208 BitCount = 144 ID = 270794816x
   4.586569 1  106B0040x       Rx   d 1 00  Length = 2308248 BitCount = 81 ID = 275447872x
   4.592719 1  10806040x       Rx   d 5 00 00 00 00 19  Length = 3414598 BitCount = 118 ID = 276848704x
   4.603525 1  102CA040x       Rx   d 8 00 40 0C A8 21 00 F1 00  Length = 4168223 BitCount = 143 ID = 271360064x
   4.608628 1  10780040x       Rx   d 8 00 00 01 04 08 00 00 22  Length = 4288208 BitCount = 147 ID = 276299840x
   4.612917 1  C800040x        Rx   d 6 08 CB 00 00 79 D8  Length = 3594590 BitCount = 124 ID = 209715264x
   4.618079 1  10788040x       Rx   d 6 08 00 00 00 00 00  Length = 3774582 BitCount = 130 ID = 276332608x
   4.623574 1  10264040x       Rx   d 8 04 06 00 00 00 00 00 2E  Length = 4228208 BitCount = 145 ID = 270942272x
   4.633598 1  10210040x       Rx   d 8 00 00 00 00 00 00 00 00  Length = 4288208 BitCount = 147 ID = 270598208x
   4.643622 1  10220040x       Rx   d 8 10 00 00 00 00 03 00 00  Length = 4318208 BitCount = 148 ID = 270663744x
   4.653527 1  1022E040x       Rx   d 8 10 00 00 00 10 00 00 00  Length = 4258208 BitCount = 146 ID = 270721088x
   4.663523 1  10230040x       Rx   d 8 20 00 00 00 20 00 00 00  Length = 4258208 BitCount = 146 ID = 270729280x
   4.673608 1  1043A040x       Rx   d 8 00 00 2D 00 00 00 00 00  Length = 4288223 BitCount = 147 ID = 272867392x
   4.683570 1  10240040x       Rx   d 8 83 FE 88 01 00 F0 0F FC  Length = 4198208 BitCount = 144 ID = 270794816x
   4.688643 1  106B8040x       Rx   d 8 00 00 00 00 00 00 00 00  Length = 4318208 BitCount = 148 ID = 275480640x
   4.703529 1  102CA040x       Rx   d 8 00 40 0C B7 21 00 F1 00  Length = 4138208 BitCount = 142 ID = 271360064x
   4.706594 1  106B0040x       Rx   d 1 00  Length = 2308248 BitCount = 81 ID = 275447872x
   4.723550 1  10264040x       Rx   d 8 04 06 00 00 00 00 00 2F  Length = 4228208 BitCount = 145 ID = 270942272x
   4.733634 1  10210040x       Rx   d 8 00 00 00 00 00 00 00 00  Length = 4288208 BitCount = 147 ID = 270598208x
   4.743597 1  10220040x       Rx   d 8 10 00 00 00 00 05 00 00  Length = 4288208 BitCount = 147 ID = 270663744x
   4.753593 1  1022E040x       Rx   d 8 30 00 00 00 30 00 00 00  Length = 4288208 BitCount = 147 ID = 270721088x
   4.763588 1  10230040x       Rx   d 8 00 00 00 00 00 00 00 00  Length = 4288208 BitCount = 147 ID = 270729280x
   4.768178 1  13FFE0BBx       Rx   d 0  Length = 2038260 BitCount = 72 ID = 335536315x
   4.783513 1  1022A040x       Rx   d 8 00 B0 00 12 42 00 00 22  Length = 4138208 BitCount = 142 ID = 270704704x
   4.787230 1  10734099x       Rx   d 6 24 44 00 7D 00 00  Length = 3594590 BitCount = 124 ID = 275988633x
   4.791044 1  1022C040x       Rx   d 6 00 10 00 20 00 00  Length = 3688216 BitCount = 127 ID = 270712896x
   4.798548 1  10240040x       Rx   d 8 83 FE 88 01 00 F0 0F FC  Length = 4198223 BitCount = 144 ID = 270794816x
   4.803201 1  10248040x       Rx   d 7 00 00 5F D1 CC D1 00  Length = 3838227 BitCount = 132 ID = 270827584x
   4.807731 1  102C0040x       Rx   d 5 AE EF 44 59 03  Length = 3294606 BitCount = 114 ID = 271319104x
   4.813526 1  102CA040x       Rx   d 8 00 40 0C D3 21 00 F1 00  Length = 4108212 BitCount = 141 ID = 271360064x
   4.818509 1  102CC040x       Rx   d 8 00 09 CF 66 00 87 06 98  Length = 4108212 BitCount = 141 ID = 271368256x
   4.823640 1  10264040x       Rx   d 8 04 06 00 00 00 00 00 20  Length = 4228208 BitCount = 145 ID = 270942272x
   4.828472 1  102CE040x       Rx   d 8 90 00 65 7F 00 00 26 98  Length = 4078212 BitCount = 140 ID = 271376448x
   4.833691 1  10210040x       Rx   d 8 00 00 00 00 00 00 00 00  Length = 4284562 BitCount = 147 ID = 270598208x
   4.836542 1  10304058x       Rx   d 3 44 59 01  Length = 2724642 BitCount = 95 ID = 271597656x
   4.838975 1  106B0040x       Rx   d 1 00  Length = 2308263 BitCount = 81 ID = 275447872x
   4.843687 1  10220040x       Rx   d 8 10 00 00 00 00 04 00 00  Length = 4318208 BitCount = 148 ID = 270663744x
   4.846571 1  10306099x       Rx   d 3 44 59 01  Length = 2758236 BitCount = 96 ID = 271605913x
   4.849293 CAN 1 Status:chip status error active  - TxErr: 0 RxErr: 1
   4.849301 1  ErrorFrame	Flags = 0xfffe	CodeExt = 0x2072	Code = 0x81	ID = 0x90308060	DLC = 3	Position = 80	Length = 2604375	Data = 0x44  0x59  0x1
   4.853856 CAN 1 Status:chip status error active
   4.854074 1  1022E040x       Rx   d 8 10 00 00 00 10 00 00 00  Length = 4258208 BitCount = 146 ID = 270721088x
   4.856991 1  10308060x       Rx   d 3 44 59 01  Length = 2791830 BitCount = 97 ID = 271614048x
   4.861398 1  10780040x       Rx   d 8 00 00 01 04 08 00 00 22  Length = 4284562 BitCount = 147 ID = 276299840x
   4.863623 1  13FFE058x       Rx   d 0  Length = 2098256 BitCount = 74 ID = 335536216x
   4.867972 1  C800040x        Rx   d 6 08 CB 00 00 79 DB  Length = 3594590 BitCount = 124 ID = 209715264x
   4.873587 1  10230040x       Rx   d 8 30 00 00 00 30 00 00 00  Length = 4258208 BitCount = 146 ID = 270729280x
   4.883551 1  10240040x       Rx   d 8 83 FE 88 01 00 F0 0F FC  Length = 4198208 BitCount = 144 ID = 270794816x
   4.888684 1  106B8040x       Rx   d 8 00 00 00 00 00 00 00 00  Length = 4318223 BitCount = 148 ID = 275480640x
   4.903624 1  102CA040x       Rx   d 8 00 40 0C BF 21 00 F1 00  Length = 4104566 BitCount = 141 ID = 271360064x
   4.923703 1  10264040x       Rx   d 8 04 06 00 00 00 00 00 30  Length = 4288208 BitCount = 147 ID = 270942272x
   4.928686 1  1043A040x       Rx   d 8 00 00 2E 00 00 00 00 00  Length = 4318208 BitCount = 148 ID = 272867392x
   4.933699 1  10210040x       Rx   d 8 00 00 00 00 00 00 00 00  Length = 4288208 BitCount = 147 ID = 270598208x
   4.938380 1  1080A040x       Rx   d 7 00 00 00 00 00 00 00  Length = 4018227 BitCount = 138 ID = 276865088x
   4.943662 1  10220040x       Rx   d 8 10 00 00 00 00 06 00 00  Length = 4284573 BitCount = 147 ID = 270663744x
   4.953658 1  1022E040x       Rx   d 8 30 00 00 00 30 00 00 00  Length = 4288223 BitCount = 147 ID = 270721088x
   4.956661 1  106B0040x       Rx   d 1 00  Length = 2308248 BitCount = 81 ID = 275447872x
   4.958855 1  13FFE0AFx       Rx   d 0  Length = 2068260 BitCount = 73 ID = 335536303x
   4.963657 1  10230040x       Rx   d 8 00 00 00 00 00 00 00 00  Length = 4288208 BitCount = 147 ID = 270729280x
   4.983580 1  10240040x       Rx   d 8 83 FE 88 01 00 F0 0F FC  Length = 4194562 BitCount = 144 ID = 270794816x
   5.003565 1  102CA040x       Rx   d 8 00 40 0C CD 21 00 F1 00  Length = 4104581 BitCount = 141 ID = 271360064x
   5.005429 1  Statistic: D 1 R 0 XD 146 XR 0 E 2 O 0 B 58.75%
   5.005429 2  Statistic: D 0 R 0 XD 0 XR 0 E 0 O 0 B 0.00%
   5.005429 3  Statistic: D 0 R 0 XD 0 XR 0 E 0 O 0 B 0.00%
   5.023733 1  10264040x       Rx   d 8 04 06 00 00 00 00 00 2F  Length = 4228208 BitCount = 145 ID = 270942272x
   5.033698 1  10210040x       Rx   d 8 00 00 00 00 00 00 00 00  Length = 4288208 BitCount = 147 ID = 270598208x
   5.038561 1  1022A040x       Rx   d 8 00 B0 00 12 42 00 00 22  Length = 4138208 BitCount = 142 ID = 270704704x
   5.043724 1  10220040x       Rx   d 8 10 00 00 00 00 07 00 00  Length = 4318208 BitCount = 148 ID = 270663744x
   5.048072 1  1022C040x       Rx   d 6 00 10 00 20 00 00  Length = 3684586 BitCount = 127 ID = 270712896x
   5.053656 1  1022E040x       Rx   d 8 10 00 00 00 10 00 00 00  Length = 4258223 BitCount = 146 ID = 270721088x
   5.056990 1  10250040x       Rx   d 2 00 00  Length = 2608240 BitCount = 91 ID = 270860352x
   5.063653 1  10230040x       Rx   d 8 20 00 00 00 20 00 00 00  Length = 4258208 BitCount = 146 ID = 270729280x
   5.068693 1  102CC040x       Rx   d 8 00 09 CF 66 00 87 06 98  Length = 4104566 BitCount = 141 ID = 271368256x
   5.073617 1  102CE040x       Rx   d 8 90 00 65 7F 00 00 26 98  Length = 4078212 BitCount = 140 ID = 271376448x
   5.078571 1  102D0040x       Rx   d 8 01 6A 01 ED 7C 2E 00 FF  Length = 4138223 BitCount = 142 ID = 271384640x
   5.083642 1  10240040x       Rx   d 8 83 FE 88 01 00 F0 0F FC  Length = 4198208 BitCount = 144 ID = 270794816x
   5.088625 1  102E0040x       Rx   d 8 00 33 CA 71 8A 00 64 80  Length = 4138223 BitCount = 142 ID = 271450176x
   5.092676 1  102C0040x       Rx   d 5 AE EF 44 59 03  Length = 3298224 BitCount = 114 ID = 271319104x
   5.097836 1  10466040x       Rx   d 5 00 00 00 00 00  Length = 3444598 BitCount = 119 ID = 273047616x
   5.103571 1  102CA040x       Rx   d 8 00 40 0C D1 21 00 F1 00  Length = 4078227 BitCount = 140 ID = 271360064x
   5.107324 1  108E0080x       Rx   d 6 0E 01 17 02 0B CD  Length = 3628216 BitCount = 125 ID = 277741696x
   5.109757 1  106B0040x       Rx   d 1 00  Length = 2308248 BitCount = 81 ID = 275447872x
   5.112968 1  10304058x       Rx   d 3 44 59 01  Length = 2728251 BitCount = 95 ID = 271597656x
   5.118070 1  C800040x        Rx   d 6 08 CB 00 00 79 DD  Length = 3628216 BitCount = 125 ID = 209715264x
   5.123684 1  10264040x       Rx   d 8 04 06 00 00 00 00 00 2F  Length = 4228208 BitCount = 145 ID = 270942272x
   5.126597 1  10308060x       Rx   d 3 44 59 01  Length = 2788247 BitCount = 97 ID = 271614048x
   5.131041 1  106B8040x       Rx   d 8 00 00 00 00 00 00 00 00  Length = 4318208 BitCount = 148 ID = 275480640x
   5.138727 1  10210040x       Rx   d 8 00 00 00 00 00 00 00 00  Length = 4288208 BitCount = 147 ID = 270598208x
   5.143738 1  10220040x       Rx   d 8 10 00 00 00 00 06 00 00  Length = 4288223 BitCount = 147 ID = 270663744x
   5.146616 1  10306099x       Rx   d 3 44 59 01  Length = 2754642 BitCount = 96 ID = 271605913x
   5.150193 1  106C0040x       Rx   d 5 00 06 0F 07 00  Length = 3451857 BitCount = 119 ID = 275513408x
   5.152415 1  13FFE060x       Rx   d 0  Length = 2098256 BitCount = 74 ID = 335536224x
   5.154607 1  13FFE080x       Rx   d 0  Length = 2068260 BitCount = 73 ID = 335536256x
   5.159016 1  1022E040x       Rx   d 8 30 00 00 00 30 00 00 00  Length = 4284562 BitCount = 147 ID = 270721088x
   5.163701 1  10230040x       Rx   d 8 00 00 00 00 00 00 00 00  Length = 4288208 BitCount = 147 ID = 270729280x
   5.167574 1  1077C040x       Rx   d 4 30 30 01 F4  Length = 3148224 BitCount = 109 ID = 276283456x
   5.173760 1  1043A040x       Rx   d 8 00 00 2F 00 00 00 00 00  Length = 4288208 BitCount = 147 ID = 272867392x
   5.175953 1  13FFE099x       Rx   d 0  Length = 2068260 BitCount = 73 ID = 335536281x
   5.180365 1  10780040x       Rx   d 8 00 00 01 04 08 00 00 22  Length = 4288208 BitCount = 147 ID = 276299840x
   5.188647 1  10240040x       Rx   d 8 83 FE 88 01 00 F0 0F FC  Length = 4198208 BitCount = 144 ID = 270794816x
   5.193267 1  10788040x       Rx   d 6 08 00 00 00 00 00  Length = 3774582 BitCount = 130 ID = 276332608x
   5.197862 1  10806040x       Rx   d 5 00 00 00 00 19  Length = 3418220 BitCount = 118 ID = 276848704x
   5.203655 1  102CA040x       Rx   d 8 00 40 0C D0 21 00 F1 00  Length = 4138208 BitCount = 142 ID = 271360064x
   5.223732 1  10264040x       Rx   d 8 04 06 00 00 00 00 00 20  Length = 4228208 BitCount = 145 ID = 270942272x
   5.226737 1  106B0040x       Rx   d 1 00  Length = 2308248 BitCount = 81 ID = 275447872x
   5.233757 1  10210040x       Rx   d 8 00 00 00 00 00 00 00 00  Length = 4284562 BitCount = 147 ID = 270598208x
   5.243753 1  10220040x       Rx   d 8 10 00 00 00 00 04 00 00  Length = 4318208 BitCount = 148 ID = 270663744x
   5.253657 1  1022E040x       Rx   d 8 10 00 00 00 10 00 00 00  Length = 4258208 BitCount = 146 ID = 270721088x
   5.263682 1  10230040x       Rx   d 8 20 00 00 00 20 00 00 00  Length = 4258208 BitCount = 146 ID = 270729280x
   5.283605 1  1022A040x       Rx   d 8 00 B0 00 12 42 00 00 22  Length = 4134566 BitCount = 142 ID = 270704704x
   5.287326 1  10734099x       Rx   d 6 24 44 00 7D 00 00  Length = 3594590 BitCount = 124 ID = 275988633x
   5.291139 1  1022C040x       Rx   d 6 00 10 00 20 00 00  Length = 3688216 BitCount = 127 ID = 270712896x
   5.298674 1  10240040x       Rx   d 8 83 FE 88 01 00 F0 0F FC  Length = 4198208 BitCount = 144 ID = 270794816x
   5.303295 1  10248040x       Rx   d 7 00 00 5F D1 CC D1 00  Length = 3838212 BitCount = 132 ID = 270827584x
   5.308791 1  102CA040x       Rx   d 8 00 40 0C D2 21 00 F1 00  Length = 4138208 BitCount = 142 ID = 271360064x
   5.313624 1  102CC040x       Rx   d 8 00 09 CF 66 00 87 06 98  Length = 4108212 BitCount = 141 ID = 271368256x
   5.318787 1  106B8040x       Rx   d 8 00 00 00 00 00 00 00 00  Length = 4318208 BitCount = 148 ID = 275480640x
   5.323740 1  10264040x       Rx   d 8 04 06 00 00 00 00 00 2F  Length = 4228208 BitCount = 145 ID = 270942272x
   5.328662 1  102CE040x       Rx   d 8 90 00 65 7F 00 00 26 97  Length = 4138208 BitCount = 142 ID = 271376448x
   5.333791 1  10210040x       Rx   d 8 00 00 00 00 00 00 00 00  Length = 4284562 BitCount = 147 ID = 270598208x
   5.343787 1  10220040x       Rx   d 8 10 00 00 00 00 03 00 00  Length = 4318208 BitCount = 148 ID = 270663744x
   5.346760 1  106B0040x       Rx   d 1 00  Length = 2308248 BitCount = 81 ID = 275447872x
   5.353754 1  1022E040x       Rx   d 8 30 00 00 00 30 00 00 00  Length = 4288208 BitCount = 147 ID = 270721088x
   5.358825 1  10780040x       Rx   d 8 00 00 01 04 08 00 00 22  Length = 4288208 BitCount = 147 ID = 276299840x
   5.363148 1  C800040x        Rx   d 6 08 CB 00 00 79 E0  Length = 3628216 BitCount = 125 ID = 209715264x
   5.368733 1  10230040x       Rx   d 8 00 00 00 00 00 00 00 00  Length = 4288208 BitCount = 147 ID = 270729280x
   5.383709 1  10240040x       Rx   d 8 83 FE 88 01 00 F0 0F FC  Length = 4198208 BitCount = 144 ID = 270794816x
   5.392746 1  102C0040x       Rx   d 5 AE EF 44 59 03  Length = 3298224 BitCount = 114 ID = 271319104x
   5.403760 1  102CA040x       Rx   d 8 00 40 0C AB 21 00 F1 00  Length = 4108212 BitCount = 141 ID = 271360064x
   5.406673 1  10308060x       Rx   d 3 44 59 01  Length = 2788236 BitCount = 97 ID = 271614048x
   5.412884 1  10304058x       Rx   d 3 44 59 01  Length = 2728236 BitCount = 95 ID = 271597656x
   5.423749 1  10264040x       Rx   d 8 04 06 00 00 00 00 00 2F  Length = 4228208 BitCount = 145 ID = 270942272x
   5.428852 1  1043A040x       Rx   d 8 00 00 2C 00 00 00 00 00  Length = 4348208 BitCount = 149 ID = 272867392x
   5.433803 1  10210040x       Rx   d 8 00 00 00 00 00 00 00 00  Length = 4288208 BitCount = 147 ID = 270598208x
   5.443798 1  10220040x       Rx   d 8 10 00 00 00 00 05 00 00  Length = 4288208 BitCount = 147 ID = 270663744x
   5.446676 1  10306099x       Rx   d 3 44 59 01  Length = 2754657 BitCount = 96 ID = 271605913x
   5.453726 1  1022E040x       Rx   d 8 10 00 00 00 10 00 00 00  Length = 4254562 BitCount = 146 ID = 270721088x
   5.463753 1  10230040x       Rx   d 8 20 00 00 00 20 00 00 00  Length = 4258223 BitCount = 146 ID = 270729280x
   5.466906 1  106B0040x       Rx   d 1 00  Length = 2308263 BitCount = 81 ID = 275447872x
   5.473113 1  621             Rx   d 8 00 52 00 00 00 00 00 00  Length = 3594590 BitCount = 124 ID = 1569
   5.483709 1  10240040x       Rx   d 8 83 FE 88 01 00 F0 0F FC  Length = 4198208 BitCount = 144 ID = 270794816x
   5.488841 1  106B8040x       Rx   d 8 00 00 00 00 00 00 00 00  Length = 4314558 BitCount = 148 ID = 275480640x
   5.491542 1  13FFE040x       Rx   d 0  Length = 2064714 BitCount = 73 ID = 335536192x
   5.503567 CAN 1 Status:chip status error active  - TxErr: 0 RxErr: 1
   5.503575 1  ErrorFrame	Flags = 0xfffe	CodeExt = 0x2072	Code = 0x81	ID = 0x902ca040	DLC = 8	Position = 120	Length = 3924375	Data = 0  0x40  0xc  0xa7  0x21  0  0xf1  0
   5.507976 CAN 1 Status:chip status error active
   5.508194 1  102CA040x       Rx   d 8 00 40 0C A7 21 00 F1 00  Length = 4104581 BitCount = 141 ID = 271360064x
   5.521545 1  13FFE068x       Rx   d 0  Length = 2064714 BitCount = 73 ID = 335536232x
   5.525866 1  10264040x       Rx   d 8 04 06 00 00 00 00 00 1E  Length = 4194577 BitCount = 144 ID = 270942272x
   5.529050 1  10448060x       Rx   d 4 00 00 45 00  Length = 3058228 BitCount = 106 ID = 272924768x
   5.533822 1  10210040x       Rx   d 8 00 00 00 00 00 00 00 00  Length = 4288208 BitCount = 147 ID = 270598208x
   5.536522 1  106D0080x       Rx   d 2 00 00  Length = 2574658 BitCount = 90 ID = 275579008x
   5.540785 1  1022A040x       Rx   d 8 00 B0 00 12 42 00 00 22  Length = 4138208 BitCount = 142 ID = 270704704x
   5.548823 1  10220040x       Rx   d 8 10 00 00 00 00 06 00 00  Length = 4284562 BitCount = 147 ID = 270663744x
   5.553208 1  1022C040x       Rx   d 6 00 10 00 20 00 00  Length = 3688216 BitCount = 127 ID = 270712896x
   5.558794 1  1022E040x       Rx   d 8 30 00 00 00 30 00 00 00  Length = 4288208 BitCount = 147 ID = 270721088x
   5.563807 1  10230040x       Rx   d 8 00 00 00 00 00 00 00 00  Length = 4288208 BitCount = 147 ID = 270729280x
   5.568700 1  102CC040x       Rx   d 8 00 09 CF 66 00 87 06 9B  Length = 4048212 BitCount = 139 ID = 271368256x
   5.573740 1  102CE040x       Rx   d 8 90 00 65 7F 00 00 26 99  Length = 4104566 BitCount = 141 ID = 271376448x
   5.578695 1  102D0040x       Rx   d 8 01 6A 01 ED 7C 2E 00 FF  Length = 4138223 BitCount = 142 ID = 271384640x
   5.583824 1  10240040x       Rx   d 8 83 FF 88 01 00 F0 0F FC  Length = 4224562 BitCount = 145 ID = 270794816x
   5.586799 1  106B0040x       Rx   d 1 00  Length = 2308248 BitCount = 81 ID = 275447872x
   5.592948 1  10806040x       Rx   d 5 00 00 00 00 19  Length = 3414598 BitCount = 118 ID = 276848704x
   5.603695 1  102CA040x       Rx   d 8 00 40 0C BB 21 00 F1 00  Length = 4108212 BitCount = 141 ID = 271360064x
   5.608888 1  10780040x       Rx   d 8 00 00 01 04 08 00 00 22  Length = 4288208 BitCount = 147 ID = 276299840x
   5.613205 1  C800040x        Rx   d 6 08 CB 00 00 79 E2  Length = 3624586 BitCount = 125 ID = 209715264x
   5.618340 1  10788040x       Rx   d 6 08 00 00 00 00 00  Length = 3778216 BitCount = 130 ID = 276332608x
   5.623610 CAN 1 Status:chip status error active  - TxErr: 0 RxErr: 1
   5.623618 1  ErrorFrame	Flags = 0xfffe	CodeExt = 0x2072	Code = 0x81	ID = 0x90264040	DLC = 8	Position = 120	Length = 4014375	Data = 0x4  0x6  0  0  0  0  0  0x2d
   5.628109 CAN 1 Status:chip status error active
   5.628327 1  10264040x       Rx   d 8 04 06 00 00 00 00 00 2D  Length = 4194562 BitCount = 144 ID = 270942272x
   5.633852 1  10210040x       Rx   d 8 00 00 00 00 00 00 00 00  Length = 4288208 BitCount = 147 ID = 270598208x
   5.643816 1  10220040x       Rx   d 8 10 00 00 00 00 06 00 00  Length = 4288208 BitCount = 147 ID = 270663744x
   5.653783 1  1022E040x       Rx   d 8 10 00 00 00 10 00 00 00  Length = 4258208 BitCount = 146 ID = 270721088x
   5.657591 1  10324058x       Rx   d 6 00 00 03 FF 00 00  Length = 3684597 BitCount = 127 ID = 271728728x
   5.663775 1  10230040x       Rx   d 8 20 00 00 00 20 00 00 00  Length = 4258208 BitCount = 146 ID = 270729280x
   5.673982 1  1043A040x       Rx   d 8 00 00 2C 00 00 00 00 00  Length = 4348208 BitCount = 149 ID = 272867392x
   5.683884 1  10240040x       Rx   d 8 83 FE 88 01 00 F0 0F FC  Length = 4198223 BitCount = 144 ID = 270794816x
   5.688897 1  106B8040x       Rx   d 8 00 00 00 00 00 00 00 00  Length = 4318208 BitCount = 148 ID = 275480640x
   5.692831 1  102C0040x       Rx   d 5 AE EF 44 59 03  Length = 3298224 BitCount = 114 ID = 271319104x
   5.703725 1  102CA040x       Rx   d 8 00 40 0C B8 21 00 F1 00  Length = 4108212 BitCount = 141 ID = 271360064x
   5.706848 1  106B0040x       Rx   d 1 00  Length = 2308248 BitCount = 81 ID = 275447872x
   5.712819 1  10304058x       Rx   d 3 44 59 01  Length = 2728236 BitCount = 95 ID = 271597656x
   5.723864 1  10264040x       Rx   d 8 04 06 00 00 00 00 00 2D  Length = 4198208 BitCount = 144 ID = 270942272x
   5.726777 1  10308060x       Rx   d 3 44 59 01  Length = 2788236 BitCount = 97 ID = 271614048x
   5.733857 1  10210040x       Rx   d 8 00 00 00 00 00 00 00 00  Length = 4284562 BitCount = 147 ID = 270598208x
   5.743883 1  10220040x       Rx   d 8 10 00 00 00 00 07 00 00  Length = 4318208 BitCount = 148 ID = 270663744x
   5.746760 1  10306099x       Rx   d 3 44 59 01  Length = 2754642 BitCount = 96 ID = 271605913x
   5.753815 1  1022E040x       Rx   d 8 30 00 00 00 30 00 00 00  Length = 4288208 BitCount = 147 ID = 270721088x
   5.763842 1  10230040x       Rx   d 8 00 00 00 00 00 00 00 00  Length = 4288208 BitCount = 147 ID = 270729280x
   5.783735 1  1022A040x       Rx   d 8 00 B0 00 12 42 00 00 22  Length = 4134566 BitCount = 142 ID = 270704704x
   5.787455 1  10734099x       Rx   d 6 24 44 00 7D 00 00  Length = 3594590 BitCount = 124 ID = 275988633x
