date Tue Sep 20 04:09:51.889 pm 2016
base hex  timestamps absolute
internal events logged
// version 9.0.0
Begin Triggerblock Tue Sep 20 04:09:51.889 pm 2016
   0.000000 Start of measurement
   0.002239 Li SleepModeEvent 0 starting up in wake mode
   0.002261 CAN 2 Status:chip status error active
   0.012528 1  10210040x       Rx   d 8 00 00 00 00 00 00 00 00  Length = 4288223 BitCount = 147 ID = 270598208x
   0.015501 1  106B0040x       Rx   d 1 00  Length = 2308263 BitCount = 81 ID = 275447872x
   0.019251 1  624             Rx   d 8 00 20 00 00 00 00 00 00  Length = 3624586 BitCount = 125 ID = 1572
   0.023695 1  10220040x       Rx   d 8 10 00 00 00 00 07 00 00  Length = 4318208 BitCount = 148 ID = 270663744x
   0.032580 1  1022E040x       Rx   d 8 00 00 00 00 00 00 00 00  Length = 4318208 BitCount = 148 ID = 270721088x
   0.037684 1  10780040x       Rx   d 8 00 00 01 04 08 00 00 22  Length = 4288208 BitCount = 147 ID = 276299840x
   0.042457 1  10230040x       Rx   d 8 10 00 00 00 10 00 00 00  Length = 4258208 BitCount = 146 ID = 270729280x
   0.047080 1  10788040x       Rx   d 6 08 00 00 00 00 00  Length = 3778231 BitCount = 130 ID = 276332608x
   0.052261 CAN 1 Status:chip status error active
   0.052261 CAN 3 Status:chip status error active
   0.052664 1  1043A040x       Rx   d 8 00 00 34 00 00 00 00 00  Length = 4288208 BitCount = 147 ID = 272867392x
   0.062450 1  10240040x       Rx   d 8 83 FE 88 01 00 F0 0F FC  Length = 4198208 BitCount = 144 ID = 270794816x
   0.067583 1  106B8040x       Rx   d 8 00 00 00 00 00 00 00 00  Length = 4318208 BitCount = 148 ID = 275480640x
   0.079854 1  13FFE0AFx       Rx   d 0  Length = 2068275 BitCount = 73 ID = 335536303x
   0.084117 1  102CA040x       Rx   d 8 00 40 0C A4 28 00 F1 00  Length = 4138208 BitCount = 142 ID = 271360064x
   0.102512 1  10264040x       Rx   d 8 04 06 00 00 00 00 00 37  Length = 4258208 BitCount = 146 ID = 270942272x
   0.112568 1  10210040x       Rx   d 8 00 00 00 00 00 00 00 00  Length = 4288208 BitCount = 147 ID = 270598208x
   0.122623 1  10220040x       Rx   d 8 10 00 00 00 00 08 00 00  Length = 4318223 BitCount = 148 ID = 270663744x
   0.129250 1  10734099x       Rx   d 6 24 46 00 7D 00 00  Length = 3564590 BitCount = 123 ID = 275988633x
   0.133663 1  1022E040x       Rx   d 8 20 00 00 00 20 00 00 00  Length = 4288208 BitCount = 147 ID = 270721088x
   0.142550 1  10230040x       Rx   d 8 30 00 00 00 30 00 00 00  Length = 4258208 BitCount = 146 ID = 270729280x
   0.145525 1  106B0040x       Rx   d 1 00  Length = 2308248 BitCount = 81 ID = 275447872x
   0.162421 1  1022A040x       Rx   d 8 00 B0 00 12 42 00 00 22  Length = 4138208 BitCount = 142 ID = 270704704x
   0.166920 1  1022C040x       Rx   d 6 00 10 00 20 00 00  Length = 3684586 BitCount = 127 ID = 270712896x
   0.172655 1  10240040x       Rx   d 8 83 FF 88 01 00 F0 0F FC  Length = 4228223 BitCount = 145 ID = 270794816x
   0.182139 1  10248040x       Rx   d 7 00 00 60 CD CC FE 00  Length = 3898212 BitCount = 134 ID = 270827584x
   0.187451 1  102CA040x       Rx   d 8 00 40 0C B1 28 00 F1 00  Length = 4134566 BitCount = 142 ID = 271360064x
   0.192436 1  102CC040x       Rx   d 8 00 09 CF 66 00 87 06 A6  Length = 4048212 BitCount = 139 ID = 271368256x
   0.202518 1  10264040x       Rx   d 8 04 06 00 00 00 00 00 24  Length = 4228208 BitCount = 145 ID = 270942272x
   0.207412 1  102CE040x       Rx   d 8 90 00 64 7F 00 00 26 A4  Length = 4108212 BitCount = 141 ID = 271376448x
   0.212571 1  10210040x       Rx   d 8 00 00 00 00 00 00 00 00  Length = 4284562 BitCount = 147 ID = 270598208x
   0.218752 1  10814099x       Rx   d 4 20 44 2E 00  Length = 3054633 BitCount = 106 ID = 276906137x
   0.223192 1  10220040x       Rx   d 8 10 00 00 00 00 03 00 00  Length = 4314558 BitCount = 148 ID = 270663744x
   0.232648 1  1022E040x       Rx   d 8 00 00 00 00 00 00 00 00  Length = 4318208 BitCount = 148 ID = 270721088x
   0.237629 1  10780040x       Rx   d 8 00 00 01 04 08 00 00 22  Length = 4288208 BitCount = 147 ID = 276299840x
   0.239601 CAN 1 Status:chip status error active  - TxErr: 0 RxErr: 1
   0.239608 1  ErrorFrame	Flags = 0xfffe	CodeExt = 0x2072	Code = 0x81	ID = 0x93ffe0bb	DLC = 0	Position = 56	Length = 1854390
   0.243532 CAN 1 Status:chip status error active
   0.243749 1  C800040x        Rx   d 6 08 CB 00 00 7E D2  Length = 3628216 BitCount = 125 ID = 209715264x
   0.245909 1  13FFE0BBx       Rx   d 0  Length = 2034733 BitCount = 72 ID = 335536315x
   0.249568 1  10734099x       Rx   d 6 24 45 00 7D 00 00  Length = 3534590 BitCount = 122 ID = 275988633x
   0.253951 1  10230040x       Rx   d 8 20 00 00 00 20 00 00 00  Length = 4258208 BitCount = 146 ID = 270729280x
   0.262534 1  10240040x       Rx   d 8 83 FF 88 01 00 F0 0F FC  Length = 4224577 BitCount = 145 ID = 270794816x
   0.265568 1  106B0040x       Rx   d 1 00  Length = 2308248 BitCount = 81 ID = 275447872x
   0.271572 1  102C0040x       Rx   d 5 AE EF 44 59 03  Length = 3298224 BitCount = 114 ID = 271319104x
   0.277603 1  106B8040x       Rx   d 8 00 00 00 00 00 00 00 00  Length = 4318208 BitCount = 148 ID = 275480640x
   0.282494 1  102CA040x       Rx   d 8 00 40 0C A8 28 00 F1 00  Length = 4138208 BitCount = 142 ID = 271360064x
   0.288406 1  10306099x       Rx   d 3 44 59 01  Length = 2758236 BitCount = 96 ID = 271605913x
   0.290629 1  13FFE060x       Rx   d 0  Length = 2098256 BitCount = 74 ID = 335536224x
   0.295702 1  10304058x       Rx   d 3 44 59 01  Length = 2728236 BitCount = 95 ID = 271597656x
   0.297895 1  13FFE080x       Rx   d 0  Length = 2068260 BitCount = 73 ID = 335536256x
   0.302547 1  10264040x       Rx   d 8 04 06 00 00 00 00 00 37  Length = 4258223 BitCount = 146 ID = 270942272x
   0.307589 1  1043A040x       Rx   d 8 00 00 35 00 00 00 00 00  Length = 4284562 BitCount = 147 ID = 272867392x
   0.310594 1  10308060x       Rx   d 3 44 59 01  Length = 2788236 BitCount = 97 ID = 271614048x
   0.315002 1  10210040x       Rx   d 8 00 00 00 00 00 00 00 00  Length = 4284562 BitCount = 147 ID = 270598208x
   0.317763 1  13FFE099x       Rx   d 0  Length = 2064729 BitCount = 73 ID = 335536281x
   0.322658 1  10220040x       Rx   d 8 10 00 00 00 00 06 00 00  Length = 4288208 BitCount = 147 ID = 270663744x
   0.327309 1  1080A040x       Rx   d 7 00 00 00 00 00 00 00  Length = 4018212 BitCount = 138 ID = 276865088x
   0.331000 1  631             Rx   d 8 00 40 00 00 00 00 00 00  Length = 3564590 BitCount = 123 ID = 1585
   0.335409 1  1022E040x       Rx   d 8 20 00 00 00 20 00 00 00  Length = 4284562 BitCount = 147 ID = 270721088x
   0.341354 1  62C             Rx   d 8 00 40 00 00 00 00 00 00  Length = 3628216 BitCount = 125 ID = 1580
   0.345732 1  10230040x       Rx   d 8 30 00 00 00 30 00 00 00  Length = 4254562 BitCount = 146 ID = 270729280x
   0.359235 1  10734099x       Rx   d 6 24 46 00 7D 00 00  Length = 3568216 BitCount = 123 ID = 275988633x
   0.363586 1  10240040x       Rx   d 8 83 FF 88 01 00 F0 0F FC  Length = 4228223 BitCount = 145 ID = 270794816x
   0.382461 1  102CA040x       Rx   d 8 00 40 0C A1 28 00 F1 00  Length = 4108212 BitCount = 141 ID = 271360064x
   0.385584 1  106B0040x       Rx   d 1 00  Length = 2308248 BitCount = 81 ID = 275447872x
   0.402570 1  10264040x       Rx   d 8 04 06 00 00 00 00 00 37  Length = 4258208 BitCount = 146 ID = 270942272x
   0.412622 1  10210040x       Rx   d 8 00 00 00 00 00 00 00 00  Length = 4288208 BitCount = 147 ID = 270598208x
   0.417485 1  1022A040x       Rx   d 8 00 B0 00 12 42 00 00 22  Length = 4138208 BitCount = 142 ID = 270704704x
   0.422705 1  10220040x       Rx   d 8 10 00 00 00 00 04 00 00  Length = 4314558 BitCount = 148 ID = 270663744x
   0.426996 1  1022C040x       Rx   d 6 00 10 00 20 00 00  Length = 3684586 BitCount = 127 ID = 270712896x
   0.432701 1  1022E040x       Rx   d 8 00 00 00 00 00 00 00 00  Length = 4318208 BitCount = 148 ID = 270721088x
   0.435914 1  10250040x       Rx   d 2 00 03  Length = 2608240 BitCount = 91 ID = 270860352x
   0.442608 1  10230040x       Rx   d 8 10 00 00 00 10 00 00 00  Length = 4258208 BitCount = 146 ID = 270729280x
   0.447529 1  102CC040x       Rx   d 8 00 09 CF 66 00 87 06 A5  Length = 4078212 BitCount = 140 ID = 271368256x
   0.451253 1  108E0080x       Rx   d 6 0E 01 17 02 0C 58  Length = 3598216 BitCount = 124 ID = 277741696x
   0.455483 1  102CE040x       Rx   d 8 90 00 64 7F 00 00 26 A4  Length = 4104566 BitCount = 141 ID = 271376448x
   0.462598 1  10240040x       Rx   d 8 83 FF 88 01 00 F0 0F FC  Length = 4228208 BitCount = 145 ID = 270794816x
   0.467464 1  102D0040x       Rx   d 8 01 6A 01 ED 7C 82 00 FF  Length = 4108212 BitCount = 141 ID = 271384640x
   0.471122 1  10734099x       Rx   d 6 24 45 00 7D 00 00  Length = 3534590 BitCount = 122 ID = 275988633x
   0.475386 1  102E0040x       Rx   d 8 00 33 CA 71 8A 00 64 80  Length = 4138208 BitCount = 142 ID = 271450176x
   0.482554 1  102CA040x       Rx   d 8 00 40 0C A1 29 00 F1 00  Length = 4134566 BitCount = 142 ID = 271360064x
   0.487655 1  106B8040x       Rx   d 8 00 00 00 00 00 00 00 00  Length = 4314573 BitCount = 148 ID = 275480640x
   0.492006 1  C800040x        Rx   d 6 08 CB 00 00 7E D5  Length = 3624601 BitCount = 125 ID = 209715264x
   0.496751 1  106C0040x       Rx   d 5 00 06 0F 07 00  Length = 3448235 BitCount = 119 ID = 275513408x
   0.502604 1  10264040x       Rx   d 8 04 06 00 00 00 00 00 37  Length = 4258208 BitCount = 146 ID = 270942272x
   0.505606 1  106B0040x       Rx   d 1 00  Length = 2308248 BitCount = 81 ID = 275447872x
   0.512661 1  10210040x       Rx   d 8 00 00 00 00 00 00 00 00  Length = 4288208 BitCount = 147 ID = 270598208x
   0.516476 1  1077C040x       Rx   d 4 30 30 01 F4  Length = 3148224 BitCount = 109 ID = 276283456x
   0.522686 1  10220040x       Rx   d 8 10 00 00 00 00 04 00 00  Length = 4314558 BitCount = 148 ID = 270663744x
   0.527700 1  10780040x       Rx   d 8 00 00 01 04 08 00 00 22  Length = 4288208 BitCount = 147 ID = 276299840x
   0.532622 1  1022E040x       Rx   d 8 20 00 00 00 20 00 00 00  Length = 4288208 BitCount = 147 ID = 270721088x
   0.537125 1  10788040x       Rx   d 6 08 00 00 00 00 00  Length = 3778216 BitCount = 130 ID = 276332608x
   0.542590 1  10230040x       Rx   d 8 30 00 00 00 30 00 00 00  Length = 4258208 BitCount = 146 ID = 270729280x
   0.546882 1  10806040x       Rx   d 5 00 00 00 00 19  Length = 3414598 BitCount = 118 ID = 276848704x
   0.552737 1  1043A040x       Rx   d 8 00 00 34 00 00 00 00 00  Length = 4288223 BitCount = 147 ID = 272867392x
   0.562609 1  10240040x       Rx   d 8 83 FF 88 01 00 F0 0F FC  Length = 4228208 BitCount = 145 ID = 270794816x
   0.571616 1  102C0040x       Rx   d 5 AE EF 44 59 03  Length = 3298224 BitCount = 114 ID = 271319104x
   0.579237 1  10734099x       Rx   d 6 24 46 00 7D 00 00  Length = 3568216 BitCount = 123 ID = 275988633x
   0.583470 1  102CA040x       Rx   d 8 00 40 0C 8E 29 00 F1 00  Length = 4108223 BitCount = 141 ID = 271360064x
   0.588423 1  10306099x       Rx   d 3 44 59 01  Length = 2758251 BitCount = 96 ID = 271605913x
   0.591335 1  10308060x       Rx   d 3 44 59 01  Length = 2788247 BitCount = 97 ID = 271614048x
   0.595627 1  10304058x       Rx   d 3 44 59 01  Length = 2728236 BitCount = 95 ID = 271597656x
   0.602587 1  10264040x       Rx   d 8 04 06 00 00 00 00 00 24  Length = 4224562 BitCount = 145 ID = 270942272x
   0.612643 1  10210040x       Rx   d 8 00 00 00 00 00 00 00 00  Length = 4288208 BitCount = 147 ID = 270598208x
   0.622668 1  10220040x       Rx   d 8 10 00 00 00 00 05 00 00  Length = 4288208 BitCount = 147 ID = 270663744x
   0.625641 1  106B0040x       Rx   d 1 00  Length = 2308248 BitCount = 81 ID = 275447872x
   0.632503 CAN 1 Status:chip status error active  - TxErr: 0 RxErr: 1
   0.632511 1  ErrorFrame	Flags = 0xfffe	CodeExt = 0x2072	Code = 0x81	ID = 0x9022e040	DLC = 8	Position = 120	Length = 4134390	Data = 0  0  0  0  0  0  0  0
   0.637122 CAN 1 Status:chip status error active
   0.637340 1  1022E040x       Rx   d 8 00 00 00 00 00 00 00 00  Length = 4314558 BitCount = 148 ID = 270721088x
   0.642595 1  10230040x       Rx   d 8 10 00 00 00 10 00 00 00  Length = 4258223 BitCount = 146 ID = 270729280x
   0.662520 1  1022A040x       Rx   d 8 00 B0 00 12 42 00 00 22  Length = 4134581 BitCount = 142 ID = 270704704x
   0.667055 1  1022C040x       Rx   d 6 00 10 00 20 00 00  Length = 3688216 BitCount = 127 ID = 270712896x
   0.669248 1  13FFE068x       Rx   d 0  Length = 2068260 BitCount = 73 ID = 335536232x
   0.673603 1  10240040x       Rx   d 8 83 FF 88 01 00 F0 0F FC  Length = 4228208 BitCount = 145 ID = 270794816x
   0.677718 1  106D0080x       Rx   d 2 00 00  Length = 2578240 BitCount = 90 ID = 275579008x
   0.682215 1  10248040x       Rx   d 7 00 00 61 CD CC FE 00  Length = 3834578 BitCount = 132 ID = 270827584x
   0.687526 1  102CA040x       Rx   d 8 00 40 0C A9 29 00 F1 00  Length = 4074581 BitCount = 140 ID = 271360064x
   0.691215 1  10734099x       Rx   d 6 24 46 00 7D 00 00  Length = 3564590 BitCount = 123 ID = 275988633x
   0.695420 1  102CC040x       Rx   d 8 00 09 CF 66 00 87 06 A5  Length = 4078212 BitCount = 140 ID = 271368256x
   0.702682 1  10264040x       Rx   d 8 04 06 00 00 00 00 00 37  Length = 4258223 BitCount = 146 ID = 270942272x
   0.707547 1  102CE040x       Rx   d 8 90 00 64 7F 00 00 26 A4  Length = 4108212 BitCount = 141 ID = 271376448x
   0.712706 1  10210040x       Rx   d 8 00 00 00 00 00 00 00 00  Length = 4284573 BitCount = 147 ID = 270598208x
   0.717721 1  106B8040x       Rx   d 8 00 00 00 00 00 00 00 00  Length = 4318208 BitCount = 148 ID = 275480640x
   0.722703 1  10220040x       Rx   d 8 10 00 00 00 00 08 00 00  Length = 4318223 BitCount = 148 ID = 270663744x
   0.725406 1  13FFE040x       Rx   d 0  Length = 2068275 BitCount = 73 ID = 335536192x
   0.732791 1  1022E040x       Rx   d 8 20 00 00 00 20 00 00 00  Length = 4288223 BitCount = 147 ID = 270721088x
   0.737804 1  10780040x       Rx   d 8 00 00 01 04 08 00 00 22  Length = 4288208 BitCount = 147 ID = 276299840x
   0.742095 1  C800040x        Rx   d 6 08 CB 00 00 7E D8  Length = 3628216 BitCount = 125 ID = 209715264x
   0.747425 CAN 1 Status:chip status error active  - TxErr: 0 RxErr: 1
   0.747433 1  ErrorFrame	Flags = 0xfffe	CodeExt = 0x2072	Code = 0x81	ID = 0x90230040	DLC = 8	Position = 120	Length = 4074375	Data = 0x30  0  0  0  0x30  0  0  0
   0.751985 CAN 1 Status:chip status error active
   0.752202 1  10230040x       Rx   d 8 30 00 00 00 30 00 00 00  Length = 4254562 BitCount = 146 ID = 270729280x
   0.755687 1  106B0040x       Rx   d 1 00  Length = 2308263 BitCount = 81 ID = 275447872x
   0.762649 1  10240040x       Rx   d 8 83 FF 88 01 00 F0 0F FC  Length = 4224577 BitCount = 145 ID = 270794816x
   0.782604 1  102CA040x       Rx   d 8 00 40 0C C0 29 00 F1 00  Length = 4134566 BitCount = 142 ID = 271360064x
   0.802682 1  10264040x       Rx   d 8 04 06 00 00 00 00 00 38  Length = 4258208 BitCount = 146 ID = 270942272x
   0.807695 1  1043A040x       Rx   d 8 00 00 33 00 00 00 00 00  Length = 4288208 BitCount = 147 ID = 272867392x
   0.812739 1  10210040x       Rx   d 8 00 00 00 00 00 00 00 00  Length = 4288208 BitCount = 147 ID = 270598208x
   0.822761 1  10220040x       Rx   d 8 10 00 00 00 00 05 00 00  Length = 4288208 BitCount = 147 ID = 270663744x
   0.826694 1  10708040x       Rx   d 5 02 25 02 25 39  Length = 3298224 BitCount = 114 ID = 275808320x
   0.832788 1  1022E040x       Rx   d 8 00 00 00 00 00 00 00 00  Length = 4318208 BitCount = 148 ID = 270721088x
   0.842720 1  10230040x       Rx   d 8 10 00 00 00 10 00 00 00  Length = 4258208 BitCount = 146 ID = 270729280x
   0.862673 1  10240040x       Rx   d 8 83 FF 88 01 00 F0 0F FC  Length = 4224562 BitCount = 145 ID = 270794816x
   0.867748 1  106B8040x       Rx   d 8 00 00 00 00 00 00 00 00  Length = 4318208 BitCount = 148 ID = 275480640x
   0.870931 1  10448060x       Rx   d 4 00 00 45 00  Length = 3058228 BitCount = 106 ID = 272924768x
   0.874348 1  102C0040x       Rx   d 5 AE EF 44 59 03  Length = 3294606 BitCount = 114 ID = 271319104x
   0.882604 1  102CA040x       Rx   d 8 00 40 0C AF 29 00 F1 00  Length = 4108212 BitCount = 141 ID = 271360064x
   0.885697 1  106B0040x       Rx   d 1 00  Length = 2308248 BitCount = 81 ID = 275447872x
   0.888581 1  10306099x       Rx   d 3 44 59 01  Length = 2758251 BitCount = 96 ID = 271605913x
   0.892304 1  621             Rx   d 8 00 52 00 00 00 00 00 00  Length = 3598216 BitCount = 124 ID = 1569
   0.895459 1  10304058x       Rx   d 3 44 59 01  Length = 2728236 BitCount = 95 ID = 271597656x
   0.902663 1  10264040x       Rx   d 8 04 06 00 00 00 00 00 26  Length = 4228208 BitCount = 145 ID = 270942272x
   0.910523 1  10308060x       Rx   d 3 44 59 01  Length = 2784638 BitCount = 97 ID = 271614048x
   0.914934 1  10210040x       Rx   d 8 00 00 00 00 00 00 00 00  Length = 4284573 BitCount = 147 ID = 270598208x
   0.922860 1  10220040x       Rx   d 8 10 00 00 00 00 04 00 00  Length = 4318208 BitCount = 148 ID = 270663744x
   0.927605 1  1022A040x       Rx   d 8 00 B0 00 12 42 00 00 22  Length = 4138208 BitCount = 142 ID = 270704704x
   0.932138 1  1022C040x       Rx   d 6 00 10 00 20 00 00  Length = 3688231 BitCount = 127 ID = 270712896x
   0.937694 1  1022E040x       Rx   d 8 20 00 00 00 20 00 00 00  Length = 4288208 BitCount = 147 ID = 270721088x
   0.942767 1  10230040x       Rx   d 8 30 00 00 00 30 00 00 00  Length = 4258208 BitCount = 146 ID = 270729280x
   0.947628 1  102CC040x       Rx   d 8 00 09 CF 66 00 87 06 A4  Length = 4048212 BitCount = 139 ID = 271368256x
   0.952641 1  102CE040x       Rx   d 8 90 00 64 7F 00 00 26 A4  Length = 4108212 BitCount = 141 ID = 271376448x
   0.957594 1  102D0040x       Rx   d 8 01 6A 01 ED 7C 83 00 FF  Length = 4138208 BitCount = 142 ID = 271384640x
   0.962726 1  10240040x       Rx   d 8 83 FF 88 01 00 F0 0F FC  Length = 4228208 BitCount = 145 ID = 270794816x
   0.971850 1  10806040x       Rx   d 5 00 00 00 00 19  Length = 3418220 BitCount = 118 ID = 276848704x
   0.982625 1  102CA040x       Rx   d 8 00 40 0C B7 29 00 F1 00  Length = 4108223 BitCount = 141 ID = 271360064x
   0.987784 1  10780040x       Rx   d 8 00 00 01 04 08 00 00 22  Length = 4284562 BitCount = 147 ID = 276299840x
   0.992259 1  C800040x        Rx   d 6 08 CB 00 00 7E DA  Length = 3658216 BitCount = 126 ID = 209715264x
   0.997244 1  10788040x       Rx   d 6 08 00 00 00 00 00  Length = 3778216 BitCount = 130 ID = 276332608x
   1.002261 1  Statistic: D 4 R 0 XD 155 XR 0 E 3 O 0 B 63.89%
   1.002261 2  Statistic: D 0 R 0 XD 0 XR 0 E 0 O 0 B 0.00%
   1.002261 3  Statistic: D 0 R 0 XD 0 XR 0 E 0 O 0 B 0.00%
   1.002708 1  10264040x       Rx   d 8 04 06 00 00 00 00 00 39  Length = 4228208 BitCount = 145 ID = 270942272x
   1.005741 1  106B0040x       Rx   d 1 00  Length = 2308263 BitCount = 81 ID = 275447872x
   1.012790 1  10210040x       Rx   d 8 00 00 00 00 00 00 00 00  Length = 4284562 BitCount = 147 ID = 270598208x
   1.022876 1  10220040x       Rx   d 8 10 00 00 00 00 04 00 00  Length = 4318208 BitCount = 148 ID = 270663744x
   1.032811 1  1022E040x       Rx   d 8 00 00 00 00 00 00 00 00  Length = 4318208 BitCount = 148 ID = 270721088x
   1.042685 1  10230040x       Rx   d 8 10 00 00 00 10 00 00 00  Length = 4258208 BitCount = 146 ID = 270729280x
   1.049195 1  10734099x       Rx   d 6 24 45 00 7D 00 00  Length = 3534590 BitCount = 122 ID = 275988633x
   1.053604 1  1043A040x       Rx   d 8 00 00 34 00 00 00 00 00  Length = 4284562 BitCount = 147 ID = 272867392x
   1.062730 1  10240040x       Rx   d 8 83 FF 88 01 00 F0 0F FC  Length = 4228208 BitCount = 145 ID = 270794816x
   1.067804 1  106B8040x       Rx   d 8 00 00 00 00 00 00 00 00  Length = 4318223 BitCount = 148 ID = 275480640x
   1.082624 1  102CA040x       Rx   d 8 00 40 0C C4 29 00 F1 00  Length = 4074566 BitCount = 140 ID = 271360064x
   1.102792 1  10264040x       Rx   d 8 04 06 00 00 00 00 00 39  Length = 4228223 BitCount = 145 ID = 270942272x
   1.112787 1  10210040x       Rx   d 8 00 00 00 00 00 00 00 00  Length = 4288223 BitCount = 147 ID = 270598208x
   1.122841 1  10220040x       Rx   d 8 10 00 00 00 00 05 00 00  Length = 4288208 BitCount = 147 ID = 270663744x
   1.125754 1  106B0040x       Rx   d 1 00  Length = 2308248 BitCount = 81 ID = 275447872x
   1.132840 1  1022E040x       Rx   d 8 20 00 00 00 20 00 00 00  Length = 4288208 BitCount = 147 ID = 270721088x
   1.142716 1  10230040x       Rx   d 8 30 00 00 00 30 00 00 00  Length = 4258208 BitCount = 146 ID = 270729280x
   1.159243 1  10734099x       Rx   d 6 24 46 00 7D 00 00  Length = 3564590 BitCount = 123 ID = 275988633x
   1.163507 1  1022A040x       Rx   d 8 00 B0 00 12 42 00 00 22  Length = 4138208 BitCount = 142 ID = 270704704x
   1.165728 1  13FFE058x       Rx   d 0  Length = 2098256 BitCount = 74 ID = 335536216x
   1.172181 1  1022C040x       Rx   d 6 00 10 00 20 00 00  Length = 3688231 BitCount = 127 ID = 270712896x
   1.177707 1  10240040x       Rx   d 8 83 FE 88 01 00 F0 0F FC  Length = 4198208 BitCount = 144 ID = 270794816x
   1.182420 1  10248040x       Rx   d 7 00 00 61 CD CC 00 00  Length = 3868212 BitCount = 133 ID = 270827584x
   1.186773 1  102C0040x       Rx   d 5 AE EF 44 59 03  Length = 3298239 BitCount = 114 ID = 271319104x
   1.192834 1  102CA040x       Rx   d 8 00 40 0C D0 29 00 F1 00  Length = 4138208 BitCount = 142 ID = 271360064x
   1.197576 1  102CC040x       Rx   d 8 00 09 CF 66 00 87 06 A4  Length = 4048227 BitCount = 139 ID = 271368256x
   1.202741 1  10264040x       Rx   d 8 04 06 00 00 00 00 00 26  Length = 4228208 BitCount = 145 ID = 270942272x
   1.207636 1  102CE040x       Rx   d 8 90 00 64 7F 00 00 26 A3  Length = 4078212 BitCount = 140 ID = 271376448x
   1.212825 1  10210040x       Rx   d 8 00 00 00 00 00 00 00 00  Length = 4284562 BitCount = 147 ID = 270598208x
   1.215676 1  10304058x       Rx   d 3 44 59 01  Length = 2724642 BitCount = 95 ID = 271597656x
   1.222850 1  10220040x       Rx   d 8 10 00 00 00 00 04 00 00  Length = 4318208 BitCount = 148 ID = 270663744x
   1.230533 1  10308060x       Rx   d 3 44 59 01  Length = 2788236 BitCount = 97 ID = 271614048x
   1.234973 1  1022E040x       Rx   d 8 00 00 00 00 00 00 00 00  Length = 4314558 BitCount = 148 ID = 270721088x
   1.238393 1  10306099x       Rx   d 3 44 59 01  Length = 2754642 BitCount = 96 ID = 271605913x
   1.242299 1  C800040x        Rx   d 6 08 CB 00 00 7E DE  Length = 3658231 BitCount = 126 ID = 209715264x
   1.247762 1  10230040x       Rx   d 8 10 00 00 00 10 00 00 00  Length = 4258208 BitCount = 146 ID = 270729280x
   1.250797 1  106B0040x       Rx   d 1 00  Length = 2308248 BitCount = 81 ID = 275447872x
   1.257880 1  10780040x       Rx   d 8 00 00 01 04 08 00 00 22  Length = 4288208 BitCount = 147 ID = 276299840x
   1.262776 1  10240040x       Rx   d 8 83 FF 88 01 00 F0 0F FC  Length = 4228208 BitCount = 145 ID = 270794816x
   1.267875 1  106B8040x       Rx   d 8 00 00 00 00 00 00 00 00  Length = 4314573 BitCount = 148 ID = 275480640x
   1.279605 1  13FFE0AFx       Rx   d 0  Length = 2064714 BitCount = 73 ID = 335536303x
   1.283899 1  102CA040x       Rx   d 8 00 40 0C B8 28 00 F1 00  Length = 4168208 BitCount = 143 ID = 271360064x
   1.302774 1  10264040x       Rx   d 8 04 06 00 00 00 00 00 39  Length = 4228208 BitCount = 145 ID = 270942272x
   1.307813 1  1043A040x       Rx   d 8 00 00 35 00 00 00 00 00  Length = 4284573 BitCount = 147 ID = 272867392x
   1.312858 1  10210040x       Rx   d 8 00 00 00 00 00 00 00 00  Length = 4288208 BitCount = 147 ID = 270598208x
   1.317569 1  1080A040x       Rx   d 7 00 00 00 00 00 00 00  Length = 4018212 BitCount = 138 ID = 276865088x
   1.322944 1  10220040x       Rx   d 8 10 00 00 00 00 06 00 00  Length = 4288208 BitCount = 147 ID = 270663744x
   1.332791 1  1022E040x       Rx   d 8 20 00 00 00 20 00 00 00  Length = 4288208 BitCount = 147 ID = 270721088x
   1.342815 1  10230040x       Rx   d 8 30 00 00 00 30 00 00 00  Length = 4258223 BitCount = 146 ID = 270729280x
   1.362768 1  10240040x       Rx   d 8 83 FF 88 01 00 F0 0F FC  Length = 4224562 BitCount = 145 ID = 270794816x
   1.365833 1  106B0040x       Rx   d 1 00  Length = 2308263 BitCount = 81 ID = 275447872x
   1.371777 1  10708040x       Rx   d 5 02 24 02 24 39  Length = 3268239 BitCount = 113 ID = 275808320x
   1.382789 1  102CA040x       Rx   d 8 00 40 0C BE 28 00 F1 00  Length = 4168208 BitCount = 143 ID = 271360064x
   1.402806 1  10264040x       Rx   d 8 04 06 00 00 00 00 00 39  Length = 4228208 BitCount = 145 ID = 270942272x
   1.412862 1  10210040x       Rx   d 8 00 00 00 00 00 00 00 00  Length = 4288208 BitCount = 147 ID = 270598208x
   1.417726 1  1022A040x       Rx   d 8 00 B0 00 12 42 00 00 22  Length = 4138223 BitCount = 142 ID = 270704704x
   1.422949 1  10220040x       Rx   d 8 10 00 00 00 00 07 00 00  Length = 4318223 BitCount = 148 ID = 270663744x
   1.427240 1  1022C040x       Rx   d 6 00 10 00 20 00 00  Length = 3684597 BitCount = 127 ID = 270712896x
   1.432945 1  1022E040x       Rx   d 8 00 00 00 00 00 00 00 00  Length = 4318208 BitCount = 148 ID = 270721088x
   1.436159 1  10250040x       Rx   d 2 00 03  Length = 2608240 BitCount = 91 ID = 270860352x
   1.442852 1  10230040x       Rx   d 8 10 00 00 00 10 00 00 00  Length = 4258208 BitCount = 146 ID = 270729280x
   1.445010 1  13FFE0BBx       Rx   d 0  Length = 2034733 BitCount = 72 ID = 335536315x
   1.449181 1  102CC040x       Rx   d 8 00 09 CF 66 00 87 06 A4  Length = 4048212 BitCount = 139 ID = 271368256x
   1.452934 1  108E0080x       Rx   d 6 0E 01 17 02 0C 59  Length = 3628216 BitCount = 125 ID = 277741696x
   1.457738 1  102CE040x       Rx   d 8 90 00 64 7F 00 00 26 A4  Length = 4108212 BitCount = 141 ID = 271376448x
   1.462811 1  10240040x       Rx   d 8 83 FF 88 01 00 F0 0F FC  Length = 4228208 BitCount = 145 ID = 270794816x
   1.467732 1  102D0040x       Rx   d 8 01 6A 01 ED 7C 83 00 FF  Length = 4138208 BitCount = 142 ID = 271384640x
   1.471845 1  102C0040x       Rx   d 5 AE EF 44 59 03  Length = 3298224 BitCount = 114 ID = 271319104x
   1.477785 1  102E0040x       Rx   d 8 00 33 CA 71 8A 00 64 80  Length = 4134566 BitCount = 142 ID = 271450176x
   1.482830 1  102CA040x       Rx   d 8 00 40 0C C7 28 00 F1 00  Length = 4168208 BitCount = 143 ID = 271360064x
   1.487001 1  10466040x       Rx   d 5 00 00 00 00 00  Length = 3448235 BitCount = 119 ID = 273047616x
   1.489879 1  10306099x       Rx   d 3 44 59 01  Length = 2754642 BitCount = 96 ID = 271605913x
   1.493662 1  C800040x        Rx   d 6 08 CB 00 00 7E E1  Length = 3658216 BitCount = 126 ID = 209715264x
   1.496512 1  10304058x       Rx   d 3 44 59 01  Length = 2724642 BitCount = 95 ID = 271597656x
   1.498735 1  13FFE060x       Rx   d 0  Length = 2098256 BitCount = 74 ID = 335536224x
   1.503085 1  10264040x       Rx   d 8 04 06 00 00 00 00 00 39  Length = 4224562 BitCount = 145 ID = 270942272x
   1.505279 1  13FFE080x       Rx   d 0  Length = 2068260 BitCount = 73 ID = 335536256x
   1.507712 1  106B0040x       Rx   d 1 00  Length = 2308248 BitCount = 81 ID = 275447872x
   1.510624 1  10308060x       Rx   d 3 44 59 01  Length = 2788236 BitCount = 97 ID = 271614048x
   1.515034 1  10210040x       Rx   d 8 00 00 00 00 00 00 00 00  Length = 4284562 BitCount = 147 ID = 270598208x
   1.517737 1  13FFE099x       Rx   d 0  Length = 2068275 BitCount = 73 ID = 335536281x
   1.523044 1  10220040x       Rx   d 8 10 00 00 00 00 04 00 00  Length = 4314558 BitCount = 148 ID = 270663744x
   1.527909 1  106B8040x       Rx   d 8 00 00 00 00 00 00 00 00  Length = 4318208 BitCount = 148 ID = 275480640x
   1.532892 1  1022E040x       Rx   d 8 20 00 00 00 20 00 00 00  Length = 4288208 BitCount = 147 ID = 270721088x
   1.537033 1  106C0040x       Rx   d 5 00 06 0F 07 00  Length = 3448235 BitCount = 119 ID = 275513408x
   1.542856 1  10230040x       Rx   d 8 30 00 00 00 30 00 00 00  Length = 4258208 BitCount = 146 ID = 270729280x
   1.546760 1  1077C040x       Rx   d 4 30 30 01 F4  Length = 3148224 BitCount = 109 ID = 276283456x
   1.552943 1  1043A040x       Rx   d 8 00 00 33 00 00 00 00 00  Length = 4288223 BitCount = 147 ID = 272867392x
   1.557928 1  10780040x       Rx   d 8 00 00 01 04 08 00 00 22  Length = 4288208 BitCount = 147 ID = 276299840x
   1.562849 1  10240040x       Rx   d 8 83 FF 88 01 00 F0 0F FC  Length = 4228208 BitCount = 145 ID = 270794816x
   1.567383 1  10788040x       Rx   d 6 08 00 00 00 00 00  Length = 3778216 BitCount = 130 ID = 276332608x
   1.572038 1  10806040x       Rx   d 5 00 00 00 00 19  Length = 3418220 BitCount = 118 ID = 276848704x
   1.582782 1  102CA040x       Rx   d 8 00 40 0C AA 28 00 F1 00  Length = 4108212 BitCount = 141 ID = 271360064x
   1.602831 1  10264040x       Rx   d 8 04 06 00 00 00 00 00 26  Length = 4228208 BitCount = 145 ID = 270942272x
   1.612918 1  10210040x       Rx   d 8 00 00 00 00 00 00 00 00  Length = 4288208 BitCount = 147 ID = 270598208x
   1.622970 1  10220040x       Rx   d 8 10 00 00 00 00 03 00 00  Length = 4318208 BitCount = 148 ID = 270663744x
   1.625883 1  106B0040x       Rx   d 1 00  Length = 2308263 BitCount = 81 ID = 275447872x
   1.629573 1  10734099x       Rx   d 6 24 46 00 7D 00 00  Length = 3564590 BitCount = 123 ID = 275988633x
   1.634013 1  1022E040x       Rx   d 8 00 00 00 00 00 00 00 00  Length = 4314558 BitCount = 148 ID = 270721088x
   1.642899 1  10230040x       Rx   d 8 10 00 00 00 10 00 00 00  Length = 4258208 BitCount = 146 ID = 270729280x
   1.662798 1  1022A040x       Rx   d 8 00 B0 00 12 42 00 00 22  Length = 4138208 BitCount = 142 ID = 270704704x
   1.667303 1  1022C040x       Rx   d 6 00 10 00 20 00 00  Length = 3688216 BitCount = 127 ID = 270712896x
   1.672979 1  10240040x       Rx   d 8 83 FE 88 01 00 F0 0F FC  Length = 4198208 BitCount = 144 ID = 270794816x
   1.677962 1  106B8040x       Rx   d 8 00 00 00 00 00 00 00 00  Length = 4318208 BitCount = 148 ID = 275480640x
   1.682495 1  10248040x       Rx   d 7 00 00 61 CD CC 00 00  Length = 3868227 BitCount = 133 ID = 270827584x
   1.687805 1  102CA040x       Rx   d 8 00 40 0C B2 28 00 F1 00  Length = 4104566 BitCount = 141 ID = 271360064x
   1.692790 1  102CC040x       Rx   d 8 00 09 CF 66 00 87 06 A3  Length = 4048227 BitCount = 139 ID = 271368256x
   1.702874 1  10264040x       Rx   d 8 04 06 00 00 00 00 00 39  Length = 4228208 BitCount = 145 ID = 270942272x
   1.707765 1  102CE040x       Rx   d 8 90 00 65 7F 00 00 26 A3  Length = 4078212 BitCount = 140 ID = 271376448x
   1.712955 1  10210040x       Rx   d 8 00 00 00 00 00 00 00 00  Length = 4284562 BitCount = 147 ID = 270598208x
   1.722951 1  10220040x       Rx   d 8 10 00 00 00 00 04 00 00  Length = 4318208 BitCount = 148 ID = 270663744x
   1.732975 1  1022E040x       Rx   d 8 20 00 00 00 20 00 00 00  Length = 4288208 BitCount = 147 ID = 270721088x
   1.738079 1  10780040x       Rx   d 8 00 00 01 04 08 00 00 22  Length = 4288208 BitCount = 147 ID = 276299840x
   1.741737 1  10734099x       Rx   d 6 24 45 00 7D 00 00  Length = 3534590 BitCount = 122 ID = 275988633x
   1.745521 1  C800040x        Rx   d 6 08 CB 00 00 7E E4  Length = 3658216 BitCount = 126 ID = 209715264x
   1.752904 1  10230040x       Rx   d 8 00 00 00 00 00 00 00 00  Length = 4288208 BitCount = 147 ID = 270729280x
   1.755938 1  106B0040x       Rx   d 1 00  Length = 2308248 BitCount = 81 ID = 275447872x
   1.762873 1  10240040x       Rx   d 8 83 FE 88 01 00 F0 0F FC  Length = 4198223 BitCount = 144 ID = 270794816x
   1.771909 1  102C0040x       Rx   d 5 AE EF 44 59 03  Length = 3298224 BitCount = 114 ID = 271319104x
   1.782834 1  102CA040x       Rx   d 8 00 40 0C B2 28 00 F1 00  Length = 4108212 BitCount = 141 ID = 271360064x
   1.788417 1  10306099x       Rx   d 3 44 59 01  Length = 2758236 BitCount = 96 ID = 271605913x
   1.791326 1  10308060x       Rx   d 3 44 59 01  Length = 2784638 BitCount = 97 ID = 271614048x
   1.795320 1  10304058x       Rx   d 3 44 59 01  Length = 2728251 BitCount = 95 ID = 271597656x
   1.802913 1  10264040x       Rx   d 8 04 06 00 00 00 00 00 37  Length = 4258223 BitCount = 146 ID = 270942272x
   1.807956 1  1043A040x       Rx   d 8 00 00 33 00 00 00 00 00  Length = 4288223 BitCount = 147 ID = 272867392x
   1.812967 1  10210040x       Rx   d 8 00 00 00 00 00 00 00 00  Length = 4288208 BitCount = 147 ID = 270598208x
   1.822991 1  10220040x       Rx   d 8 10 00 00 00 00 06 00 00  Length = 4288208 BitCount = 147 ID = 270663744x
   1.832986 1  1022E040x       Rx   d 8 00 00 00 00 00 00 00 00  Length = 4318208 BitCount = 148 ID = 270721088x
   1.842950 1  10230040x       Rx   d 8 10 00 00 00 10 00 00 00  Length = 4258223 BitCount = 146 ID = 270729280x
   1.849219 1  10734099x       Rx   d 6 24 46 00 7D 00 00  Length = 3564590 BitCount = 123 ID = 275988633x
   1.862905 1  10240040x       Rx   d 8 83 FF 88 01 00 F0 0F FC  Length = 4228223 BitCount = 145 ID = 270794816x
   1.868005 1  106B8040x       Rx   d 8 00 00 00 00 00 00 00 00  Length = 4314558 BitCount = 148 ID = 275480640x
   1.871189 1  10448060x       Rx   d 4 00 00 45 00  Length = 3058228 BitCount = 106 ID = 272924768x
   1.873621 1  106B0040x       Rx   d 1 00  Length = 2308263 BitCount = 81 ID = 275447872x
   1.875813 1  13FFE068x       Rx   d 0  Length = 2068260 BitCount = 73 ID = 335536232x
   1.878513 1  106D0080x       Rx   d 2 00 00  Length = 2574658 BitCount = 90 ID = 275579008x
   1.882833 1  102CA040x       Rx   d 8 00 40 0C A1 28 00 F1 00  Length = 4104566 BitCount = 141 ID = 271360064x
   1.885717 1  13FFE040x       Rx   d 0  Length = 2068275 BitCount = 73 ID = 335536192x
   1.892231 1  621             Rx   d 8 00 52 00 00 00 00 00 00  Length = 3598216 BitCount = 124 ID = 1569
   1.902917 1  10264040x       Rx   d 8 04 06 00 00 00 00 00 37  Length = 4258208 BitCount = 146 ID = 270942272x
   1.913002 1  10210040x       Rx   d 8 00 00 00 00 00 00 00 00  Length = 4288208 BitCount = 147 ID = 270598208x
   1.917865 1  1022A040x       Rx   d 8 00 B0 00 12 42 00 00 22  Length = 4138208 BitCount = 142 ID = 270704704x
   1.922994 1  10220040x       Rx   d 8 10 00 00 00 00 05 00 00  Length = 4284562 BitCount = 147 ID = 270663744x
   1.927346 1  1022C040x       Rx   d 6 00 10 00 20 00 00  Length = 3684586 BitCount = 127 ID = 270712896x
   1.932961 1  1022E040x       Rx   d 8 20 00 00 00 20 00 00 00  Length = 4288208 BitCount = 147 ID = 270721088x
   1.942895 1  10230040x       Rx   d 8 30 00 00 00 30 00 00 00  Length = 4258208 BitCount = 146 ID = 270729280x
   1.947788 1  102CC040x       Rx   d 8 00 09 CF 66 00 87 06 A6  Length = 4048227 BitCount = 139 ID = 271368256x
   1.952862 1  102CE040x       Rx   d 8 90 00 64 7F 00 00 26 A4  Length = 4108212 BitCount = 141 ID = 271376448x
   1.957843 1  102D0040x       Rx   d 8 01 6A 01 ED 7C 83 00 FF  Length = 4138208 BitCount = 142 ID = 271384640x
   1.962946 1  10240040x       Rx   d 8 83 FF 88 01 00 F0 0F FC  Length = 4228208 BitCount = 145 ID = 270794816x
   1.966754 1  10324058x       Rx   d 6 00 00 03 FF 00 00  Length = 3684586 BitCount = 127 ID = 271728728x
   1.972093 1  10806040x       Rx   d 5 00 00 00 00 19  Length = 3414613 BitCount = 118 ID = 276848704x
   1.982869 1  102CA040x       Rx   d 8 00 40 0C B5 28 00 F1 00  Length = 4108212 BitCount = 141 ID = 271360064x
   1.988088 1  10780040x       Rx   d 8 00 00 01 04 08 00 00 22  Length = 4284562 BitCount = 147 ID = 276299840x
   1.992350 1  C800040x        Rx   d 6 08 CB 00 00 7E E7  Length = 3624586 BitCount = 125 ID = 209715264x
   1.995985 1  106B0040x       Rx   d 1 00  Length = 2308248 BitCount = 81 ID = 275447872x
   2.002261 1  Statistic: D 1 R 0 XD 155 XR 0 E 0 O 0 B 60.71%
   2.002261 2  Statistic: D 0 R 0 XD 0 XR 0 E 0 O 0 B 0.00%
   2.002261 3  Statistic: D 0 R 0 XD 0 XR 0 E 0 O 0 B 0.00%
   2.002946 1  10264040x       Rx   d 8 04 06 00 00 00 00 00 25  Length = 4224577 BitCount = 145 ID = 270942272x
   2.007481 1  10788040x       Rx   d 6 08 00 00 00 00 00  Length = 3778216 BitCount = 130 ID = 276332608x
   2.013036 1  10210040x       Rx   d 8 00 00 00 00 00 00 00 00  Length = 4288208 BitCount = 147 ID = 270598208x
   2.023001 1  10220040x       Rx   d 8 10 00 00 00 00 06 00 00  Length = 4288208 BitCount = 147 ID = 270663744x
   2.032995 1  1022E040x       Rx   d 8 00 00 00 00 00 00 00 00  Length = 4318208 BitCount = 148 ID = 270721088x
   2.042930 1  10230040x       Rx   d 8 10 00 00 00 10 00 00 00  Length = 4258208 BitCount = 146 ID = 270729280x
   2.053014 1  1043A040x       Rx   d 8 00 00 36 00 00 00 00 00  Length = 4288208 BitCount = 147 ID = 272867392x
   2.062949 1  10240040x       Rx   d 8 83 FF 88 01 00 F0 0F FC  Length = 4228208 BitCount = 145 ID = 270794816x
   2.068052 1  106B8040x       Rx   d 8 00 00 00 00 00 00 00 00  Length = 4318208 BitCount = 148 ID = 275480640x
   2.071985 1  102C0040x       Rx   d 5 AE EF 44 59 03  Length = 3298224 BitCount = 114 ID = 271319104x
   2.082880 1  102CA040x       Rx   d 8 00 40 0C B3 28 00 F1 00  Length = 4108212 BitCount = 141 ID = 271360064x
   2.088398 1  10306099x       Rx   d 3 44 59 01  Length = 2754642 BitCount = 96 ID = 271605913x
   2.095150 1  10304058x       Rx   d 3 44 59 01  Length = 2728236 BitCount = 95 ID = 271597656x
   2.102981 1  10264040x       Rx   d 8 04 06 00 00 00 00 00 38  Length = 4254562 BitCount = 146 ID = 270942272x
   2.110485 1  10308060x       Rx   d 3 44 59 01  Length = 2788236 BitCount = 97 ID = 271614048x
   2.114899 1  10210040x       Rx   d 8 00 00 00 00 00 00 00 00  Length = 4288223 BitCount = 147 ID = 270598208x
   2.123065 1  10220040x       Rx   d 8 10 00 00 00 00 08 00 00  Length = 4318208 BitCount = 148 ID = 270663744x
   2.126009 1  106B0040x       Rx   d 1 00  Length = 2308263 BitCount = 81 ID = 275447872x
   2.129699 1  10734099x       Rx   d 6 24 46 00 7D 00 00  Length = 3564590 BitCount = 123 ID = 275988633x
   2.134108 1  1022E040x       Rx   d 8 20 00 00 00 20 00 00 00  Length = 4284573 BitCount = 147 ID = 270721088x
   2.142964 1  10230040x       Rx   d 8 30 00 00 00 30 00 00 00  Length = 4258208 BitCount = 146 ID = 270729280x
   2.162893 1  1022A040x       Rx   d 8 00 B0 00 12 42 00 00 22  Length = 4138208 BitCount = 142 ID = 270704704x
   2.167429 1  1022C040x       Rx   d 6 00 10 00 20 00 00  Length = 3688216 BitCount = 127 ID = 270712896x
   2.172984 1  10240040x       Rx   d 8 83 FE 88 01 00 F0 0F FC  Length = 4198208 BitCount = 144 ID = 270794816x
   2.182584 1  10248040x       Rx   d 7 00 00 61 CD CC FE 00  Length = 3834593 BitCount = 132 ID = 270827584x
   2.187768 CAN 1 Status:chip status error active  - TxErr: 0 RxErr: 1
   2.187776 1  ErrorFrame	Flags = 0xfffe	CodeExt = 0x2072	Code = 0x81	ID = 0x902ca040	DLC = 8	Position = 120	Length = 3954375	Data = 0  0x40  0xc  0xad  0x28  0  0xf1  0
   2.192207 CAN 1 Status:chip status error active
   2.192425 1  102CA040x       Rx   d 8 00 40 0C AD 28 00 F1 00  Length = 4134581 BitCount = 142 ID = 271360064x
   2.197860 1  102CC040x       Rx   d 8 00 09 CF 66 00 87 06 A5  Length = 4078212 BitCount = 140 ID = 271368256x
   2.203023 1  10264040x       Rx   d 8 04 06 00 00 00 00 00 38  Length = 4258208 BitCount = 146 ID = 270942272x
   2.207914 1  102CE040x       Rx   d 8 90 00 64 7F 00 00 26 A4  Length = 4108212 BitCount = 141 ID = 271376448x
   2.213077 1  10210040x       Rx   d 8 00 00 00 00 00 00 00 00  Length = 4288208 BitCount = 147 ID = 270598208x
   2.223070 1  10220040x       Rx   d 8 10 00 00 00 00 04 00 00  Length = 4318208 BitCount = 148 ID = 270663744x
   2.233035 1  1022E040x       Rx   d 8 00 00 00 00 00 00 00 00  Length = 4318208 BitCount = 148 ID = 270721088x
   2.238136 1  10780040x       Rx   d 8 00 00 01 04 08 00 00 22  Length = 4284562 BitCount = 147 ID = 276299840x
   2.242487 1  C800040x        Rx   d 6 08 CB 00 00 7E EA  Length = 3654586 BitCount = 126 ID = 209715264x
   2.248102 1  10230040x       Rx   d 8 10 00 00 00 10 00 00 00  Length = 4258208 BitCount = 146 ID = 270729280x
   2.251075 1  106B0040x       Rx   d 1 00  Length = 2308248 BitCount = 81 ID = 275447872x
   2.263020 1  10240040x       Rx   d 8 83 FF 88 01 00 F0 0F FC  Length = 4228208 BitCount = 145 ID = 270794816x
   2.268179 1  106B8040x       Rx   d 8 00 00 00 00 00 00 00 00  Length = 4314558 BitCount = 148 ID = 275480640x
   2.282917 1  102CA040x       Rx   d 8 00 40 0C 9D 29 00 F1 00  Length = 4078212 BitCount = 140 ID = 271360064x
   2.302996 1  10264040x       Rx   d 8 04 06 00 00 00 00 00 25  Length = 4228223 BitCount = 145 ID = 270942272x
   2.308127 1  1043A040x       Rx   d 8 00 00 36 00 00 00 00 00  Length = 4284562 BitCount = 147 ID = 272867392x
   2.313202 1  10210040x       Rx   d 8 00 00 00 00 00 00 00 00  Length = 4288208 BitCount = 147 ID = 270598208x
   2.317824 1  1080A040x       Rx   d 7 00 00 00 00 00 00 00  Length = 4018212 BitCount = 138 ID = 276865088x
   2.323105 1  10220040x       Rx   d 8 10 00 00 00 00 03 00 00  Length = 4314573 BitCount = 148 ID = 270663744x
   2.333041 1  1022E040x       Rx   d 8 20 00 00 00 20 00 00 00  Length = 4288208 BitCount = 147 ID = 270721088x
   2.343006 1  10230040x       Rx   d 8 30 00 00 00 30 00 00 00  Length = 4258208 BitCount = 146 ID = 270729280x
   2.349184 1  10734099x       Rx   d 6 24 45 00 7D 00 00  Length = 3534590 BitCount = 122 ID = 275988633x
   2.363051 1  10240040x       Rx   d 8 83 FF 88 01 00 F0 0F FC  Length = 4228208 BitCount = 145 ID = 270794816x
   2.365272 1  13FFE058x       Rx   d 0  Length = 2098256 BitCount = 74 ID = 335536216x
   2.367704 1  106B0040x       Rx   d 1 00  Length = 2308248 BitCount = 81 ID = 275447872x
   2.372053 1  102C0040x       Rx   d 5 AE EF 44 59 03  Length = 3294606 BitCount = 114 ID = 271319104x
   2.382979 1  102CA040x       Rx   d 8 00 40 0C A6 29 00 F1 00  Length = 4138208 BitCount = 142 ID = 271360064x
   2.388408 1  10306099x       Rx   d 3 44 59 01  Length = 2754642 BitCount = 96 ID = 271605913x
   2.391321 1  10308060x       Rx   d 3 44 59 01  Length = 2788236 BitCount = 97 ID = 271614048x
   2.395070 1  10304058x       Rx   d 3 44 59 01  Length = 2724642 BitCount = 95 ID = 271597656x
   2.403051 1  10264040x       Rx   d 8 04 06 00 00 00 00 00 38  Length = 4254562 BitCount = 146 ID = 270942272x
   2.413137 1  10210040x       Rx   d 8 00 00 00 00 00 00 00 00  Length = 4288208 BitCount = 147 ID = 270598208x
   2.417970 1  1022A040x       Rx   d 8 00 B0 00 12 42 00 00 22  Length = 4138208 BitCount = 142 ID = 270704704x
   2.423099 1  10220040x       Rx   d 8 10 00 00 00 00 05 00 00  Length = 4284573 BitCount = 147 ID = 270663744x
   2.427484 1  1022C040x       Rx   d 6 00 10 00 20 00 00  Length = 3688216 BitCount = 127 ID = 270712896x
   2.433100 1  1022E040x       Rx   d 8 00 00 00 00 00 00 00 00  Length = 4318208 BitCount = 148 ID = 270721088x
   2.436493 1  10250040x       Rx   d 2 00 03  Length = 2608240 BitCount = 91 ID = 270860352x
   2.443034 1  10230040x       Rx   d 8 10 00 00 00 10 00 00 00  Length = 4258208 BitCount = 146 ID = 270729280x
   2.448017 1  102CC040x       Rx   d 8 00 09 CF 66 00 87 06 A6  Length = 4048212 BitCount = 139 ID = 271368256x
   2.451737 1  108E0080x       Rx   d 6 0E 01 17 02 0C 5A  Length = 3594590 BitCount = 124 ID = 277741696x
   2.455969 1  102CE040x       Rx   d 8 90 00 65 7F 00 00 26 A5  Length = 4108223 BitCount = 141 ID = 271376448x
   2.459656 1  10734099x       Rx   d 6 24 46 00 7D 00 00  Length = 3564590 BitCount = 123 ID = 275988633x
   2.464008 1  10240040x       Rx   d 8 83 FF 88 01 00 F0 0F FC  Length = 4224562 BitCount = 145 ID = 270794816x
   2.472984 1  102D0040x       Rx   d 8 01 6A 01 ED 7C 83 00 FF  Length = 4138223 BitCount = 142 ID = 271384640x
   2.478027 1  102E0040x       Rx   d 8 00 33 CA 71 8A 00 64 80  Length = 4138223 BitCount = 142 ID = 271450176x
   2.480219 1  13FFE0AFx       Rx   d 0  Length = 2068260 BitCount = 73 ID = 335536303x
   2.484479 1  102CA040x       Rx   d 8 00 40 0C A2 29 00 F1 00  Length = 4134566 BitCount = 142 ID = 271360064x
   2.492495 1  C800040x        Rx   d 6 08 CB 00 00 7E EC  Length = 3658216 BitCount = 126 ID = 209715264x
   2.496250 1  106B0040x       Rx   d 1 00  Length = 2308263 BitCount = 81 ID = 275447872x
   2.503123 1  10264040x       Rx   d 8 04 06 00 00 00 00 00 38  Length = 4258208 BitCount = 146 ID = 270942272x
   2.508194 1  106B8040x       Rx   d 8 00 00 00 00 00 00 00 00  Length = 4318208 BitCount = 148 ID = 275480640x
   2.513147 1  10210040x       Rx   d 8 00 00 00 00 00 00 00 00  Length = 4288223 BitCount = 147 ID = 270598208x
   2.517259 1  106C0040x       Rx   d 5 00 06 0F 07 00  Length = 3448220 BitCount = 119 ID = 275513408x
   2.523172 1  10220040x       Rx   d 8 10 00 00 00 00 05 00 00  Length = 4288208 BitCount = 147 ID = 270663744x
   2.526953 1  1077C040x       Rx   d 4 30 30 01 F4  Length = 3148224 BitCount = 109 ID = 276283456x
   2.533108 1  1022E040x       Rx   d 8 20 00 00 00 20 00 00 00  Length = 4288208 BitCount = 147 ID = 270721088x
   2.538214 1  10780040x       Rx   d 8 00 00 01 04 08 00 00 22  Length = 4288208 BitCount = 147 ID = 276299840x
   2.543075 1  10230040x       Rx   d 8 30 00 00 00 30 00 00 00  Length = 4258223 BitCount = 146 ID = 270729280x
   2.547728 1  10788040x       Rx   d 6 08 00 00 00 00 00  Length = 3778216 BitCount = 130 ID = 276332608x
   2.553163 1  1043A040x       Rx   d 8 00 00 33 00 00 00 00 00  Length = 4288208 BitCount = 147 ID = 272867392x
   2.557276 1  10806040x       Rx   d 5 00 00 00 00 19  Length = 3418220 BitCount = 118 ID = 276848704x
   2.563220 1  10240040x       Rx   d 8 83 FF 88 01 00 F0 0F FC  Length = 4228208 BitCount = 145 ID = 270794816x
   2.582995 1  102CA040x       Rx   d 8 00 40 0C A7 29 00 F1 00  Length = 4078212 BitCount = 140 ID = 271360064x
   2.603066 1  10264040x       Rx   d 8 04 06 00 00 00 00 00 25  Length = 4224577 BitCount = 145 ID = 270942272x
   2.613152 1  10210040x       Rx   d 8 00 00 00 00 00 00 00 00  Length = 4288208 BitCount = 147 ID = 270598208x
   2.616155 1  106B0040x       Rx   d 1 00  Length = 2308248 BitCount = 81 ID = 275447872x
   2.623145 1  10220040x       Rx   d 8 10 00 00 00 00 06 00 00  Length = 4284562 BitCount = 147 ID = 270663744x
   2.629238 1  10734099x       Rx   d 6 24 46 00 7D 00 00  Length = 3568231 BitCount = 123 ID = 275988633x
   2.633676 1  1022E040x       Rx   d 8 00 00 00 00 00 00 00 00  Length = 4314558 BitCount = 148 ID = 270721088x
   2.643071 1  10230040x       Rx   d 8 10 00 00 00 10 00 00 00  Length = 4258223 BitCount = 146 ID = 270729280x
   2.645042 CAN 1 Status:chip status error active  - TxErr: 0 RxErr: 1
   2.645050 1  ErrorFrame	Flags = 0xfffe	CodeExt = 0x2072	Code = 0x81	ID = 0x93ffe0bb	DLC = 0	Position = 56	Length = 1854375
   2.647384 CAN 1 Status:chip status error active
   2.647602 1  13FFE0BBx       Rx   d 0  Length = 2038260 BitCount = 72 ID = 335536315x
   2.663053 1  1022A040x       Rx   d 8 00 B0 00 12 42 00 00 22  Length = 4134566 BitCount = 142 ID = 270704704x
   2.667558 1  1022C040x       Rx   d 6 00 10 00 20 00 00  Length = 3688216 BitCount = 127 ID = 270712896x
   2.673143 1  10240040x       Rx   d 8 83 FF 88 01 00 F0 0F FC  Length = 4228223 BitCount = 145 ID = 270794816x
   2.677136 1  102C0040x       Rx   d 5 AE EF 44 59 03  Length = 3298224 BitCount = 114 ID = 271319104x
   2.682779 1  10248040x       Rx   d 7 00 00 61 CD CC FC 00  Length = 3898212 BitCount = 134 ID = 270827584x
   2.688059 1  102CA040x       Rx   d 8 00 40 0C A4 29 00 F1 00  Length = 4134566 BitCount = 142 ID = 271360064x
   2.690493 1  10244060x       Rx   d 1 02  Length = 2308248 BitCount = 81 ID = 270811232x
   2.694664 1  102CC040x       Rx   d 8 00 09 CF 66 00 87 06 A8  Length = 4048212 BitCount = 139 ID = 271368256x
   2.696888 1  13FFE060x       Rx   d 0  Length = 2098256 BitCount = 74 ID = 335536224x
   2.699080 1  13FFE080x       Rx   d 0  Length = 2068260 BitCount = 73 ID = 335536256x
   2.703459 1  10264040x       Rx   d 8 04 06 00 00 00 00 00 38  Length = 4254577 BitCount = 146 ID = 270942272x
   2.706308 1  10304058x       Rx   d 3 44 59 01  Length = 2724642 BitCount = 95 ID = 271597656x
   2.710512 1  102CE040x       Rx   d 8 90 00 64 7F 00 00 26 A5  Length = 4078212 BitCount = 140 ID = 271376448x
   2.713425 1  10308060x       Rx   d 3 44 59 01  Length = 2788236 BitCount = 97 ID = 271614048x
   2.718198 1  10210040x       Rx   d 8 00 00 00 00 00 00 00 00  Length = 4288223 BitCount = 147 ID = 270598208x
   2.721381 1  10814099x       Rx   d 4 20 44 2E 00  Length = 3058228 BitCount = 106 ID = 276906137x
   2.725827 1  10220040x       Rx   d 8 10 00 00 00 00 08 00 00  Length = 4321858 BitCount = 148 ID = 270663744x
   2.728019 1  13FFE099x       Rx   d 0  Length = 2068260 BitCount = 73 ID = 335536281x
   2.733238 1  1022E040x       Rx   d 8 20 00 00 00 20 00 00 00  Length = 4284573 BitCount = 147 ID = 270721088x
   2.736213 1  106B0040x       Rx   d 1 00  Length = 2308248 BitCount = 81 ID = 275447872x
   2.739092 1  10306099x       Rx   d 3 44 59 01  Length = 2754642 BitCount = 96 ID = 271605913x
   2.742846 1  C800040x        Rx   d 6 08 CB 00 00 7E F0  Length = 3628216 BitCount = 125 ID = 209715264x
   2.748126 1  10230040x       Rx   d 8 30 00 00 00 30 00 00 00  Length = 4254562 BitCount = 146 ID = 270729280x
   2.753377 1  106B8040x       Rx   d 8 00 00 00 00 00 00 00 00  Length = 4314558 BitCount = 148 ID = 275480640x
   2.758242 1  10780040x       Rx   d 8 00 00 01 04 08 00 00 22  Length = 4288208 BitCount = 147 ID = 276299840x
   2.763135 1  10240040x       Rx   d 8 83 FF 88 01 00 F0 0F FC  Length = 4228208 BitCount = 145 ID = 270794816x
   2.767816 1  10EC4040x       Rx   d 8 4C 41 5A 41 36 39 53 44  Length = 3958212 BitCount = 136 ID = 283918400x
   2.772918 1  10EC8040x       Rx   d 8 48 42 37 30 31 34 39 36  Length = 3894574 BitCount = 134 ID = 283934784x
   2.783034 1  102CA040x       Rx   d 8 00 40 0C 99 29 00 F1 00  Length = 4078212 BitCount = 140 ID = 271360064x
   2.803141 1  10264040x       Rx   d 8 04 06 00 00 00 00 00 38  Length = 4258208 BitCount = 146 ID = 270942272x
   2.808184 1  1043A040x       Rx   d 8 00 00 33 00 00 00 00 00  Length = 4288208 BitCount = 147 ID = 272867392x
   2.813227 1  10210040x       Rx   d 8 00 00 00 00 00 00 00 00  Length = 4288208 BitCount = 147 ID = 270598208x
   2.823250 1  10220040x       Rx   d 8 10 00 00 00 00 06 00 00  Length = 4288208 BitCount = 147 ID = 270663744x
   2.833274 1  1022E040x       Rx   d 8 00 00 00 00 00 00 00 00  Length = 4318208 BitCount = 148 ID = 270721088x
   2.843239 1  10230040x       Rx   d 8 10 00 00 00 10 00 00 00  Length = 4258208 BitCount = 146 ID = 270729280x
   2.851253 1  106B0040x       Rx   d 1 00  Length = 2308263 BitCount = 81 ID = 275447872x
   2.863140 1  10240040x       Rx   d 8 83 FF 88 01 00 F0 0F FC  Length = 4228208 BitCount = 145 ID = 270794816x
   2.868239 1  106B8040x       Rx   d 8 00 00 00 00 00 00 00 00  Length = 4314573 BitCount = 148 ID = 275480640x
   2.871423 1  10448060x       Rx   d 4 00 00 45 00  Length = 3058228 BitCount = 106 ID = 272924768x
   2.883129 1  102CA040x       Rx   d 8 00 40 0C A2 29 00 F1 00  Length = 4138223 BitCount = 142 ID = 271360064x
   2.892609 1  621             Rx   d 8 00 52 00 00 00 00 00 00  Length = 3594590 BitCount = 124 ID = 1569
   2.903176 1  10264040x       Rx   d 8 04 06 00 00 00 00 00 25  Length = 4228223 BitCount = 145 ID = 270942272x
   2.913232 1  10210040x       Rx   d 8 00 00 00 00 00 00 00 00  Length = 4288223 BitCount = 147 ID = 270598208x
   2.918093 1  1022A040x       Rx   d 8 00 B0 00 12 42 00 00 22  Length = 4138208 BitCount = 142 ID = 270704704x
   2.923257 1  10220040x       Rx   d 8 10 00 00 00 00 05 00 00  Length = 4288208 BitCount = 147 ID = 270663744x
   2.927608 1  1022C040x       Rx   d 6 00 10 00 20 00 00  Length = 3688231 BitCount = 127 ID = 270712896x
   2.933249 1  1022E040x       Rx   d 8 20 00 00 00 20 00 00 00  Length = 4288208 BitCount = 147 ID = 270721088x
   2.943243 1  10230040x       Rx   d 8 30 00 00 00 30 00 00 00  Length = 4258208 BitCount = 146 ID = 270729280x
   2.948077 1  102CC040x       Rx   d 8 00 09 CF 66 00 87 06 A7  Length = 4048227 BitCount = 139 ID = 271368256x
   2.953090 1  102CE040x       Rx   d 8 90 00 64 7F 00 00 26 A5  Length = 4078212 BitCount = 140 ID = 271376448x
   2.958103 1  102D0040x       Rx   d 8 01 6A 01 ED 7C 84 00 FF  Length = 4138208 BitCount = 142 ID = 271384640x
   2.963174 1  10240040x       Rx   d 8 83 FF 88 01 00 F0 0F FC  Length = 4228208 BitCount = 145 ID = 270794816x
   2.966237 1  106B0040x       Rx   d 1 00  Length = 2308263 BitCount = 81 ID = 275447872x
   2.972207 1  102C0040x       Rx   d 5 AE EF 44 59 03  Length = 3294606 BitCount = 114 ID = 271319104x
   2.977368 1  10806040x       Rx   d 5 00 00 00 00 19  Length = 3414598 BitCount = 118 ID = 276848704x
   2.983133 1  102CA040x       Rx   d 8 00 40 0C B9 29 00 F1 00  Length = 4108212 BitCount = 141 ID = 271360064x
   2.988293 1  10780040x       Rx   d 8 00 00 01 04 08 00 00 22  Length = 4284573 BitCount = 147 ID = 276299840x
   2.991177 1  10306099x       Rx   d 3 44 59 01  Length = 2758236 BitCount = 96 ID = 271605913x
   2.994956 1  C800040x        Rx   d 6 08 CB 00 00 7E F2  Length = 3654586 BitCount = 126 ID = 209715264x
   2.997806 1  10304058x       Rx   d 3 44 59 01  Length = 2724642 BitCount = 95 ID = 271597656x
   3.000720 1  10308060x       Rx   d 3 44 59 01  Length = 2788236 BitCount = 97 ID = 271614048x
   3.002262 1  Statistic: D 1 R 0 XD 156 XR 0 E 2 O 0 B 61.78%
   3.002262 2  Statistic: D 0 R 0 XD 0 XR 0 E 0 O 0 B 0.00%
   3.002262 3  Statistic: D 0 R 0 XD 0 XR 0 E 0 O 0 B 0.00%
   3.005073 1  10264040x       Rx   d 8 04 06 00 00 00 00 00 39  Length = 4228223 BitCount = 145 ID = 270942272x
   3.013265 1  10210040x       Rx   d 8 00 00 00 00 00 00 00 00  Length = 4288223 BitCount = 147 ID = 270598208x
   3.017740 1  10788040x       Rx   d 6 08 00 00 00 00 00  Length = 3778231 BitCount = 130 ID = 276332608x
   3.021490 1  624             Rx   d 8 00 20 00 00 00 00 00 00  Length = 3624601 BitCount = 125 ID = 1572
   3.025930 1  10220040x       Rx   d 8 10 00 00 00 00 03 00 00  Length = 4314558 BitCount = 148 ID = 270663744x
   3.033284 1  1022E040x       Rx   d 8 00 00 00 00 00 00 00 00  Length = 4318208 BitCount = 148 ID = 270721088x
   3.043280 1  10230040x       Rx   d 8 10 00 00 00 10 00 00 00  Length = 4258208 BitCount = 146 ID = 270729280x
   3.053274 1  1043A040x       Rx   d 8 00 00 36 00 00 00 00 00  Length = 4288208 BitCount = 147 ID = 272867392x
   3.063209 1  10240040x       Rx   d 8 83 FF 88 01 00 F0 0F FC  Length = 4228223 BitCount = 145 ID = 270794816x
   3.068309 1  106B8040x       Rx   d 8 00 00 00 00 00 00 00 00  Length = 4314558 BitCount = 148 ID = 275480640x
   3.070503 1  13FFE068x       Rx   d 0  Length = 2068260 BitCount = 73 ID = 335536232x
   3.072696 1  13FFE040x       Rx   d 0  Length = 2068260 BitCount = 73 ID = 335536192x
   3.077679 1  106D0080x       Rx   d 2 00 00  Length = 2578240 BitCount = 90 ID = 275579008x
   3.083142 1  102CA040x       Rx   d 8 00 40 0C B4 29 00 F1 00  Length = 4108212 BitCount = 141 ID = 271360064x
   3.086237 1  106B0040x       Rx   d 1 00  Length = 2308248 BitCount = 81 ID = 275447872x
   3.103313 1  10264040x       Rx   d 8 04 06 00 00 00 00 00 39  Length = 4228223 BitCount = 145 ID = 270942272x
   3.113305 1  10210040x       Rx   d 8 00 00 00 00 00 00 00 00  Length = 4288223 BitCount = 147 ID = 270598208x
   3.123330 1  10220040x       Rx   d 8 10 00 00 00 00 05 00 00  Length = 4288208 BitCount = 147 ID = 270663744x
   3.129213 1  10734099x       Rx   d 6 24 46 00 7D 00 00  Length = 3568216 BitCount = 123 ID = 275988633x
   3.133626 1  1022E040x       Rx   d 8 20 00 00 00 20 00 00 00  Length = 4288208 BitCount = 147 ID = 270721088x
   3.143199 1  10230040x       Rx   d 8 30 00 00 00 30 00 00 00  Length = 4254577 BitCount = 146 ID = 270729280x
   3.163158 1  1022A040x       Rx   d 8 00 B0 00 12 42 00 00 22  Length = 4138208 BitCount = 142 ID = 270704704x
   3.167663 1  1022C040x       Rx   d 6 00 10 00 20 00 00  Length = 3688216 BitCount = 127 ID = 270712896x
   3.173248 1  10240040x       Rx   d 8 83 FF 88 01 00 F0 0F FC  Length = 4228223 BitCount = 145 ID = 270794816x
   3.181293 1  10242040x       Rx   d 1 02  Length = 2308248 BitCount = 81 ID = 270803008x
   3.187868 1  10248040x       Rx   d 7 00 00 61 CD CC 00 00  Length = 3868212 BitCount = 133 ID = 270827584x
   3.193211 1  102CA040x       Rx   d 8 00 40 0C A9 29 00 F1 00  Length = 4078212 BitCount = 140 ID = 271360064x
   3.198106 1  102CC040x       Rx   d 8 00 09 CF 66 00 87 06 A5  Length = 4078227 BitCount = 140 ID = 271368256x
   3.203297 1  10264040x       Rx   d 8 04 06 00 00 00 00 00 38  Length = 4258208 BitCount = 146 ID = 270942272x
   3.208159 1  102CE040x       Rx   d 8 90 00 65 7F 00 00 26 A5  Length = 4108212 BitCount = 141 ID = 271376448x
   3.213322 1  10210040x       Rx   d 8 00 00 00 00 00 00 00 00  Length = 4288208 BitCount = 147 ID = 270598208x
   3.216293 1  106B0040x       Rx   d 1 00  Length = 2308248 BitCount = 81 ID = 275447872x
   3.223348 1  10220040x       Rx   d 8 10 00 00 00 00 04 00 00  Length = 4318208 BitCount = 148 ID = 270663744x
   3.233375 1  1022E040x       Rx   d 8 00 00 00 00 00 00 00 00  Length = 4318208 BitCount = 148 ID = 270721088x
   3.238358 1  10780040x       Rx   d 8 00 00 01 04 08 00 00 22  Length = 4288223 BitCount = 147 ID = 276299840x
   3.242796 1  C800040x        Rx   d 6 08 CB 00 00 7E F6  Length = 3654601 BitCount = 126 ID = 209715264x
   3.248261 1  10230040x       Rx   d 8 10 00 00 00 10 00 00 00  Length = 4258208 BitCount = 146 ID = 270729280x
   3.263238 1  10240040x       Rx   d 8 83 FF 88 01 00 F0 0F FC  Length = 4228208 BitCount = 145 ID = 270794816x
   3.268342 1  106B8040x       Rx   d 8 00 00 00 00 00 00 00 00  Length = 4318208 BitCount = 148 ID = 275480640x
   3.272273 1  102C0040x       Rx   d 5 AE EF 44 59 03  Length = 3298224 BitCount = 114 ID = 271319104x
   3.283139 1  102CA040x       Rx   d 8 00 40 0C B6 29 00 F1 00  Length = 4078212 BitCount = 140 ID = 271360064x
   3.288388 1  10306099x       Rx   d 3 44 59 01  Length = 2754642 BitCount = 96 ID = 271605913x
   3.294837 1  10304058x       Rx   d 3 44 59 01  Length = 2724642 BitCount = 95 ID = 271597656x
   3.303242 1  10264040x       Rx   d 8 04 06 00 00 00 00 00 25  Length = 4228208 BitCount = 145 ID = 270942272x
   3.308312 1  1043A040x       Rx   d 8 00 00 36 00 00 00 00 00  Length = 4284562 BitCount = 147 ID = 272867392x
   3.311227 1  10308060x       Rx   d 3 44 59 01  Length = 2788236 BitCount = 97 ID = 271614048x
   3.315639 1  10210040x       Rx   d 8 00 00 00 00 00 00 00 00  Length = 4288208 BitCount = 147 ID = 270598208x
   3.323441 1  10220040x       Rx   d 8 10 00 00 00 00 06 00 00  Length = 4288208 BitCount = 147 ID = 270663744x
   3.328062 1  1080A040x       Rx   d 7 00 00 00 00 00 00 00  Length = 4018212 BitCount = 138 ID = 276865088x
   3.331753 1  631             Rx   d 8 00 40 00 00 00 00 00 00  Length = 3564590 BitCount = 123 ID = 1585
   3.336162 1  1022E040x       Rx   d 8 20 00 00 00 20 00 00 00  Length = 4284562 BitCount = 147 ID = 270721088x
   3.341297 1  62C             Rx   d 8 00 40 00 00 00 00 00 00  Length = 3628216 BitCount = 125 ID = 1580
   3.345675 1  10230040x       Rx   d 8 30 00 00 00 30 00 00 00  Length = 4254562 BitCount = 146 ID = 270729280x
   3.351470 1  106B0040x       Rx   d 1 00  Length = 2308263 BitCount = 81 ID = 275447872x
   3.363265 1  10240040x       Rx   d 8 83 FF 88 01 00 F0 0F FC  Length = 4228208 BitCount = 145 ID = 270794816x
   3.383216 1  102CA040x       Rx   d 8 00 40 0C A6 29 00 F1 00  Length = 4134566 BitCount = 142 ID = 271360064x
   3.403295 1  10264040x       Rx   d 8 04 06 00 00 00 00 00 39  Length = 4228208 BitCount = 145 ID = 270942272x
   3.413351 1  10210040x       Rx   d 8 00 00 00 00 00 00 00 00  Length = 4288208 BitCount = 147 ID = 270598208x
   3.418214 1  1022A040x       Rx   d 8 00 B0 00 12 42 00 00 22  Length = 4138223 BitCount = 142 ID = 270704704x
   3.423438 1  10220040x       Rx   d 8 10 00 00 00 00 07 00 00  Length = 4318208 BitCount = 148 ID = 270663744x
   3.427729 1  1022C040x       Rx   d 6 00 10 00 20 00 00  Length = 3684597 BitCount = 127 ID = 270712896x
   3.433404 1  1022E040x       Rx   d 8 00 00 00 00 00 00 00 00  Length = 4318208 BitCount = 148 ID = 270721088x
   3.436647 1  10250040x       Rx   d 2 00 03  Length = 2608240 BitCount = 91 ID = 270860352x
   3.443281 1  10230040x       Rx   d 8 10 00 00 00 10 00 00 00  Length = 4258208 BitCount = 146 ID = 270729280x
   3.448232 1  102CC040x       Rx   d 8 00 09 CF 66 00 87 06 A7  Length = 4048212 BitCount = 139 ID = 271368256x
   3.452046 1  108E0080x       Rx   d 6 0E 01 17 02 0C 5B  Length = 3688216 BitCount = 127 ID = 277741696x
   3.456246 1  102CE040x       Rx   d 8 90 00 64 7F 00 00 26 A5  Length = 4074566 BitCount = 140 ID = 271376448x
   3.463271 1  10240040x       Rx   d 8 83 FE 88 01 00 F0 0F FC  Length = 4198208 BitCount = 144 ID = 270794816x
   3.468227 1  102D0040x       Rx   d 8 01 6A 01 ED 7C 84 00 FF  Length = 4138223 BitCount = 142 ID = 271384640x
   3.473266 1  102E0040x       Rx   d 8 00 33 CA 71 8A 00 64 80  Length = 4134566 BitCount = 142 ID = 271450176x
   3.477501 1  10466040x       Rx   d 5 00 00 00 00 00  Length = 3448220 BitCount = 119 ID = 273047616x
   3.483262 1  102CA040x       Rx   d 8 00 40 0C AF 29 00 F1 00  Length = 4108212 BitCount = 141 ID = 271360064x
   3.486356 1  106B0040x       Rx   d 1 00  Length = 2308248 BitCount = 81 ID = 275447872x
   3.492779 1  C800040x        Rx   d 6 08 CB 00 00 7E F8  Length = 3688231 BitCount = 127 ID = 209715264x
   3.498394 1  106B8040x       Rx   d 8 00 00 00 00 00 00 00 00  Length = 4318208 BitCount = 148 ID = 275480640x
   3.503437 1  10264040x       Rx   d 8 04 06 00 00 00 00 00 39  Length = 4228208 BitCount = 145 ID = 270942272x
   3.507489 1  106C0040x       Rx   d 5 00 06 0F 07 00  Length = 3448220 BitCount = 119 ID = 275513408x
   3.513402 1  10210040x       Rx   d 8 00 00 00 00 00 00 00 00  Length = 4288223 BitCount = 147 ID = 270598208x
   3.517183 1  1077C040x       Rx   d 4 30 30 01 F4  Length = 3148224 BitCount = 109 ID = 276283456x
   3.523488 1  10220040x       Rx   d 8 10 00 00 00 00 08 00 00  Length = 4318208 BitCount = 148 ID = 270663744x
   3.528414 1  10780040x       Rx   d 8 00 00 01 04 08 00 00 22  Length = 4288223 BitCount = 147 ID = 276299840x
   3.533395 1  1022E040x       Rx   d 8 20 00 00 00 20 00 00 00  Length = 4288208 BitCount = 147 ID = 270721088x
   3.537868 1  10788040x       Rx   d 6 08 00 00 00 00 00  Length = 3778231 BitCount = 130 ID = 276332608x
   3.543423 1  10230040x       Rx   d 8 30 00 00 00 30 00 00 00  Length = 4258208 BitCount = 146 ID = 270729280x
   3.547566 1  10806040x       Rx   d 5 00 00 00 00 19  Length = 3418220 BitCount = 118 ID = 276848704x
   3.553420 1  1043A040x       Rx   d 8 00 00 33 00 00 00 00 00  Length = 4288223 BitCount = 147 ID = 272867392x
   3.563322 1  10240040x       Rx   d 8 83 FF 88 01 00 F0 0F FC  Length = 4228208 BitCount = 145 ID = 270794816x
   3.565546 1  13FFE058x       Rx   d 0  Length = 2098256 BitCount = 74 ID = 335536216x
   3.572389 1  102C0040x       Rx   d 5 AE EF 44 59 03  Length = 3298239 BitCount = 114 ID = 271319104x
   3.583253 1  102CA040x       Rx   d 8 00 40 0C C7 29 00 F1 00  Length = 4108212 BitCount = 141 ID = 271360064x
   3.588386 1  10306099x       Rx   d 3 44 59 01  Length = 2758236 BitCount = 96 ID = 271605913x
   3.591298 1  10308060x       Rx   d 3 44 59 01  Length = 2788236 BitCount = 97 ID = 271614048x
   3.594747 1  10304058x       Rx   d 3 44 59 01  Length = 2724657 BitCount = 95 ID = 271597656x
   3.603330 1  10264040x       Rx   d 8 04 06 00 00 00 00 00 27  Length = 4224562 BitCount = 145 ID = 270942272x
   3.606395 1  106B0040x       Rx   d 1 00  Length = 2308248 BitCount = 81 ID = 275447872x
   3.613449 1  10210040x       Rx   d 8 00 00 00 00 00 00 00 00  Length = 4288223 BitCount = 147 ID = 270598208x
   3.623445 1  10220040x       Rx   d 8 10 00 00 00 00 04 00 00  Length = 4318208 BitCount = 148 ID = 270663744x
   3.629207 1  10734099x       Rx   d 6 24 46 00 7D 00 00  Length = 3568216 BitCount = 123 ID = 275988633x
   3.633649 1  1022E040x       Rx   d 8 00 00 00 00 00 00 00 00  Length = 4318208 BitCount = 148 ID = 270721088x
   3.643308 1  10230040x       Rx   d 8 10 00 00 00 10 00 00 00  Length = 4254577 BitCount = 146 ID = 270729280x
   3.663267 1  1022A040x       Rx   d 8 00 B0 00 12 42 00 00 22  Length = 4138208 BitCount = 142 ID = 270704704x
   3.667802 1  1022C040x       Rx   d 6 00 10 00 20 00 00  Length = 3688216 BitCount = 127 ID = 270712896x
   3.673357 1  10240040x       Rx   d 8 83 FE 88 01 00 F0 0F FC  Length = 4198208 BitCount = 144 ID = 270794816x
   3.678460 1  106B8040x       Rx   d 8 00 00 00 00 00 00 00 00  Length = 4318223 BitCount = 148 ID = 275480640x
   3.680653 1  13FFE0AFx       Rx   d 0  Length = 2068260 BitCount = 73 ID = 335536303x
   3.684646 1  10248040x       Rx   d 7 00 00 61 CD CC 00 00  Length = 3868212 BitCount = 133 ID = 270827584x
   3.693286 1  102CA040x       Rx   d 8 00 40 0C C7 29 00 F1 00  Length = 4104566 BitCount = 141 ID = 271360064x
   3.698239 1  102CC040x       Rx   d 8 00 09 CF 66 00 87 06 A5  Length = 4078212 BitCount = 140 ID = 271368256x
   3.703373 1  10264040x       Rx   d 8 04 06 00 00 00 00 00 3B  Length = 4228208 BitCount = 145 ID = 270942272x
   3.708264 1  102CE040x       Rx   d 8 90 00 64 7F 00 00 26 A5  Length = 4078227 BitCount = 140 ID = 271376448x
   3.713453 1  10210040x       Rx   d 8 00 00 00 00 00 00 00 00  Length = 4284562 BitCount = 147 ID = 270598208x
   3.723450 1  10220040x       Rx   d 8 10 00 00 00 00 03 00 00  Length = 4318223 BitCount = 148 ID = 270663744x
   3.726423 1  106B0040x       Rx   d 1 00  Length = 2308248 BitCount = 81 ID = 275447872x
   3.733446 1  1022E040x       Rx   d 8 20 00 00 00 20 00 00 00  Length = 4288208 BitCount = 147 ID = 270721088x
   3.738487 1  10780040x       Rx   d 8 00 00 01 04 08 00 00 22  Length = 4288208 BitCount = 147 ID = 276299840x
   3.742900 1  C800040x        Rx   d 6 08 CB 00 00 7E FB  Length = 3658216 BitCount = 126 ID = 209715264x
   3.748396 1  10230040x       Rx   d 8 30 00 00 00 30 00 00 00  Length = 4258208 BitCount = 146 ID = 270729280x
   3.763371 1  10240040x       Rx   d 8 83 FF 88 01 00 F0 0F FC  Length = 4228208 BitCount = 145 ID = 270794816x
   3.783327 1  102CA040x       Rx   d 8 00 40 0C AB 29 00 F1 00  Length = 4104581 BitCount = 141 ID = 271360064x
   3.803435 1  10264040x       Rx   d 8 04 06 00 00 00 00 00 3A  Length = 4198208 BitCount = 144 ID = 270942272x
   3.808449 1  1043A040x       Rx   d 8 00 00 33 00 00 00 00 00  Length = 4288208 BitCount = 147 ID = 272867392x
   3.813462 1  10210040x       Rx   d 8 00 00 00 00 00 00 00 00  Length = 4288208 BitCount = 147 ID = 270598208x
   3.823514 1  10220040x       Rx   d 8 10 00 00 00 00 06 00 00  Length = 4288208 BitCount = 147 ID = 270663744x
   3.833479 1  1022E040x       Rx   d 8 00 00 00 00 00 00 00 00  Length = 4318208 BitCount = 148 ID = 270721088x
   3.843473 1  10230040x       Rx   d 8 10 00 00 00 10 00 00 00  Length = 4258208 BitCount = 146 ID = 270729280x
   3.846446 1  106B0040x       Rx   d 1 00  Length = 2308248 BitCount = 81 ID = 275447872x
   3.848606 1  13FFE0BBx       Rx   d 0  Length = 2034718 BitCount = 72 ID = 335536315x
   3.863396 1  10240040x       Rx   d 8 83 FF 88 01 00 F0 0F FC  Length = 4224562 BitCount = 145 ID = 270794816x
   3.868501 1  106B8040x       Rx   d 8 00 00 00 00 00 00 00 00  Length = 4318208 BitCount = 148 ID = 275480640x
   3.871682 1  10448060x       Rx   d 4 00 00 45 00  Length = 3058243 BitCount = 106 ID = 272924768x
   3.875101 1  102C0040x       Rx   d 5 AE EF 44 59 03  Length = 3294606 BitCount = 114 ID = 271319104x
   3.883357 1  102CA040x       Rx   d 8 00 40 0C C5 29 00 F1 00  Length = 4108212 BitCount = 141 ID = 271360064x
   3.888370 1  10306099x       Rx   d 3 44 59 01  Length = 2758251 BitCount = 96 ID = 271605913x
   3.890593 1  13FFE060x       Rx   d 0  Length = 2098271 BitCount = 74 ID = 335536224x
   3.894316 1  621             Rx   d 8 00 52 00 00 00 00 00 00  Length = 3598216 BitCount = 124 ID = 1569
   3.897231 1  13FFE080x       Rx   d 0  Length = 2068275 BitCount = 73 ID = 335536256x
   3.903410 1  10264040x       Rx   d 8 04 06 00 00 00 00 00 3A  Length = 4194562 BitCount = 144 ID = 270942272x
   3.906265 1  10304058x       Rx   d 3 44 59 01  Length = 2728236 BitCount = 95 ID = 271597656x
   3.910467 1  10308060x       Rx   d 3 44 59 01  Length = 2788236 BitCount = 97 ID = 271614048x
   3.914881 1  10210040x       Rx   d 8 00 00 00 00 00 00 00 00  Length = 4288208 BitCount = 147 ID = 270598208x
   3.917730 1  13FFE099x       Rx   d 0  Length = 2064714 BitCount = 73 ID = 335536281x
   3.923585 1  10220040x       Rx   d 8 10 00 00 00 00 06 00 00  Length = 4288208 BitCount = 147 ID = 270663744x
   3.928358 1  1022A040x       Rx   d 8 00 B0 00 12 42 00 00 22  Length = 4138208 BitCount = 142 ID = 270704704x
   3.932921 1  1022C040x       Rx   d 6 00 10 00 20 00 00  Length = 3688216 BitCount = 127 ID = 270712896x
   3.938477 1  1022E040x       Rx   d 8 20 00 00 00 20 00 00 00  Length = 4288208 BitCount = 147 ID = 270721088x
   3.943400 1  10230040x       Rx   d 8 30 00 00 00 30 00 00 00  Length = 4258208 BitCount = 146 ID = 270729280x
   3.948323 1  102CC040x       Rx   d 8 00 09 CF 66 00 87 06 A4  Length = 4048212 BitCount = 139 ID = 271368256x
   3.953334 1  102CE040x       Rx   d 8 90 00 65 7F 00 00 26 A5  Length = 4108212 BitCount = 141 ID = 271376448x
   3.958347 1  102D0040x       Rx   d 8 01 6A 01 ED 7C 83 00 FF  Length = 4138208 BitCount = 142 ID = 271384640x
   3.963449 1  10240040x       Rx   d 8 83 FF 88 01 00 F0 0F FC  Length = 4228208 BitCount = 145 ID = 270794816x
   3.967258 1  10324058x       Rx   d 6 00 00 03 FF 00 00  Length = 3684586 BitCount = 127 ID = 271728728x
   3.969687 1  106B0040x       Rx   d 1 00  Length = 2304686 BitCount = 81 ID = 275447872x
   3.977609 1  10806040x       Rx   d 5 00 00 00 00 19  Length = 3414598 BitCount = 118 ID = 276848704x
   3.983403 1  102CA040x       Rx   d 8 00 40 0C BD 29 00 F1 00  Length = 4138208 BitCount = 142 ID = 271360064x
   3.988535 1  10780040x       Rx   d 8 00 00 01 04 08 00 00 22  Length = 4288208 BitCount = 147 ID = 276299840x
   3.993032 1  C800040x        Rx   d 6 08 CB 00 00 7E FE  Length = 3654601 BitCount = 126 ID = 209715264x
   3.997987 1  10788040x       Rx   d 6 08 00 00 00 00 00  Length = 3778216 BitCount = 130 ID = 276332608x
   4.002262 1  Statistic: D 4 R 0 XD 153 XR 0 E 0 O 0 B 61.36%
   4.002262 2  Statistic: D 0 R 0 XD 0 XR 0 E 0 O 0 B 0.00%
   4.002262 3  Statistic: D 0 R 0 XD 0 XR 0 E 0 O 0 B 0.00%
   4.002726 Li SleepModeEvent 0 entering sleep mode due to bus idle timeout
   4.003420 1  10264040x       Rx   d 8 04 06 00 00 00 00 00 27  Length = 4228208 BitCount = 145 ID = 270942272x
   4.013505 1  10210040x       Rx   d 8 00 00 00 00 00 00 00 00  Length = 4288208 BitCount = 147 ID = 270598208x
   4.023560 1  10220040x       Rx   d 8 10 00 00 00 00 06 00 00  Length = 4288208 BitCount = 147 ID = 270663744x
   4.033554 1  1022E040x       Rx   d 8 00 00 00 00 00 00 00 00  Length = 4318208 BitCount = 148 ID = 270721088x
   4.043518 1  10230040x       Rx   d 8 10 00 00 00 10 00 00 00  Length = 4258223 BitCount = 146 ID = 270729280x
   4.053483 1  1043A040x       Rx   d 8 00 00 36 00 00 00 00 00  Length = 4288208 BitCount = 147 ID = 272867392x
   4.063477 1  10240040x       Rx   d 8 83 FF 88 01 00 F0 0F FC  Length = 4228208 BitCount = 145 ID = 270794816x
   4.068551 1  106B8040x       Rx   d 8 00 00 00 00 00 00 00 00  Length = 4318208 BitCount = 148 ID = 275480640x
   4.083406 1  102CA040x       Rx   d 8 00 40 0C AD 29 00 F1 00  Length = 4108212 BitCount = 141 ID = 271360064x
   4.086499 1  106B0040x       Rx   d 1 00  Length = 2308248 BitCount = 81 ID = 275447872x
   4.103457 1  10264040x       Rx   d 8 04 06 00 00 00 00 00 3A  Length = 4198208 BitCount = 144 ID = 270942272x
   4.113540 1  10210040x       Rx   d 8 00 00 00 00 00 00 00 00  Length = 4288208 BitCount = 147 ID = 270598208x
   4.123594 1  10220040x       Rx   d 8 10 00 00 00 00 06 00 00  Length = 4288208 BitCount = 147 ID = 270663744x
   4.127467 1  10708040x       Rx   d 5 02 24 02 24 3A  Length = 3268239 BitCount = 113 ID = 275808320x
   4.131157 1  10734099x       Rx   d 6 24 46 00 7D 00 00  Length = 3564590 BitCount = 123 ID = 275988633x
   4.135571 1  1022E040x       Rx   d 8 20 00 00 00 20 00 00 00  Length = 4288208 BitCount = 147 ID = 270721088x
   4.143587 1  10230040x       Rx   d 8 30 00 00 00 30 00 00 00  Length = 4258208 BitCount = 146 ID = 270729280x
   4.163392 1  1022A040x       Rx   d 8 00 B0 00 12 42 00 00 22  Length = 4134566 BitCount = 142 ID = 270704704x
   4.167927 1  1022C040x       Rx   d 6 00 10 00 20 00 00  Length = 3688216 BitCount = 127 ID = 270712896x
   4.173453 1  10240040x       Rx   d 8 83 FE 88 01 00 F0 0F FC  Length = 4198208 BitCount = 144 ID = 270794816x
   4.177506 1  102C0040x       Rx   d 5 AE EF 44 59 03  Length = 3298224 BitCount = 114 ID = 271319104x
   4.183119 1  10248040x       Rx   d 7 00 00 61 CD CC FF 00  Length = 3868212 BitCount = 133 ID = 270827584x
   4.188368 1  102CA040x       Rx   d 8 00 40 0C A5 29 00 F1 00  Length = 4074566 BitCount = 140 ID = 271360064x
   4.191279 1  10308060x       Rx   d 3 44 59 01  Length = 2784638 BitCount = 97 ID = 271614048x
   4.195452 1  102CC040x       Rx   d 8 00 09 CF 66 00 87 06 A7  Length = 4048212 BitCount = 139 ID = 271368256x
   4.203524 1  10264040x       Rx   d 8 04 06 00 00 00 00 00 38  Length = 4258223 BitCount = 146 ID = 270942272x
   4.206374 1  10304058x       Rx   d 3 44 59 01  Length = 2724642 BitCount = 95 ID = 271597656x
   4.210578 1  102CE040x       Rx   d 8 90 00 64 7F 00 00 26 A5  Length = 4078227 BitCount = 140 ID = 271376448x
   4.218556 1  10210040x       Rx   d 8 00 00 00 00 00 00 00 00  Length = 4284562 BitCount = 147 ID = 270598208x
   4.223571 1  10220040x       Rx   d 8 10 00 00 00 00 07 00 00  Length = 4318208 BitCount = 148 ID = 270663744x
   4.226542 1  106B0040x       Rx   d 1 00  Length = 2308248 BitCount = 81 ID = 275447872x
   4.233346 CAN 1 Status:chip status error active  - TxErr: 0 RxErr: 1
   4.233353 1  ErrorFrame	Flags = 0xfffe	CodeExt = 0x2072	Code = 0x81	ID = 0x9022e040	DLC = 8	Position = 120	Length = 4134375	Data = 0  0  0  0  0  0  0  0
   4.237965 CAN 1 Status:chip status error active
   4.237995 CAN 1 Status:chip status error active  - TxErr: 0 RxErr: 1
   4.238002 1  ErrorFrame	Flags = 0xfffe	CodeExt = 0x2072	Code = 0x81	ID = 0x9022e040	DLC = 8	Position = 120	Length = 4134375	Data = 0  0  0  0  0  0  0  0
   4.242614 CAN 1 Status:chip status error active
   4.242832 1  1022E040x       Rx   d 8 00 00 00 00 00 00 00 00  Length = 4314573 BitCount = 148 ID = 270721088x
   4.245716 1  10306099x       Rx   d 3 44 59 01  Length = 2758236 BitCount = 96 ID = 271605913x
   4.249529 1  C800040x        Rx   d 6 08 CB 00 00 7F 01  Length = 3688216 BitCount = 127 ID = 209715264x
   4.258475 1  10230040x       Rx   d 8 20 00 00 00 20 00 00 00  Length = 4258223 BitCount = 146 ID = 270729280x
   4.263489 1  10240040x       Rx   d 8 83 FE 88 01 00 F0 0F FC  Length = 4198208 BitCount = 144 ID = 270794816x
   4.266162 1  13FFE068x       Rx   d 0  Length = 2068260 BitCount = 73 ID = 335536232x
   4.270604 1  106B8040x       Rx   d 8 00 00 00 00 00 00 00 00  Length = 4318208 BitCount = 148 ID = 275480640x
   4.278618 1  10780040x       Rx   d 8 00 00 01 04 08 00 00 22  Length = 4288208 BitCount = 147 ID = 276299840x
   4.281318 1  106D0080x       Rx   d 2 00 00  Length = 2574658 BitCount = 90 ID = 275579008x
   4.285582 1  102CA040x       Rx   d 8 00 40 0C A1 29 00 F1 00  Length = 4138223 BitCount = 142 ID = 271360064x
   4.291314 1  13FFE040x       Rx   d 0  Length = 2068260 BitCount = 73 ID = 335536192x
   4.303558 1  10264040x       Rx   d 8 04 06 00 00 00 00 00 25  Length = 4228223 BitCount = 145 ID = 270942272x
   4.308574 1  1043A040x       Rx   d 8 00 00 36 00 00 00 00 00  Length = 4288208 BitCount = 147 ID = 272867392x
   4.313583 1  10210040x       Rx   d 8 00 00 00 00 00 00 00 00  Length = 4284562 BitCount = 147 ID = 270598208x
   4.318298 1  1080A040x       Rx   d 7 00 00 00 00 00 00 00  Length = 4018212 BitCount = 138 ID = 276865088x
   4.323698 1  10220040x       Rx   d 8 10 00 00 00 00 03 00 00  Length = 4314558 BitCount = 148 ID = 270663744x
   4.333604 1  1022E040x       Rx   d 8 20 00 00 00 20 00 00 00  Length = 4288208 BitCount = 147 ID = 270721088x
   4.343508 1  10230040x       Rx   d 8 30 00 00 00 30 00 00 00  Length = 4258223 BitCount = 146 ID = 270729280x
   4.346691 1  106B0040x       Rx   d 1 00  Length = 2308263 BitCount = 81 ID = 275447872x
   4.363527 1  10240040x       Rx   d 8 83 FF 88 01 00 F0 0F FC  Length = 4228208 BitCount = 145 ID = 270794816x
   4.383451 1  102CA040x       Rx   d 8 00 40 0C 9C 29 00 F1 00  Length = 4104566 BitCount = 141 ID = 271360064x
   4.403529 1  10264040x       Rx   d 8 04 06 00 00 00 00 00 39  Length = 4228208 BitCount = 145 ID = 270942272x
   4.413616 1  10210040x       Rx   d 8 00 00 00 00 00 00 00 00  Length = 4288208 BitCount = 147 ID = 270598208x
   4.418479 1  1022A040x       Rx   d 8 00 B0 00 12 42 00 00 22  Length = 4138208 BitCount = 142 ID = 270704704x
   4.423481 CAN 1 Status:chip status error active  - TxErr: 0 RxErr: 1
   4.423488 1  ErrorFrame	Flags = 0xfffe	CodeExt = 0x2072	Code = 0x81	ID = 0x90220040	DLC = 8	Position = 120	Length = 4134390	Data = 0x10  0  0  0  0  0x4  0  0
   4.428100 CAN 1 Status:chip status error active
   4.428317 1  10220040x       Rx   d 8 10 00 00 00 00 04 00 00  Length = 4314558 BitCount = 148 ID = 270663744x
   4.433062 1  1022C040x       Rx   d 6 00 10 00 20 00 00  Length = 3688216 BitCount = 127 ID = 270712896x
   4.438586 1  1022E040x       Rx   d 8 00 00 00 00 00 00 00 00  Length = 4318208 BitCount = 148 ID = 270721088x
   4.443539 1  10230040x       Rx   d 8 10 00 00 00 10 00 00 00  Length = 4258208 BitCount = 146 ID = 270729280x
   4.446899 1  10250040x       Rx   d 2 00 03  Length = 2604654 BitCount = 91 ID = 270860352x
   4.450653 1  108E0080x       Rx   d 6 0E 01 17 02 0C 5C  Length = 3628216 BitCount = 125 ID = 277741696x
   4.454826 1  102CC040x       Rx   d 8 00 09 CF 66 00 87 06 A8  Length = 4048227 BitCount = 139 ID = 271368256x
   4.463526 1  10240040x       Rx   d 8 83 FE 88 01 00 F0 0F FC  Length = 4194562 BitCount = 144 ID = 270794816x
   4.468451 1  102CE040x       Rx   d 8 90 00 65 7F 00 00 26 A6  Length = 4078212 BitCount = 140 ID = 271376448x
   4.472591 1  102C0040x       Rx   d 5 AE EF 44 59 03  Length = 3294606 BitCount = 114 ID = 271319104x
   4.478476 1  102D0040x       Rx   d 8 01 6A 01 ED 7C 83 00 FF  Length = 4138223 BitCount = 142 ID = 271384640x
   4.483545 1  102CA040x       Rx   d 8 00 40 0C A2 29 00 F1 00  Length = 4134581 BitCount = 142 ID = 271360064x
   4.488530 1  102E0040x       Rx   d 8 00 33 CA 71 8A 00 64 80  Length = 4138208 BitCount = 142 ID = 271450176x
   4.491412 1  10306099x       Rx   d 3 44 59 01  Length = 2758236 BitCount = 96 ID = 271605913x
   4.495196 1  C800040x        Rx   d 6 08 CB 00 00 7F 04  Length = 3658216 BitCount = 126 ID = 209715264x
   4.498046 1  10304058x       Rx   d 3 44 59 01  Length = 2724642 BitCount = 95 ID = 271597656x
   4.503630 1  10264040x       Rx   d 8 04 06 00 00 00 00 00 39  Length = 4228208 BitCount = 145 ID = 270942272x
   4.506603 1  106B0040x       Rx   d 1 00  Length = 2308263 BitCount = 81 ID = 275447872x
   4.510447 1  10308060x       Rx   d 3 44 59 01  Length = 2788236 BitCount = 97 ID = 271614048x
   4.514857 1  10210040x       Rx   d 8 00 00 00 00 00 00 00 00  Length = 4284562 BitCount = 147 ID = 270598208x
   4.523713 1  10220040x       Rx   d 8 10 00 00 00 00 06 00 00  Length = 4288208 BitCount = 147 ID = 270663744x
   4.528668 1  106B8040x       Rx   d 8 00 00 00 00 00 00 00 00  Length = 4318223 BitCount = 148 ID = 275480640x
   4.533619 1  1022E040x       Rx   d 8 20 00 00 00 20 00 00 00  Length = 4288208 BitCount = 147 ID = 270721088x
   4.537732 1  106C0040x       Rx   d 5 00 06 0F 07 00  Length = 3448220 BitCount = 119 ID = 275513408x
   4.543554 1  10230040x       Rx   d 8 30 00 00 00 30 00 00 00  Length = 4258208 BitCount = 146 ID = 270729280x
   4.547457 1  1077C040x       Rx   d 4 30 30 01 F4  Length = 3148224 BitCount = 109 ID = 276283456x
   4.553636 1  1043A040x       Rx   d 8 00 00 33 00 00 00 00 00  Length = 4284562 BitCount = 147 ID = 272867392x
   4.558681 1  10780040x       Rx   d 8 00 00 01 04 08 00 00 22  Length = 4288208 BitCount = 147 ID = 276299840x
   4.563603 1  10240040x       Rx   d 8 83 FE 88 01 00 F0 0F FC  Length = 4198223 BitCount = 144 ID = 270794816x
   4.568136 1  10788040x       Rx   d 6 08 00 00 00 00 00  Length = 3778216 BitCount = 130 ID = 276332608x
   4.572791 1  10806040x       Rx   d 5 00 00 00 00 19  Length = 3418220 BitCount = 118 ID = 276848704x
   4.583505 1  102CA040x       Rx   d 8 00 40 0C 96 29 00 F1 00  Length = 4078212 BitCount = 140 ID = 271360064x
   4.603644 1  10264040x       Rx   d 8 04 06 00 00 00 00 00 39  Length = 4228208 BitCount = 145 ID = 270942272x
   4.613639 1  10210040x       Rx   d 8 00 00 00 00 00 00 00 00  Length = 4288208 BitCount = 147 ID = 270598208x
   4.623693 1  10220040x       Rx   d 8 10 00 00 00 00 06 00 00  Length = 4288208 BitCount = 147 ID = 270663744x
   4.626637 1  106B0040x       Rx   d 1 00  Length = 2308263 BitCount = 81 ID = 275447872x
   4.630326 1  10734099x       Rx   d 6 24 46 00 7D 00 00  Length = 3564590 BitCount = 123 ID = 275988633x
   4.634766 1  1022E040x       Rx   d 8 00 00 00 00 00 00 00 00  Length = 4314558 BitCount = 148 ID = 270721088x
   4.643622 1  10230040x       Rx   d 8 10 00 00 00 10 00 00 00  Length = 4258208 BitCount = 146 ID = 270729280x
   4.663521 1  1022A040x       Rx   d 8 00 B0 00 12 42 00 00 22  Length = 4138208 BitCount = 142 ID = 270704704x
   4.668026 1  1022C040x       Rx   d 6 00 10 00 20 00 00  Length = 3688216 BitCount = 127 ID = 270712896x
   4.673612 1  10240040x       Rx   d 8 83 FE 88 01 00 F0 0F FC  Length = 4198208 BitCount = 144 ID = 270794816x
   4.678685 1  106B8040x       Rx   d 8 00 00 00 00 00 00 00 00  Length = 4318223 BitCount = 148 ID = 275480640x
   4.683212 1  10248040x       Rx   d 7 00 00 61 CD CC FE 00  Length = 3834578 BitCount = 132 ID = 270827584x
   4.688557 1  102CA040x       Rx   d 8 00 40 0C AC 29 00 F1 00  Length = 4108223 BitCount = 141 ID = 271360064x
   4.693453 1  102CC040x       Rx   d 8 00 09 CF 66 00 87 06 A7  Length = 4048212 BitCount = 139 ID = 271368256x
   4.697592 1  10708040x       Rx   d 5 02 24 02 24 39  Length = 3264606 BitCount = 113 ID = 275808320x
   4.703597 1  10264040x       Rx   d 8 04 06 00 00 00 00 00 26  Length = 4228208 BitCount = 145 ID = 270942272x
   4.708488 1  102CE040x       Rx   d 8 90 00 65 7F 00 00 26 A6  Length = 4078212 BitCount = 140 ID = 271376448x
   4.713708 1  10210040x       Rx   d 8 00 00 00 00 00 00 00 00  Length = 4284562 BitCount = 147 ID = 270598208x
   4.723704 1  10220040x       Rx   d 8 10 00 00 00 00 07 00 00  Length = 4318223 BitCount = 148 ID = 270663744x
   4.733638 1  1022E040x       Rx   d 8 20 00 00 00 20 00 00 00  Length = 4288223 BitCount = 147 ID = 270721088x
   4.738712 1  10780040x       Rx   d 8 00 00 01 04 08 00 00 22  Length = 4288208 BitCount = 147 ID = 276299840x
   4.742370 1  10734099x       Rx   d 6 24 45 00 7D 00 00  Length = 3534590 BitCount = 122 ID = 275988633x
   4.746214 1  C800040x        Rx   d 6 08 CB 00 00 7F 07  Length = 3718231 BitCount = 128 ID = 209715264x
   4.753717 1  10230040x       Rx   d 8 00 00 00 00 00 00 00 00  Length = 4288208 BitCount = 147 ID = 270729280x
   4.756660 1  106B0040x       Rx   d 1 00  Length = 2308248 BitCount = 81 ID = 275447872x
   4.763596 1  10240040x       Rx   d 8 83 FE 88 01 00 F0 0F FC  Length = 4198208 BitCount = 144 ID = 270794816x
   4.765816 1  13FFE058x       Rx   d 0  Length = 2094725 BitCount = 74 ID = 335536216x
   4.772660 1  102C0040x       Rx   d 5 AE EF 44 59 03  Length = 3298224 BitCount = 114 ID = 271319104x
   4.783587 1  102CA040x       Rx   d 8 00 40 0C B4 29 00 F1 00  Length = 4108212 BitCount = 141 ID = 271360064x
   4.788360 1  10306099x       Rx   d 3 44 59 01  Length = 2758251 BitCount = 96 ID = 271605913x
   4.791269 1  10308060x       Rx   d 3 44 59 01  Length = 2784638 BitCount = 97 ID = 271614048x
   4.794453 1  10304058x       Rx   d 3 44 59 01  Length = 2728251 BitCount = 95 ID = 271597656x
   4.803606 1  10264040x       Rx   d 8 04 06 00 00 00 00 00 39  Length = 4228208 BitCount = 145 ID = 270942272x
   4.808679 1  1043A040x       Rx   d 8 00 00 33 00 00 00 00 00  Length = 4288208 BitCount = 147 ID = 272867392x
   4.813720 1  10210040x       Rx   d 8 00 00 00 00 00 00 00 00  Length = 4288208 BitCount = 147 ID = 270598208x
   4.823745 1  10220040x       Rx   d 8 10 00 00 00 00 07 00 00  Length = 4318223 BitCount = 148 ID = 270663744x
   4.833709 1  1022E040x       Rx   d 8 00 00 00 00 00 00 00 00  Length = 4318208 BitCount = 148 ID = 270721088x
   4.843644 1  10230040x       Rx   d 8 10 00 00 00 10 00 00 00  Length = 4258223 BitCount = 146 ID = 270729280x
   4.849192 1  10734099x       Rx   d 6 24 46 00 7D 00 00  Length = 3564590 BitCount = 123 ID = 275988633x
   4.863628 1  10240040x       Rx   d 8 83 FF 88 01 00 F0 0F FC  Length = 4228208 BitCount = 145 ID = 270794816x
   4.868758 1  106B8040x       Rx   d 8 00 00 00 00 00 00 00 00  Length = 4314558 BitCount = 148 ID = 275480640x
   4.871943 1  10448060x       Rx   d 4 00 00 45 00  Length = 3058243 BitCount = 106 ID = 272924768x
   4.874374 1  106B0040x       Rx   d 1 00  Length = 2308248 BitCount = 81 ID = 275447872x
   4.878902 1  13FFE0AFx       Rx   d 0  Length = 2064714 BitCount = 73 ID = 335536303x
   4.883645 1  102CA040x       Rx   d 8 00 40 0C 9F 29 00 F1 00  Length = 4138208 BitCount = 142 ID = 271360064x
   4.903754 1  10264040x       Rx   d 8 04 06 00 00 00 00 00 39  Length = 4228208 BitCount = 145 ID = 270942272x
   4.907987 1  621             Rx   d 8 00 52 00 00 00 00 00 00  Length = 3598231 BitCount = 124 ID = 1569
   4.913751 1  10210040x       Rx   d 8 00 00 00 00 00 00 00 00  Length = 4288223 BitCount = 147 ID = 270598208x
   4.918582 1  1022A040x       Rx   d 8 00 B0 00 12 42 00 00 22  Length = 4138208 BitCount = 142 ID = 270704704x
   4.923805 1  10220040x       Rx   d 8 10 00 00 00 00 07 00 00  Length = 4318223 BitCount = 148 ID = 270663744x
   4.928096 1  1022C040x       Rx   d 6 00 10 00 20 00 00  Length = 3688216 BitCount = 127 ID = 270712896x
   4.933768 1  1022E040x       Rx   d 8 20 00 00 00 20 00 00 00  Length = 4288208 BitCount = 147 ID = 270721088x
   4.943642 1  10230040x       Rx   d 8 30 00 00 00 30 00 00 00  Length = 4258208 BitCount = 146 ID = 270729280x
   4.948627 1  102CC040x       Rx   d 8 00 09 CF 66 00 87 06 A7  Length = 4048212 BitCount = 139 ID = 271368256x
   4.953549 1  102CE040x       Rx   d 8 90 00 65 7F 00 00 26 A6  Length = 4078227 BitCount = 140 ID = 271376448x
   4.958562 1  102D0040x       Rx   d 8 01 6A 01 ED 7C 82 00 FF  Length = 4108212 BitCount = 141 ID = 271384640x
   4.963663 1  10240040x       Rx   d 8 83 FE 88 01 00 F0 0F FC  Length = 4198208 BitCount = 144 ID = 270794816x
   4.972847 1  10806040x       Rx   d 5 00 00 00 00 19  Length = 3418220 BitCount = 118 ID = 276848704x
   4.983592 1  102CA040x       Rx   d 8 00 40 0C 9B 29 00 F1 00  Length = 4078227 BitCount = 140 ID = 271360064x
   4.988781 1  10780040x       Rx   d 8 00 00 01 04 08 00 00 22  Length = 4284562 BitCount = 147 ID = 276299840x
   4.993193 1  C800040x        Rx   d 6 08 CB 00 00 7F 0A  Length = 3624586 BitCount = 125 ID = 209715264x
   4.996708 1  106B0040x       Rx   d 1 00  Length = 2308263 BitCount = 81 ID = 275447872x
   5.002262 1  Statistic: D 1 R 0 XD 148 XR 0 E 3 O 0 B 60.19%
   5.002262 2  Statistic: D 0 R 0 XD 0 XR 0 E 0 O 0 B 0.00%
   5.002262 3  Statistic: D 0 R 0 XD 0 XR 0 E 0 O 0 B 0.00%
   5.003669 1  10264040x       Rx   d 8 04 06 00 00 00 00 00 26  Length = 4224577 BitCount = 145 ID = 270942272x
   5.008234 1  10788040x       Rx   d 6 08 00 00 00 00 00  Length = 3778231 BitCount = 130 ID = 276332608x
   5.013759 1  10210040x       Rx   d 8 00 00 00 00 00 00 00 00  Length = 4288208 BitCount = 147 ID = 270598208x
   5.023814 1  10220040x       Rx   d 8 10 00 00 00 00 03 00 00  Length = 4318223 BitCount = 148 ID = 270663744x
   5.033778 1  1022E040x       Rx   d 8 00 00 00 00 00 00 00 00  Length = 4318208 BitCount = 148 ID = 270721088x
   5.043803 1  10230040x       Rx   d 8 10 00 00 00 10 00 00 00  Length = 4258208 BitCount = 146 ID = 270729280x
   5.050938 1  13FFE0BBx       Rx   d 0  Length = 2034718 BitCount = 72 ID = 335536315x
   5.055348 1  1043A040x       Rx   d 8 00 00 36 00 00 00 00 00  Length = 4284562 BitCount = 147 ID = 272867392x
   5.063722 1  10240040x       Rx   d 8 83 FF 88 01 00 F0 0F FC  Length = 4228223 BitCount = 145 ID = 270794816x
   5.068795 1  106B8040x       Rx   d 8 00 00 00 00 00 00 00 00  Length = 4318208 BitCount = 148 ID = 275480640x
   5.072758 1  102C0040x       Rx   d 5 AE EF 44 59 03  Length = 3298224 BitCount = 114 ID = 271319104x
   5.083653 1  102CA040x       Rx   d 8 00 40 0C AC 29 00 F1 00  Length = 4108223 BitCount = 141 ID = 271360064x
   5.088364 1  10306099x       Rx   d 3 44 59 01  Length = 2758236 BitCount = 96 ID = 271605913x
   5.090587 1  13FFE060x       Rx   d 0  Length = 2098256 BitCount = 74 ID = 335536224x
   5.094455 1  10304058x       Rx   d 3 44 59 01  Length = 2724657 BitCount = 95 ID = 271597656x
   5.097215 1  13FFE080x       Rx   d 0  Length = 2064714 BitCount = 73 ID = 335536256x
   5.103730 1  10264040x       Rx   d 8 04 06 00 00 00 00 00 39  Length = 4228208 BitCount = 145 ID = 270942272x
   5.110453 1  10308060x       Rx   d 3 44 59 01  Length = 2788236 BitCount = 97 ID = 271614048x
   5.114863 1  10210040x       Rx   d 8 00 00 00 00 00 00 00 00  Length = 4284562 BitCount = 147 ID = 270598208x
   5.117712 1  13FFE099x       Rx   d 0  Length = 2064714 BitCount = 73 ID = 335536281x
   5.123675 CAN 1 Status:chip status error active  - TxErr: 0 RxErr: 1
   5.123683 1  ErrorFrame	Flags = 0xfffe	CodeExt = 0x2072	Code = 0x81	ID = 0x90220040	DLC = 8	Position = 120	Length = 4134375	Data = 0x10  0  0  0  0  0x4  0  0
   5.128294 CAN 1 Status:chip status error active
   5.128512 1  10220040x       Rx   d 8 10 00 00 00 00 04 00 00  Length = 4314573 BitCount = 148 ID = 270663744x
   5.132202 1  10734099x       Rx   d 6 24 46 00 7D 00 00  Length = 3564590 BitCount = 123 ID = 275988633x
   5.136612 1  1022E040x       Rx   d 8 20 00 00 00 20 00 00 00  Length = 4284562 BitCount = 147 ID = 270721088x
   5.143727 1  10230040x       Rx   d 8 30 00 00 00 30 00 00 00  Length = 4258208 BitCount = 146 ID = 270729280x
   5.146791 1  106B0040x       Rx   d 1 00  Length = 2308248 BitCount = 81 ID = 275447872x
   5.163658 1  1022A040x       Rx   d 8 00 B0 00 12 42 00 00 22  Length = 4138223 BitCount = 142 ID = 270704704x
   5.168161 1  1022C040x       Rx   d 6 00 10 00 20 00 00  Length = 3688216 BitCount = 127 ID = 270712896x
   5.173747 1  10240040x       Rx   d 8 83 FF 88 01 00 F0 0F FC  Length = 4228223 BitCount = 145 ID = 270794816x
   5.183351 1  10248040x       Rx   d 7 00 00 62 CD CC FC 00  Length = 3868212 BitCount = 133 ID = 270827584x
   5.188633 1  102CA040x       Rx   d 8 00 40 0C AE 29 00 F1 00  Length = 4074581 BitCount = 140 ID = 271360064x
   5.193588 1  102CC040x       Rx   d 8 00 09 CF 66 00 87 06 A8  Length = 4048212 BitCount = 139 ID = 271368256x
   5.203760 1  10264040x       Rx   d 8 04 06 00 00 00 00 00 39  Length = 4228223 BitCount = 145 ID = 270942272x
   5.208623 1  102CE040x       Rx   d 8 90 00 65 7F 00 00 26 A6  Length = 4078227 BitCount = 140 ID = 271376448x
   5.213843 1  10210040x       Rx   d 8 00 00 00 00 00 00 00 00  Length = 4284573 BitCount = 147 ID = 270598208x
   5.218677 1  10814099x       Rx   d 4 20 44 2E 00  Length = 3058228 BitCount = 106 ID = 276906137x
   5.223839 1  10220040x       Rx   d 8 10 00 00 00 00 04 00 00  Length = 4318208 BitCount = 148 ID = 270663744x
   5.233893 1  1022E040x       Rx   d 8 00 00 00 00 00 00 00 00  Length = 4318208 BitCount = 148 ID = 270721088x
   5.238877 1  10780040x       Rx   d 8 00 00 01 04 08 00 00 22  Length = 4288208 BitCount = 147 ID = 276299840x
   5.243168 1  C800040x        Rx   d 6 08 CB 00 00 7F 0D  Length = 3628216 BitCount = 125 ID = 209715264x
   5.248749 1  10230040x       Rx   d 8 10 00 00 00 10 00 00 00  Length = 4258208 BitCount = 146 ID = 270729280x
   5.263727 1  10240040x       Rx   d 8 83 FF 88 01 00 F0 0F FC  Length = 4228223 BitCount = 145 ID = 270794816x
   5.266790 1  106B0040x       Rx   d 1 00  Length = 2308248 BitCount = 81 ID = 275447872x
   5.273993 1  106B8040x       Rx   d 8 00 00 00 00 00 00 00 00  Length = 4318223 BitCount = 148 ID = 275480640x
   5.283660 1  102CA040x       Rx   d 8 00 40 0C A3 29 00 F1 00  Length = 4078212 BitCount = 140 ID = 271360064x
   5.303799 1  10264040x       Rx   d 8 04 06 00 00 00 00 00 26  Length = 4228223 BitCount = 145 ID = 270942272x
   5.308810 1  1043A040x       Rx   d 8 00 00 36 00 00 00 00 00  Length = 4284562 BitCount = 147 ID = 272867392x
   5.313855 1  10210040x       Rx   d 8 00 00 00 00 00 00 00 00  Length = 4288208 BitCount = 147 ID = 270598208x
   5.318536 1  1080A040x       Rx   d 7 00 00 00 00 00 00 00  Length = 4018212 BitCount = 138 ID = 276865088x
   5.323912 1  10220040x       Rx   d 8 10 00 00 00 00 05 00 00  Length = 4288208 BitCount = 147 ID = 270663744x
   5.333878 1  1022E040x       Rx   d 8 20 00 00 00 20 00 00 00  Length = 4288223 BitCount = 147 ID = 270721088x
   5.343753 1  10230040x       Rx   d 8 30 00 00 00 30 00 00 00  Length = 4258208 BitCount = 146 ID = 270729280x
   5.363796 1  10240040x       Rx   d 8 83 FF 88 01 00 F0 0F FC  Length = 4224562 BitCount = 145 ID = 270794816x
   5.372802 1  102C0040x       Rx   d 5 AE EF 44 59 03  Length = 3298239 BitCount = 114 ID = 271319104x
   5.383696 1  102CA040x       Rx   d 8 00 40 0C B3 29 00 F1 00  Length = 4108212 BitCount = 141 ID = 271360064x
   5.386820 1  106B0040x       Rx   d 1 00  Length = 2308248 BitCount = 81 ID = 275447872x
   5.389702 1  10306099x       Rx   d 3 44 59 01  Length = 2758236 BitCount = 96 ID = 271605913x
   5.392616 1  10308060x       Rx   d 3 44 59 01  Length = 2788236 BitCount = 97 ID = 271614048x
   5.395466 1  10304058x       Rx   d 3 44 59 01  Length = 2724642 BitCount = 95 ID = 271597656x
   5.403779 1  10264040x       Rx   d 8 04 06 00 00 00 00 00 39  Length = 4228208 BitCount = 145 ID = 270942272x
   5.413864 1  10210040x       Rx   d 8 00 00 00 00 00 00 00 00  Length = 4288208 BitCount = 147 ID = 270598208x
   5.418727 1  1022A040x       Rx   d 8 00 B0 00 12 42 00 00 22  Length = 4138208 BitCount = 142 ID = 270704704x
   5.423887 1  10220040x       Rx   d 8 10 00 00 00 00 05 00 00  Length = 4284562 BitCount = 147 ID = 270663744x
   5.428208 1  1022C040x       Rx   d 6 00 10 00 20 00 00  Length = 3684586 BitCount = 127 ID = 270712896x
   5.433883 1  1022E040x       Rx   d 8 00 00 00 00 00 00 00 00  Length = 4318208 BitCount = 148 ID = 270721088x
   5.437126 1  10250040x       Rx   d 2 00 03  Length = 2608240 BitCount = 91 ID = 270860352x
   5.443789 1  10230040x       Rx   d 8 10 00 00 00 10 00 00 00  Length = 4258208 BitCount = 146 ID = 270729280x
   5.448711 1  102CC040x       Rx   d 8 00 09 CF 66 00 87 06 A7  Length = 4048212 BitCount = 139 ID = 271368256x
   5.452435 1  108E0080x       Rx   d 6 0E 01 17 02 0C 5D  Length = 3598216 BitCount = 124 ID = 277741696x
   5.456635 1  102CE040x       Rx   d 8 90 00 65 7F 00 00 26 A6  Length = 4074566 BitCount = 140 ID = 271376448x
   5.463810 1  10240040x       Rx   d 8 83 FF 88 01 00 F0 0F FC  Length = 4228208 BitCount = 145 ID = 270794816x
   5.466154 1  13FFE068x       Rx   d 0  Length = 2068260 BitCount = 73 ID = 335536232x
   5.470384 1  102D0040x       Rx   d 8 01 6A 01 ED 7C 82 00 FF  Length = 4104581 BitCount = 141 ID = 271384640x
   5.478790 1  102E0040x       Rx   d 8 00 33 CA 71 8A 00 64 80  Length = 4138208 BitCount = 142 ID = 271450176x
   5.481488 1  106D0080x       Rx   d 2 00 00  Length = 2574669 BitCount = 90 ID = 275579008x
   5.485752 1  102CA040x       Rx   d 8 00 40 0C B8 29 00 F1 00  Length = 4138208 BitCount = 142 ID = 271360064x
   5.493284 1  C800040x        Rx   d 6 08 CB 00 00 7F 0F  Length = 3658216 BitCount = 126 ID = 209715264x
   5.497997 1  10466040x       Rx   d 5 00 00 00 00 00  Length = 3448220 BitCount = 119 ID = 273047616x
   5.503850 1  10264040x       Rx   d 8 04 06 00 00 00 00 00 39  Length = 4228208 BitCount = 145 ID = 270942272x
   5.506853 1  106B0040x       Rx   d 1 00  Length = 2308248 BitCount = 81 ID = 275447872x
   5.513873 1  10210040x       Rx   d 8 00 00 00 00 00 00 00 00  Length = 4284573 BitCount = 147 ID = 270598208x
   5.518888 1  106B8040x       Rx   d 8 00 00 00 00 00 00 00 00  Length = 4318208 BitCount = 148 ID = 275480640x
   5.523959 1  10220040x       Rx   d 8 10 00 00 00 00 08 00 00  Length = 4318208 BitCount = 148 ID = 270663744x
   5.527982 1  106C0040x       Rx   d 5 00 06 0F 07 00  Length = 3448220 BitCount = 119 ID = 275513408x
   5.533894 1  1022E040x       Rx   d 8 20 00 00 00 20 00 00 00  Length = 4288208 BitCount = 147 ID = 270721088x
   5.537707 1  1077C040x       Rx   d 4 30 30 01 F4  Length = 3148224 BitCount = 109 ID = 276283456x
   5.543856 1  10230040x       Rx   d 8 30 00 00 00 30 00 00 00  Length = 4254562 BitCount = 146 ID = 270729280x
   5.548931 1  10780040x       Rx   d 8 00 00 01 04 08 00 00 22  Length = 4288208 BitCount = 147 ID = 276299840x
   5.553882 1  1043A040x       Rx   d 8 00 00 33 00 00 00 00 00  Length = 4288223 BitCount = 147 ID = 272867392x
   5.558356 1  10788040x       Rx   d 6 08 00 00 00 00 00  Length = 3778216 BitCount = 130 ID = 276332608x
   5.563851 1  10240040x       Rx   d 8 83 FF 88 01 00 F0 0F FC  Length = 4228208 BitCount = 145 ID = 270794816x
   5.567994 1  10806040x       Rx   d 5 00 00 00 00 19  Length = 3418235 BitCount = 118 ID = 276848704x
   5.571627 1  13FFE040x       Rx   d 0  Length = 2068260 BitCount = 73 ID = 335536192x
   5.583780 1  102CA040x       Rx   d 8 00 40 0C 9F 29 00 F1 00  Length = 4134566 BitCount = 142 ID = 271360064x
   5.603829 1  10264040x       Rx   d 8 04 06 00 00 00 00 00 39  Length = 4228208 BitCount = 145 ID = 270942272x
   5.613915 1  10210040x       Rx   d 8 00 00 00 00 00 00 00 00  Length = 4288208 BitCount = 147 ID = 270598208x
   5.623968 1  10220040x       Rx   d 8 10 00 00 00 00 04 00 00  Length = 4318208 BitCount = 148 ID = 270663744x
   5.626881 1  106B0040x       Rx   d 1 00  Length = 2308248 BitCount = 81 ID = 275447872x
   5.630571 1  10734099x       Rx   d 6 24 46 00 7D 00 00  Length = 3564605 BitCount = 123 ID = 275988633x
   5.635011 1  1022E040x       Rx   d 8 00 00 00 00 00 00 00 00  Length = 4314558 BitCount = 148 ID = 270721088x
   5.643867 1  10230040x       Rx   d 8 10 00 00 00 10 00 00 00  Length = 4258208 BitCount = 146 ID = 270729280x
   5.663796 1  1022A040x       Rx   d 8 00 B0 00 12 42 00 00 22  Length = 4138208 BitCount = 142 ID = 270704704x
   5.668271 1  1022C040x       Rx   d 6 00 10 00 20 00 00  Length = 3688216 BitCount = 127 ID = 270712896x
   5.673826 1  10240040x       Rx   d 8 83 FE 88 01 00 F0 0F FC  Length = 4198223 BitCount = 144 ID = 270794816x
   5.677879 1  102C0040x       Rx   d 5 AE EF 44 59 03  Length = 3298224 BitCount = 114 ID = 271319104x
   5.683492 1  10248040x       Rx   d 7 00 00 62 CD CC FD 00  Length = 3868212 BitCount = 133 ID = 270827584x
   5.688742 1  102CA040x       Rx   d 8 00 40 0C B1 29 00 F1 00  Length = 4074566 BitCount = 140 ID = 271360064x
   5.693727 1  102CC040x       Rx   d 8 00 09 CF 66 00 87 06 A7  Length = 4048212 BitCount = 139 ID = 271368256x
   5.698950 1  106B8040x       Rx   d 8 00 00 00 00 00 00 00 00  Length = 4318208 BitCount = 148 ID = 275480640x
   5.703845 1  10264040x       Rx   d 8 04 06 00 00 00 00 00 26  Length = 4228208 BitCount = 145 ID = 270942272x
   5.706695 1  10304058x       Rx   d 3 44 59 01  Length = 2724642 BitCount = 95 ID = 271597656x
   5.710897 1  102CE040x       Rx   d 8 90 00 65 7F 00 00 26 A6  Length = 4078212 BitCount = 140 ID = 271376448x
