date Tue Sep 20 03:36:03.730 pm 2016
base hex  timestamps absolute
internal events logged
// version 9.0.0
Begin Triggerblock Tue Sep 20 03:36:03.730 pm 2016
   0.000000 Start of measurement
   0.002189 Li SleepModeEvent 0 starting up in wake mode
   0.008498 1  1022E040x       Rx   d 8 00 00 00 00 00 00 00 00  Length = 4318208 BitCount = 148 ID = 270721088x
   0.011888 1  10250040x       Rx   d 2 00 03  Length = 2604669 BitCount = 91 ID = 270860352x
   0.016770 CAN 1 Status:chip status error active
   0.016770 CAN 2 Status:chip status error active
   0.016770 CAN 3 Status:chip status error active
   0.018433 1  10230040x       Rx   d 8 10 00 00 00 10 00 00 00  Length = 4258208 BitCount = 146 ID = 270729280x
   0.023326 1  102CC040x       Rx   d 8 00 09 CF 69 00 87 06 A7  Length = 4078212 BitCount = 140 ID = 271368256x
   0.028339 1  102CE040x       Rx   d 8 90 00 65 7F 00 00 26 A7  Length = 4078212 BitCount = 140 ID = 271376448x
   0.033438 1  102D0040x       Rx   d 8 01 68 01 ED 7C 8A 00 FF  Length = 4194562 BitCount = 144 ID = 271384640x
   0.038424 1  10240040x       Rx   d 8 83 FF 88 01 01 08 0F FC  Length = 4198208 BitCount = 144 ID = 270794816x
   0.043495 1  102E0040x       Rx   d 8 00 33 CA 6E 8A 00 62 81  Length = 4138223 BitCount = 142 ID = 271450176x
   0.046498 1  106B0040x       Rx   d 1 00  Length = 2308263 BitCount = 81 ID = 275447872x
   0.053547 1  106B8040x       Rx   d 8 00 00 00 00 00 00 00 00  Length = 4314558 BitCount = 148 ID = 275480640x
   0.058412 1  102CA040x       Rx   d 8 00 40 0C DA 2B 00 F1 00  Length = 4108212 BitCount = 141 ID = 271360064x
   0.062642 1  106C0040x       Rx   d 5 00 06 0F 07 00  Length = 3444609 BitCount = 119 ID = 275513408x
   0.067863 1  C800040x        Rx   d 6 08 CB 00 00 23 16  Length = 3624586 BitCount = 125 ID = 209715264x
   0.072488 1  1077C040x       Rx   d 4 30 30 01 F4  Length = 3148224 BitCount = 109 ID = 276283456x
   0.078461 1  10264040x       Rx   d 8 04 06 00 00 00 00 00 29  Length = 4228208 BitCount = 145 ID = 270942272x
   0.083682 1  10780040x       Rx   d 8 00 00 01 04 08 00 00 22  Length = 4288208 BitCount = 147 ID = 276299840x
   0.088543 1  10210040x       Rx   d 8 00 00 00 00 00 00 00 00  Length = 4288223 BitCount = 147 ID = 270598208x
   0.092983 1  10788040x       Rx   d 6 08 00 00 00 00 00  Length = 3774582 BitCount = 130 ID = 276332608x
   0.098568 1  10220040x       Rx   d 8 10 00 00 00 00 04 00 00  Length = 4318208 BitCount = 148 ID = 270663744x
   0.102651 1  10806040x       Rx   d 5 00 00 00 00 19  Length = 3418220 BitCount = 118 ID = 276848704x
   0.108474 1  1022E040x       Rx   d 8 20 00 00 00 20 00 00 00  Length = 4288208 BitCount = 147 ID = 270721088x
   0.118439 1  10230040x       Rx   d 8 30 00 00 00 30 00 00 00  Length = 4258208 BitCount = 146 ID = 270729280x
   0.122755 1  13FFE0BBx       Rx   d 0  Length = 2034718 BitCount = 72 ID = 335536315x
   0.128577 1  1043A040x       Rx   d 8 00 00 38 00 00 00 00 00  Length = 4348208 BitCount = 149 ID = 272867392x
   0.138451 1  10240040x       Rx   d 8 83 FF 88 01 01 08 0F FC  Length = 4198223 BitCount = 144 ID = 270794816x
   0.147486 1  102C0040x       Rx   d 5 AE EF 44 59 03  Length = 3298224 BitCount = 114 ID = 271319104x
   0.158412 1  102CA040x       Rx   d 8 00 40 0C D3 2B 00 F1 00  Length = 4108212 BitCount = 141 ID = 271360064x
   0.161564 1  106B0040x       Rx   d 1 00  Length = 2308248 BitCount = 81 ID = 275447872x
   0.166756 1  10308060x       Rx   d 3 44 59 01  Length = 2788236 BitCount = 97 ID = 271614048x
   0.169604 1  10304058x       Rx   d 3 44 59 01  Length = 2724642 BitCount = 95 ID = 271597656x
   0.172487 1  10306099x       Rx   d 3 44 59 01  Length = 2758251 BitCount = 96 ID = 271605913x
   0.178431 1  10264040x       Rx   d 8 04 06 00 00 00 00 00 3D  Length = 4198223 BitCount = 144 ID = 270942272x
   0.188544 1  10210040x       Rx   d 8 00 00 00 00 00 00 00 00  Length = 4288208 BitCount = 147 ID = 270598208x
   0.198538 1  10220040x       Rx   d 8 10 00 00 00 00 06 00 00  Length = 4288208 BitCount = 147 ID = 270663744x
   0.208532 1  1022E040x       Rx   d 8 00 00 00 00 00 00 00 00  Length = 4318208 BitCount = 148 ID = 270721088x
   0.212257 1  10734099x       Rx   d 6 24 41 00 7D 00 00  Length = 3598216 BitCount = 124 ID = 275988633x
   0.218469 1  10230040x       Rx   d 8 10 00 00 00 10 00 00 00  Length = 4258223 BitCount = 146 ID = 270729280x
   0.238426 1  1022A040x       Rx   d 8 00 B0 00 12 42 00 00 22  Length = 4138223 BitCount = 142 ID = 270704704x
   0.242931 1  1022C040x       Rx   d 6 00 10 00 20 00 00  Length = 3688231 BitCount = 127 ID = 270712896x
   0.248486 1  10240040x       Rx   d 8 83 FE 88 01 01 08 0F FC  Length = 4198208 BitCount = 144 ID = 270794816x
   0.253589 1  106B8040x       Rx   d 8 00 00 00 00 00 00 00 00  Length = 4318208 BitCount = 148 ID = 275480640x
   0.258117 1  10248040x       Rx   d 7 00 00 6D D0 CC 08 00  Length = 3864578 BitCount = 133 ID = 270827584x
   0.263402 1  102CA040x       Rx   d 8 00 40 0C CE 2B 00 F1 00  Length = 4078212 BitCount = 140 ID = 271360064x
   0.268447 1  102CC040x       Rx   d 8 00 09 CF 69 00 87 06 A9  Length = 4048212 BitCount = 139 ID = 271368256x
   0.271298 1  13FFE040x       Rx   d 0  Length = 2068260 BitCount = 73 ID = 335536192x
   0.278503 1  10264040x       Rx   d 8 04 06 00 00 00 00 00 3D  Length = 4198208 BitCount = 144 ID = 270942272x
   0.283428 1  102CE040x       Rx   d 8 90 00 66 7F 00 00 26 A9  Length = 4108223 BitCount = 141 ID = 271376448x
   0.288620 1  10210040x       Rx   d 8 00 00 00 00 00 00 00 00  Length = 4288208 BitCount = 147 ID = 270598208x
   0.291561 1  106B0040x       Rx   d 1 00  Length = 2308263 BitCount = 81 ID = 275447872x
   0.298425 CAN 1 Status:chip status error active  - TxErr: 0 RxErr: 1
   0.298432 1  ErrorFrame	Flags = 0xfffe	CodeExt = 0x2072	Code = 0x81	ID = 0x90220040	DLC = 8	Position = 120	Length = 4104375	Data = 0x10  0  0  0  0  0x6  0  0
   0.303014 CAN 1 Status:chip status error active
   0.303231 1  10220040x       Rx   d 8 10 00 00 00 00 06 00 00  Length = 4284562 BitCount = 147 ID = 270663744x
   0.308607 1  1022E040x       Rx   d 8 20 00 00 00 20 00 00 00  Length = 4288208 BitCount = 147 ID = 270721088x
   0.313618 1  10780040x       Rx   d 8 00 00 01 04 08 00 00 22  Length = 4284562 BitCount = 147 ID = 276299840x
   0.317879 1  C800040x        Rx   d 6 08 CB 00 00 23 1A  Length = 3594590 BitCount = 124 ID = 209715264x
   0.323554 1  10230040x       Rx   d 8 30 00 00 00 30 00 00 00  Length = 4258208 BitCount = 146 ID = 270729280x
   0.338500 1  10240040x       Rx   d 8 83 FF 88 01 01 08 0F FC  Length = 4198208 BitCount = 144 ID = 270794816x
   0.343215 1  10EC4040x       Rx   d 8 4C 41 5A 41 36 39 53 44  Length = 3958212 BitCount = 136 ID = 283918400x
   0.348138 1  10EC8040x       Rx   d 8 48 42 37 30 31 34 39 36  Length = 3898212 BitCount = 134 ID = 283934784x
   0.358459 1  102CA040x       Rx   d 8 00 40 0C D1 2B 00 F1 00  Length = 4104566 BitCount = 141 ID = 271360064x
   0.378504 1  10264040x       Rx   d 8 04 06 00 00 00 00 00 3D  Length = 4194562 BitCount = 144 ID = 270942272x
   0.383575 1  1043A040x       Rx   d 8 00 00 35 00 00 00 00 00  Length = 4284562 BitCount = 147 ID = 272867392x
   0.385770 1  13FFE080x       Rx   d 0  Length = 2068260 BitCount = 73 ID = 335536256x
   0.390178 1  10210040x       Rx   d 8 00 00 00 00 00 00 00 00  Length = 4284562 BitCount = 147 ID = 270598208x
   0.392402 1  13FFE060x       Rx   d 0  Length = 2098256 BitCount = 74 ID = 335536224x
   0.398616 1  10220040x       Rx   d 8 10 00 00 00 00 05 00 00  Length = 4288208 BitCount = 147 ID = 270663744x
   0.400805 1  13FFE099x       Rx   d 0  Length = 2064729 BitCount = 73 ID = 335536281x
   0.408700 1  1022E040x       Rx   d 8 00 00 00 00 00 00 00 00  Length = 4318208 BitCount = 148 ID = 270721088x
   0.411586 1  106B0040x       Rx   d 1 00  Length = 2308248 BitCount = 81 ID = 275447872x
   0.418605 1  10230040x       Rx   d 8 10 00 00 00 10 00 00 00  Length = 4254562 BitCount = 146 ID = 270729280x
   0.438500 1  10240040x       Rx   d 8 83 FF 88 01 01 08 0F FC  Length = 4194562 BitCount = 144 ID = 270794816x
   0.443631 1  106B8040x       Rx   d 8 00 00 00 00 00 00 00 00  Length = 4314558 BitCount = 148 ID = 275480640x
   0.447566 1  102C0040x       Rx   d 5 AE EF 44 59 03  Length = 3298224 BitCount = 114 ID = 271319104x
   0.458461 1  102CA040x       Rx   d 8 00 40 0C B8 2B 00 F1 00  Length = 4108212 BitCount = 141 ID = 271360064x
   0.470972 1  10306099x       Rx   d 3 44 59 01  Length = 2758236 BitCount = 96 ID = 271605913x
   0.478596 1  10264040x       Rx   d 8 04 06 00 00 00 00 00 28  Length = 4198223 BitCount = 144 ID = 270942272x
   0.481443 1  10304058x       Rx   d 3 44 59 01  Length = 2724657 BitCount = 95 ID = 271597656x
   0.486753 1  10308060x       Rx   d 3 44 59 01  Length = 2784638 BitCount = 97 ID = 271614048x
   0.491163 1  10210040x       Rx   d 8 00 00 00 00 00 00 00 00  Length = 4284573 BitCount = 147 ID = 270598208x
   0.498638 1  10220040x       Rx   d 8 10 00 00 00 00 06 00 00  Length = 4288208 BitCount = 147 ID = 270663744x
   0.503501 1  1022A040x       Rx   d 8 00 B0 00 12 42 00 00 22  Length = 4138208 BitCount = 142 ID = 270704704x
   0.508005 1  1022C040x       Rx   d 6 00 10 00 20 00 00  Length = 3688216 BitCount = 127 ID = 270712896x
   0.513590 1  1022E040x       Rx   d 8 20 00 00 00 20 00 00 00  Length = 4288208 BitCount = 147 ID = 270721088x
   0.518573 1  10230040x       Rx   d 8 30 00 00 00 30 00 00 00  Length = 4258208 BitCount = 146 ID = 270729280x
   0.523406 1  102CC040x       Rx   d 8 00 09 CF 69 00 87 06 AA  Length = 4048212 BitCount = 139 ID = 271368256x
   0.528476 1  102CE040x       Rx   d 8 90 00 65 7F 00 00 26 AA  Length = 4104566 BitCount = 141 ID = 271376448x
   0.533521 1  102D0040x       Rx   d 8 01 68 01 ED 7C 89 00 FF  Length = 4168208 BitCount = 143 ID = 271384640x
   0.538562 1  10240040x       Rx   d 8 83 FE 88 01 01 08 0F FC  Length = 4198208 BitCount = 144 ID = 270794816x
   0.541595 1  106B0040x       Rx   d 1 00  Length = 2308248 BitCount = 81 ID = 275447872x
   0.545377 1  108E0080x       Rx   d 6 0E 01 17 02 03 E3  Length = 3658216 BitCount = 126 ID = 277741696x
   0.549187 1  10324058x       Rx   d 6 00 00 03 FF 00 00  Length = 3684586 BitCount = 127 ID = 271728728x
   0.552726 1  10806040x       Rx   d 5 00 00 00 00 19  Length = 3414598 BitCount = 118 ID = 276848704x
   0.554950 1  13FFE058x       Rx   d 0  Length = 2098256 BitCount = 74 ID = 335536216x
   0.559183 1  102CA040x       Rx   d 8 00 40 0C C1 2B 00 F1 00  Length = 4108212 BitCount = 141 ID = 271360064x
   0.561375 1  13FFE0AFx       Rx   d 0  Length = 2068260 BitCount = 73 ID = 335536303x
   0.565788 1  10780040x       Rx   d 8 00 00 01 04 08 00 00 22  Length = 4288208 BitCount = 147 ID = 276299840x
   0.572994 1  C800040x        Rx   d 6 08 CB 00 00 23 1C  Length = 3628216 BitCount = 125 ID = 209715264x
   0.578638 1  10264040x       Rx   d 8 04 06 00 00 00 00 00 3A  Length = 4198223 BitCount = 144 ID = 270942272x
   0.583113 1  10788040x       Rx   d 6 08 00 00 00 00 00  Length = 3778216 BitCount = 130 ID = 276332608x
   0.588638 1  10210040x       Rx   d 8 00 00 00 00 00 00 00 00  Length = 4288223 BitCount = 147 ID = 270598208x
   0.598662 1  10220040x       Rx   d 8 10 00 00 00 00 05 00 00  Length = 4288223 BitCount = 147 ID = 270663744x
   0.608627 1  1022E040x       Rx   d 8 00 00 00 00 00 00 00 00  Length = 4318208 BitCount = 148 ID = 270721088x
   0.618561 1  10230040x       Rx   d 8 10 00 00 00 10 00 00 00  Length = 4258208 BitCount = 146 ID = 270729280x
   0.628676 1  1043A040x       Rx   d 8 00 00 36 00 00 00 00 00  Length = 4288208 BitCount = 147 ID = 272867392x
   0.638580 1  10240040x       Rx   d 8 83 FF 88 01 01 08 0F FC  Length = 4198208 BitCount = 144 ID = 270794816x
   0.643683 1  106B8040x       Rx   d 8 00 00 00 00 00 00 00 00  Length = 4318208 BitCount = 148 ID = 275480640x
   0.658317 CAN 1 Status:chip status error active  - TxErr: 0 RxErr: 1
   0.658325 1  ErrorFrame	Flags = 0xfffe	CodeExt = 0x2072	Code = 0x81	ID = 0x902ca040	DLC = 8	Position = 120	Length = 3894375	Data = 0  0x40  0xc  0xbc  0x2b  0  0xf1  0
   0.662697 CAN 1 Status:chip status error active
   0.662914 1  102CA040x       Rx   d 8 00 40 0C BC 2B 00 F1 00  Length = 4074566 BitCount = 140 ID = 271360064x
   0.666729 1  106B0040x       Rx   d 1 00  Length = 2308248 BitCount = 81 ID = 275447872x
   0.678644 1  10264040x       Rx   d 8 04 06 00 00 00 00 00 3A  Length = 4198223 BitCount = 144 ID = 270942272x
   0.688668 1  10210040x       Rx   d 8 00 00 00 00 00 00 00 00  Length = 4288208 BitCount = 147 ID = 270598208x
   0.698692 1  10220040x       Rx   d 8 10 00 00 00 00 06 00 00  Length = 4288208 BitCount = 147 ID = 270663744x
   0.708657 1  1022E040x       Rx   d 8 20 00 00 00 20 00 00 00  Length = 4288208 BitCount = 147 ID = 270721088x
   0.712376 1  10734099x       Rx   d 6 24 41 00 7D 00 00  Length = 3594590 BitCount = 124 ID = 275988633x
   0.718616 1  10230040x       Rx   d 8 30 00 00 00 30 00 00 00  Length = 4254562 BitCount = 146 ID = 270729280x
   0.727948 1  621             Rx   d 8 00 52 00 00 00 00 00 00  Length = 3594590 BitCount = 124 ID = 1569
   0.738540 1  1022A040x       Rx   d 8 00 B0 00 12 42 00 00 22  Length = 4134566 BitCount = 142 ID = 270704704x
   0.743045 1  1022C040x       Rx   d 6 00 10 00 20 00 00  Length = 3688231 BitCount = 127 ID = 270712896x
   0.748407 CAN 1 Status:chip status error active  - TxErr: 0 RxErr: 1
   0.748415 1  ErrorFrame	Flags = 0xfffe	CodeExt = 0x2072	Code = 0x81	ID = 0x90240040	DLC = 8	Position = 120	Length = 4014390	Data = 0x83  0xfe  0x88  0x1  0x1  0x8  0xf  0xfc
   0.752906 CAN 1 Status:chip status error active
   0.753124 1  10240040x       Rx   d 8 83 FE 88 01 01 08 0F FC  Length = 4194562 BitCount = 144 ID = 270794816x
   0.756665 1  10242040x       Rx   d 1 02  Length = 2304686 BitCount = 81 ID = 270803008x
   0.763210 1  10248040x       Rx   d 7 00 00 6D D0 CC 09 00  Length = 3838212 BitCount = 132 ID = 270827584x
   0.765908 1  106D0080x       Rx   d 2 00 00  Length = 2574658 BitCount = 90 ID = 275579008x
   0.769332 1  102C0040x       Rx   d 5 AE EF 44 59 03  Length = 3298239 BitCount = 114 ID = 271319104x
   0.771524 1  13FFE068x       Rx   d 0  Length = 2068260 BitCount = 73 ID = 335536232x
   0.778638 1  10264040x       Rx   d 8 04 06 00 00 00 00 00 27  Length = 4228208 BitCount = 145 ID = 270942272x
   0.783651 1  102CA040x       Rx   d 8 00 40 0C A8 2B 00 F1 00  Length = 4198208 BitCount = 144 ID = 271360064x
   0.786260 1  10244060x       Rx   d 1 02  Length = 2304686 BitCount = 81 ID = 270811232x
   0.790671 1  10210040x       Rx   d 8 00 00 00 00 00 00 00 00  Length = 4284562 BitCount = 147 ID = 270598208x
   0.798718 1  10220040x       Rx   d 8 10 00 00 00 00 08 00 00  Length = 4321873 BitCount = 148 ID = 270663744x
   0.801565 1  10304058x       Rx   d 3 44 59 01  Length = 2724657 BitCount = 95 ID = 271597656x
   0.805739 1  102CC040x       Rx   d 8 00 09 CF 69 00 87 06 AB  Length = 4048212 BitCount = 139 ID = 271368256x
   0.808650 1  10308060x       Rx   d 3 44 59 01  Length = 2788236 BitCount = 97 ID = 271614048x
   0.811834 1  10814099x       Rx   d 4 20 44 2E 00  Length = 3058228 BitCount = 106 ID = 276906137x
   0.816273 1  1022E040x       Rx   d 8 00 00 00 00 00 00 00 00  Length = 4314558 BitCount = 148 ID = 270721088x
   0.820958 1  10306099x       Rx   d 3 44 59 01  Length = 2758236 BitCount = 96 ID = 271605913x
   0.824707 1  C800040x        Rx   d 6 08 CB 00 00 23 20  Length = 3624601 BitCount = 125 ID = 209715264x
   0.833623 1  10230040x       Rx   d 8 20 00 00 00 20 00 00 00  Length = 4258208 BitCount = 146 ID = 270729280x
   0.838606 1  10240040x       Rx   d 8 83 FF 88 01 01 08 0F FC  Length = 4198223 BitCount = 144 ID = 270794816x
   0.843559 1  102CE040x       Rx   d 8 90 00 65 7F 00 00 26 AA  Length = 4108212 BitCount = 141 ID = 271376448x
   0.846711 1  106B0040x       Rx   d 1 00  Length = 2308248 BitCount = 81 ID = 275447872x
   0.853730 1  106B8040x       Rx   d 8 00 00 00 00 00 00 00 00  Length = 4314558 BitCount = 148 ID = 275480640x
   0.858595 1  102CA040x       Rx   d 8 00 40 0C A7 2B 00 F1 00  Length = 4108212 BitCount = 141 ID = 271360064x
   0.863755 1  10780040x       Rx   d 8 00 00 01 04 08 00 00 22  Length = 4284562 BitCount = 147 ID = 276299840x
   0.878642 1  10264040x       Rx   d 8 04 06 00 00 00 00 00 3B  Length = 4228208 BitCount = 145 ID = 270942272x
   0.883773 1  1043A040x       Rx   d 8 00 00 38 00 00 00 00 00  Length = 4344558 BitCount = 149 ID = 272867392x
   0.888788 1  10210040x       Rx   d 8 00 00 00 00 00 00 00 00  Length = 4288208 BitCount = 147 ID = 270598208x
   0.893439 1  1080A040x       Rx   d 7 00 00 00 00 00 00 00  Length = 4018212 BitCount = 138 ID = 276865088x
   0.898845 1  10220040x       Rx   d 8 10 00 00 00 00 06 00 00  Length = 4288223 BitCount = 147 ID = 270663744x
   0.908721 1  1022E040x       Rx   d 8 20 00 00 00 20 00 00 00  Length = 4288208 BitCount = 147 ID = 270721088x
   0.918685 1  10230040x       Rx   d 8 30 00 00 00 30 00 00 00  Length = 4258208 BitCount = 146 ID = 270729280x
   0.938639 1  10240040x       Rx   d 8 83 FF 88 01 01 08 0F FC  Length = 4194562 BitCount = 144 ID = 270794816x
   0.958623 1  102CA040x       Rx   d 8 00 40 0C BA 2B 00 F1 00  Length = 4104581 BitCount = 141 ID = 271360064x
   0.961718 1  106B0040x       Rx   d 1 00  Length = 2308248 BitCount = 81 ID = 275447872x
   0.967057 1  10448060x       Rx   d 4 00 00 45 40  Length = 3084633 BitCount = 107 ID = 272924768x
   0.978672 1  10264040x       Rx   d 8 04 06 00 00 00 00 00 3B  Length = 4228208 BitCount = 145 ID = 270942272x
   0.988758 1  10210040x       Rx   d 8 00 00 00 00 00 00 00 00  Length = 4288223 BitCount = 147 ID = 270598208x
   0.993620 1  1022A040x       Rx   d 8 00 B0 00 12 42 00 00 22  Length = 4138223 BitCount = 142 ID = 270704704x
   0.998843 1  10220040x       Rx   d 8 10 00 00 00 00 05 00 00  Length = 4288223 BitCount = 147 ID = 270663744x
   1.003104 1  1022C040x       Rx   d 6 00 10 00 20 00 00  Length = 3688216 BitCount = 127 ID = 270712896x
   1.008745 1  1022E040x       Rx   d 8 00 00 00 00 00 00 00 00  Length = 4318208 BitCount = 148 ID = 270721088x
   1.012017 1  10250040x       Rx   d 2 00 03  Length = 2604654 BitCount = 91 ID = 270860352x
   1.016770 1  Statistic: D 1 R 0 XD 157 XR 0 E 3 O 0 B 62.18%
   1.016770 2  Statistic: D 0 R 0 XD 0 XR 0 E 0 O 0 B 0.00%
   1.016770 3  Statistic: D 0 R 0 XD 0 XR 0 E 0 O 0 B 0.00%
   1.018742 1  10230040x       Rx   d 8 10 00 00 00 10 00 00 00  Length = 4258208 BitCount = 146 ID = 270729280x
   1.023545 1  102CC040x       Rx   d 8 00 09 CF 69 00 87 06 AA  Length = 4048212 BitCount = 139 ID = 271368256x
   1.028764 1  102CE040x       Rx   d 8 90 00 65 7F 00 00 26 AA  Length = 4104566 BitCount = 141 ID = 271376448x
   1.033539 1  102D0040x       Rx   d 8 01 69 01 ED 7C 8A 00 FF  Length = 4078212 BitCount = 140 ID = 271384640x
   1.038699 1  10240040x       Rx   d 8 83 FE 88 01 01 08 0F FC  Length = 4194577 BitCount = 144 ID = 270794816x
   1.043654 1  102E0040x       Rx   d 8 00 33 CA 6E 8A 00 62 81  Length = 4138208 BitCount = 142 ID = 271450176x
   1.047733 1  102C0040x       Rx   d 5 AE EF 44 59 03  Length = 3294606 BitCount = 114 ID = 271319104x
   1.052898 1  10466040x       Rx   d 5 00 00 00 00 00  Length = 3448220 BitCount = 119 ID = 273047616x
   1.058599 1  102CA040x       Rx   d 8 00 40 0C A4 2B 00 F1 00  Length = 4078212 BitCount = 140 ID = 271360064x
   1.063793 1  106B8040x       Rx   d 8 00 00 00 00 00 00 00 00  Length = 4318208 BitCount = 148 ID = 275480640x
   1.068140 1  C800040x        Rx   d 6 08 CB 00 00 23 23  Length = 3594601 BitCount = 124 ID = 209715264x
   1.071020 1  10306099x       Rx   d 3 44 59 01  Length = 2754642 BitCount = 96 ID = 271605913x
   1.074589 1  106C0040x       Rx   d 5 00 06 0F 07 00  Length = 3444598 BitCount = 119 ID = 275513408x
   1.077441 1  10304058x       Rx   d 3 44 59 01  Length = 2724642 BitCount = 95 ID = 271597656x
   1.083679 1  10264040x       Rx   d 8 04 06 00 00 00 00 00 3B  Length = 4224562 BitCount = 145 ID = 270942272x
   1.086773 1  10308060x       Rx   d 3 44 59 01  Length = 2788236 BitCount = 97 ID = 271614048x
   1.090996 CAN 1 Status:chip status error active  - TxErr: 0 RxErr: 1
   1.091003 1  ErrorFrame	Flags = 0xfffe	CodeExt = 0x2072	Code = 0x81	ID = 0x90210040	DLC = 8	Position = 120	Length = 4104375	Data = 0  0  0  0  0  0  0  0
   1.095585 CAN 1 Status:chip status error active
   1.095802 1  10210040x       Rx   d 8 00 00 00 00 00 00 00 00  Length = 4284562 BitCount = 147 ID = 270598208x
   1.103758 1  10220040x       Rx   d 8 10 00 00 00 00 05 00 00  Length = 4288208 BitCount = 147 ID = 270663744x
   1.108711 1  1022E040x       Rx   d 8 20 00 00 00 20 00 00 00  Length = 4288208 BitCount = 147 ID = 270721088x
   1.111744 1  106B0040x       Rx   d 1 00  Length = 2308248 BitCount = 81 ID = 275447872x
   1.118734 1  10230040x       Rx   d 8 30 00 00 00 30 00 00 00  Length = 4254562 BitCount = 146 ID = 270729280x
   1.122639 1  1077C040x       Rx   d 4 30 30 01 F4  Length = 3148224 BitCount = 109 ID = 276283456x
   1.128758 1  1043A040x       Rx   d 8 00 00 36 00 00 00 00 00  Length = 4284562 BitCount = 147 ID = 272867392x
   1.133833 1  10780040x       Rx   d 8 00 00 01 04 08 00 00 22  Length = 4288208 BitCount = 147 ID = 276299840x
   1.138694 1  10240040x       Rx   d 8 83 FE 88 01 01 08 0F FC  Length = 4198208 BitCount = 144 ID = 270794816x
   1.143254 1  10788040x       Rx   d 6 08 00 00 00 00 00  Length = 3774582 BitCount = 130 ID = 276332608x
   1.147939 1  10806040x       Rx   d 5 00 00 00 00 19  Length = 3418220 BitCount = 118 ID = 276848704x
   1.158623 1  102CA040x       Rx   d 8 00 40 0C AE 2B 00 F1 00  Length = 4108223 BitCount = 141 ID = 271360064x
   1.178822 1  10264040x       Rx   d 8 04 06 00 00 00 00 00 27  Length = 4228208 BitCount = 145 ID = 270942272x
   1.188786 1  10210040x       Rx   d 8 00 00 00 00 00 00 00 00  Length = 4288208 BitCount = 147 ID = 270598208x
   1.198841 1  10220040x       Rx   d 8 10 00 00 00 00 04 00 00  Length = 4318223 BitCount = 148 ID = 270663744x
   1.208805 1  1022E040x       Rx   d 8 00 00 00 00 00 00 00 00  Length = 4318223 BitCount = 148 ID = 270721088x
   1.212524 1  10734099x       Rx   d 6 24 41 00 7D 00 00  Length = 3594590 BitCount = 124 ID = 275988633x
   1.218710 1  10230040x       Rx   d 8 10 00 00 00 10 00 00 00  Length = 4258223 BitCount = 146 ID = 270729280x
   1.226816 1  106B0040x       Rx   d 1 00  Length = 2308248 BitCount = 81 ID = 275447872x
   1.238701 1  1022A040x       Rx   d 8 00 B0 00 12 42 00 00 22  Length = 4138208 BitCount = 142 ID = 270704704x
   1.243174 1  1022C040x       Rx   d 6 00 10 00 20 00 00  Length = 3688216 BitCount = 127 ID = 270712896x
   1.248729 1  10240040x       Rx   d 8 83 FE 88 01 01 08 0F FC  Length = 4198208 BitCount = 144 ID = 270794816x
   1.253832 1  106B8040x       Rx   d 8 00 00 00 00 00 00 00 00  Length = 4318208 BitCount = 148 ID = 275480640x
   1.258390 1  10248040x       Rx   d 7 00 00 6D D0 CC 08 00  Length = 3864578 BitCount = 133 ID = 270827584x
   1.263675 1  102CA040x       Rx   d 8 00 40 0C BE 2B 00 F1 00  Length = 4108223 BitCount = 141 ID = 271360064x
   1.268720 1  102CC040x       Rx   d 8 00 09 CF 69 00 87 06 AA  Length = 4048212 BitCount = 139 ID = 271368256x
   1.278742 1  10264040x       Rx   d 8 04 06 00 00 00 00 00 3B  Length = 4228223 BitCount = 145 ID = 270942272x
   1.283635 1  102CE040x       Rx   d 8 90 00 66 7F 00 00 26 AA  Length = 4078212 BitCount = 140 ID = 271376448x
   1.288855 1  10210040x       Rx   d 8 00 00 00 00 00 00 00 00  Length = 4284562 BitCount = 147 ID = 270598208x
   1.298851 1  10220040x       Rx   d 8 10 00 00 00 00 04 00 00  Length = 4318223 BitCount = 148 ID = 270663744x
   1.308785 1  1022E040x       Rx   d 8 20 00 00 00 20 00 00 00  Length = 4288208 BitCount = 147 ID = 270721088x
   1.313859 1  10780040x       Rx   d 8 00 00 01 04 08 00 00 22  Length = 4288208 BitCount = 147 ID = 276299840x
   1.318148 1  C800040x        Rx   d 6 08 CB 00 00 23 26  Length = 3594590 BitCount = 124 ID = 209715264x
   1.323763 1  10230040x       Rx   d 8 30 00 00 00 30 00 00 00  Length = 4258208 BitCount = 146 ID = 270729280x
   1.325922 1  13FFE0BBx       Rx   d 0  Length = 2034718 BitCount = 72 ID = 335536315x
   1.338733 1  10240040x       Rx   d 8 83 FE 88 01 01 08 0F FC  Length = 4194562 BitCount = 144 ID = 270794816x
   1.341798 1  106B0040x       Rx   d 1 00  Length = 2308248 BitCount = 81 ID = 275447872x
   1.347801 1  102C0040x       Rx   d 5 AE EF 44 59 03  Length = 3298224 BitCount = 114 ID = 271319104x
   1.358663 1  102CA040x       Rx   d 8 00 40 0C C4 2B 00 F1 00  Length = 4078212 BitCount = 140 ID = 271360064x
   1.366733 1  10308060x       Rx   d 3 44 59 01  Length = 2784638 BitCount = 97 ID = 271614048x
   1.370967 1  10306099x       Rx   d 3 44 59 01  Length = 2758251 BitCount = 96 ID = 271605913x
   1.376997 1  10304058x       Rx   d 3 44 59 01  Length = 2728236 BitCount = 95 ID = 271597656x
   1.381349 1  10264040x       Rx   d 8 04 06 00 00 00 00 00 3B  Length = 4228208 BitCount = 145 ID = 270942272x
   1.388943 1  10210040x       Rx   d 8 00 00 00 00 00 00 00 00  Length = 4288208 BitCount = 147 ID = 270598208x
   1.393834 1  1043A040x       Rx   d 8 00 00 35 00 00 00 00 00  Length = 4288208 BitCount = 147 ID = 272867392x
   1.398937 1  10220040x       Rx   d 8 10 00 00 00 00 06 00 00  Length = 4288208 BitCount = 147 ID = 270663744x
   1.408809 1  1022E040x       Rx   d 8 00 00 00 00 00 00 00 00  Length = 4318208 BitCount = 148 ID = 270721088x
   1.418836 1  10230040x       Rx   d 8 10 00 00 00 10 00 00 00  Length = 4258208 BitCount = 146 ID = 270729280x
   1.438729 1  10240040x       Rx   d 8 83 FE 88 01 01 08 0F FC  Length = 4194562 BitCount = 144 ID = 270794816x
   1.443892 1  106B8040x       Rx   d 8 00 00 00 00 00 00 00 00  Length = 4318208 BitCount = 148 ID = 275480640x
   1.446565 1  13FFE040x       Rx   d 0  Length = 2068260 BitCount = 73 ID = 335536192x
   1.458560 CAN 1 Status:chip status error active  - TxErr: 0 RxErr: 1
   1.458568 1  ErrorFrame	Flags = 0xfffe	CodeExt = 0x2072	Code = 0x81	ID = 0x902ca040	DLC = 8	Position = 120	Length = 3954375	Data = 0  0x40  0xc  0xc0  0x2b  0  0xf1  0
   1.463005 CAN 1 Status:chip status error active
   1.463223 1  102CA040x       Rx   d 8 00 40 0C C0 2B 00 F1 00  Length = 4138208 BitCount = 142 ID = 271360064x
   1.466948 1  106B0040x       Rx   d 1 00  Length = 2308263 BitCount = 81 ID = 275447872x
   1.478892 1  10264040x       Rx   d 8 04 06 00 00 00 00 00 27  Length = 4228208 BitCount = 145 ID = 270942272x
   1.488857 1  10210040x       Rx   d 8 00 00 00 00 00 00 00 00  Length = 4288208 BitCount = 147 ID = 270598208x
   1.493720 1  1022A040x       Rx   d 8 00 B0 00 12 42 00 00 22  Length = 4138208 BitCount = 142 ID = 270704704x
   1.498910 1  10220040x       Rx   d 8 10 00 00 00 00 08 00 00  Length = 4314558 BitCount = 148 ID = 270663744x
   1.503231 1  1022C040x       Rx   d 6 00 10 00 20 00 00  Length = 3684586 BitCount = 127 ID = 270712896x
   1.508816 1  1022E040x       Rx   d 8 20 00 00 00 20 00 00 00  Length = 4288208 BitCount = 147 ID = 270721088x
   1.518870 1  10230040x       Rx   d 8 30 00 00 00 30 00 00 00  Length = 4258208 BitCount = 146 ID = 270729280x
   1.523673 1  102CC040x       Rx   d 8 00 09 CF 69 00 87 06 A9  Length = 4048212 BitCount = 139 ID = 271368256x
   1.528863 1  102CE040x       Rx   d 8 90 00 65 7F 00 00 26 AA  Length = 4104566 BitCount = 141 ID = 271376448x
   1.533668 1  102D0040x       Rx   d 8 01 69 01 ED 7C 8A 00 FF  Length = 4078212 BitCount = 140 ID = 271384640x
   1.538801 1  10240040x       Rx   d 8 83 FE 88 01 01 08 0F FC  Length = 4198208 BitCount = 144 ID = 270794816x
   1.544593 1  108E0080x       Rx   d 6 0E 01 17 02 03 E4  Length = 3628216 BitCount = 125 ID = 277741696x
   1.548132 1  10806040x       Rx   d 5 00 00 00 00 19  Length = 3414598 BitCount = 118 ID = 276848704x
   1.558728 1  102CA040x       Rx   d 8 00 40 0C B7 2B 00 F1 00  Length = 4108212 BitCount = 141 ID = 271360064x
   1.563921 1  10780040x       Rx   d 8 00 00 01 04 08 00 00 22  Length = 4288208 BitCount = 147 ID = 276299840x
   1.568332 1  C800040x        Rx   d 6 08 CB 00 00 23 29  Length = 3598216 BitCount = 124 ID = 209715264x
   1.573343 1  10788040x       Rx   d 6 08 00 00 00 00 00  Length = 3778216 BitCount = 130 ID = 276332608x
   1.578897 1  10264040x       Rx   d 8 04 06 00 00 00 00 00 3B  Length = 4228208 BitCount = 145 ID = 270942272x
   1.581870 1  106B0040x       Rx   d 1 00  Length = 2308263 BitCount = 81 ID = 275447872x
   1.584063 1  13FFE080x       Rx   d 0  Length = 2068260 BitCount = 73 ID = 335536256x
   1.586287 1  13FFE060x       Rx   d 0  Length = 2098256 BitCount = 74 ID = 335536224x
   1.590508 CAN 1 Status:chip status error active  - TxErr: 0 RxErr: 1
   1.590516 1  ErrorFrame	Flags = 0xfffe	CodeExt = 0x2072	Code = 0x81	ID = 0x90210040	DLC = 8	Position = 120	Length = 4104375	Data = 0  0  0  0  0  0  0  0
   1.595097 CAN 1 Status:chip status error active
   1.595315 1  10210040x       Rx   d 8 00 00 00 00 00 00 00 00  Length = 4284562 BitCount = 147 ID = 270598208x
   1.600299 1  13FFE099x       Rx   d 0  Length = 2068260 BitCount = 73 ID = 335536281x
   1.604707 1  10220040x       Rx   d 8 10 00 00 00 00 06 00 00  Length = 4284573 BitCount = 147 ID = 270663744x
   1.613863 1  1022E040x       Rx   d 8 00 00 00 00 00 00 00 00  Length = 4318208 BitCount = 148 ID = 270721088x
   1.618846 1  10230040x       Rx   d 8 10 00 00 00 10 00 00 00  Length = 4258223 BitCount = 146 ID = 270729280x
   1.628929 1  1043A040x       Rx   d 8 00 00 38 00 00 00 00 00  Length = 4348208 BitCount = 149 ID = 272867392x
   1.638803 1  10240040x       Rx   d 8 83 FE 88 01 01 08 0F FC  Length = 4198223 BitCount = 144 ID = 270794816x
   1.643934 1  106B8040x       Rx   d 8 00 00 00 00 00 00 00 00  Length = 4314573 BitCount = 148 ID = 275480640x
   1.647869 1  102C0040x       Rx   d 5 AE EF 44 59 03  Length = 3298224 BitCount = 114 ID = 271319104x
   1.658764 1  102CA040x       Rx   d 8 00 40 0C B7 2B 00 F1 00  Length = 4108212 BitCount = 141 ID = 271360064x
   1.670946 1  10306099x       Rx   d 3 44 59 01  Length = 2758236 BitCount = 96 ID = 271605913x
   1.677007 1  10304058x       Rx   d 3 44 59 01  Length = 2728251 BitCount = 95 ID = 271597656x
   1.681359 1  10264040x       Rx   d 8 04 06 00 00 00 00 00 3B  Length = 4228208 BitCount = 145 ID = 270942272x
   1.686727 1  10308060x       Rx   d 3 44 59 01  Length = 2784638 BitCount = 97 ID = 271614048x
   1.690950 CAN 1 Status:chip status error active  - TxErr: 0 RxErr: 1
   1.690958 1  ErrorFrame	Flags = 0xfffe	CodeExt = 0x2072	Code = 0x81	ID = 0x90210040	DLC = 8	Position = 120	Length = 4104375	Data = 0  0  0  0  0  0  0  0
   1.695545 CAN 1 Status:chip status error active
   1.695763 1  10210040x       Rx   d 8 00 00 00 00 00 00 00 00  Length = 4288208 BitCount = 147 ID = 270598208x
   1.703896 1  10220040x       Rx   d 8 10 00 00 00 00 06 00 00  Length = 4288223 BitCount = 147 ID = 270663744x
   1.708882 1  1022E040x       Rx   d 8 20 00 00 00 20 00 00 00  Length = 4288208 BitCount = 147 ID = 270721088x
   1.712599 1  10734099x       Rx   d 6 24 41 00 7D 00 00  Length = 3594601 BitCount = 124 ID = 275988633x
   1.715032 1  106B0040x       Rx   d 1 00  Length = 2308248 BitCount = 81 ID = 275447872x
   1.723855 1  10230040x       Rx   d 8 30 00 00 00 30 00 00 00  Length = 4258208 BitCount = 146 ID = 270729280x
   1.728177 1  621             Rx   d 8 00 52 00 00 00 00 00 00  Length = 3594601 BitCount = 124 ID = 1569
   1.738773 1  1022A040x       Rx   d 8 00 B0 00 12 42 00 00 22  Length = 4138208 BitCount = 142 ID = 270704704x
   1.743308 1  1022C040x       Rx   d 6 00 10 00 20 00 00  Length = 3688216 BitCount = 127 ID = 270712896x
   1.746253 1  13FFE058x       Rx   d 0  Length = 2098256 BitCount = 74 ID = 335536216x
   1.750572 1  10240040x       Rx   d 8 83 FE 88 01 01 08 0F FC  Length = 4194562 BitCount = 144 ID = 270794816x
   1.752767 1  13FFE0AFx       Rx   d 0  Length = 2068260 BitCount = 73 ID = 335536303x
   1.758470 1  10248040x       Rx   d 7 00 00 6D D0 CC 09 00  Length = 3838212 BitCount = 132 ID = 270827584x
   1.763749 1  102CA040x       Rx   d 8 00 40 0C C5 2B 00 F1 00  Length = 4074566 BitCount = 140 ID = 271360064x
   1.768704 1  102CC040x       Rx   d 8 00 09 CF 69 00 87 06 A9  Length = 4048227 BitCount = 139 ID = 271368256x
   1.778817 1  10264040x       Rx   d 8 04 06 00 00 00 00 00 3A  Length = 4198223 BitCount = 144 ID = 270942272x
   1.783800 1  102CE040x       Rx   d 8 90 00 66 7F 00 00 26 A9  Length = 4108212 BitCount = 141 ID = 271376448x
   1.788959 1  10210040x       Rx   d 8 00 00 00 00 00 00 00 00  Length = 4284562 BitCount = 147 ID = 270598208x
   1.798926 1  10220040x       Rx   d 8 10 00 00 00 00 06 00 00  Length = 4288208 BitCount = 147 ID = 270663744x
   1.808950 1  1022E040x       Rx   d 8 00 00 00 00 00 00 00 00  Length = 4318208 BitCount = 148 ID = 270721088x
   1.813993 1  10780040x       Rx   d 8 00 00 01 04 08 00 00 22  Length = 4288208 BitCount = 147 ID = 276299840x
   1.818254 1  C800040x        Rx   d 6 08 CB 00 00 23 2D  Length = 3598216 BitCount = 124 ID = 209715264x
   1.823925 1  10230040x       Rx   d 8 10 00 00 00 10 00 00 00  Length = 4258208 BitCount = 146 ID = 270729280x
   1.826931 1  106B0040x       Rx   d 1 00  Length = 2308248 BitCount = 81 ID = 275447872x
   1.838845 1  10240040x       Rx   d 8 83 FE 88 01 01 08 0F FC  Length = 4198208 BitCount = 144 ID = 270794816x
   1.843976 1  106B8040x       Rx   d 8 00 00 00 00 00 00 00 00  Length = 4318223 BitCount = 148 ID = 275480640x
   1.858832 1  102CA040x       Rx   d 8 00 40 0C C8 2B 00 F1 00  Length = 4138208 BitCount = 142 ID = 271360064x
   1.878875 1  10264040x       Rx   d 8 04 06 00 00 00 00 00 27  Length = 4224562 BitCount = 145 ID = 270942272x
   1.884006 1  1043A040x       Rx   d 8 00 00 38 00 00 00 00 00  Length = 4344558 BitCount = 149 ID = 272867392x
   1.888991 1  10210040x       Rx   d 8 00 00 00 00 00 00 00 00  Length = 4288208 BitCount = 147 ID = 270598208x
   1.893674 1  1080A040x       Rx   d 7 00 00 00 00 00 00 00  Length = 4018212 BitCount = 138 ID = 276865088x
   1.899014 1  10220040x       Rx   d 8 10 00 00 00 00 06 00 00  Length = 4284562 BitCount = 147 ID = 270663744x
   1.908980 1  1022E040x       Rx   d 8 20 00 00 00 20 00 00 00  Length = 4288223 BitCount = 147 ID = 270721088x
   1.918884 1  10230040x       Rx   d 8 30 00 00 00 30 00 00 00  Length = 4258223 BitCount = 146 ID = 270729280x
   1.938897 1  10240040x       Rx   d 8 83 FE 88 01 01 08 0F FC  Length = 4194562 BitCount = 144 ID = 270794816x
   1.941932 1  106B0040x       Rx   d 1 00  Length = 2308248 BitCount = 81 ID = 275447872x
   1.947932 1  102C0040x       Rx   d 5 AE EF 44 59 03  Length = 3294606 BitCount = 114 ID = 271319104x
   1.958828 1  102CA040x       Rx   d 8 00 40 0C BE 2B 00 F1 00  Length = 4108212 BitCount = 141 ID = 271360064x
   1.963511 1  106D0080x       Rx   d 2 00 00  Length = 2578240 BitCount = 90 ID = 275579008x
   1.965705 1  13FFE068x       Rx   d 0  Length = 2068275 BitCount = 73 ID = 335536232x
   1.968614 1  10308060x       Rx   d 3 44 59 01  Length = 2784653 BitCount = 97 ID = 271614048x
   1.971497 1  10306099x       Rx   d 3 44 59 01  Length = 2758236 BitCount = 96 ID = 271605913x
   1.974710 1  10448060x       Rx   d 4 00 00 45 40  Length = 3088228 BitCount = 107 ID = 272924768x
   1.979059 1  10264040x       Rx   d 8 04 06 00 00 00 00 00 3B  Length = 4224562 BitCount = 145 ID = 270942272x
   1.981910 1  10304058x       Rx   d 3 44 59 01  Length = 2724642 BitCount = 95 ID = 271597656x
   1.989019 1  10210040x       Rx   d 8 00 00 00 00 00 00 00 00  Length = 4284573 BitCount = 147 ID = 270598208x
   1.993852 1  1022A040x       Rx   d 8 00 B0 00 12 42 00 00 22  Length = 4138208 BitCount = 142 ID = 270704704x
   1.998856 CAN 1 Status:chip status error active  - TxErr: 0 RxErr: 1
   1.998864 1  ErrorFrame	Flags = 0xfffe	CodeExt = 0x2072	Code = 0x81	ID = 0x90220040	DLC = 8	Position = 120	Length = 4104375	Data = 0x10  0  0  0  0  0x6  0  0
   2.003446 CAN 1 Status:chip status error active
   2.003663 1  10220040x       Rx   d 8 10 00 00 00 00 06 00 00  Length = 4284562 BitCount = 147 ID = 270663744x
   2.008348 1  1022C040x       Rx   d 6 00 10 00 20 00 00  Length = 3688216 BitCount = 127 ID = 270712896x
   2.013961 1  1022E040x       Rx   d 8 00 00 00 00 00 00 00 00  Length = 4318223 BitCount = 148 ID = 270721088x
   2.016771 1  Statistic: D 1 R 0 XD 153 XR 0 E 5 O 0 B 62.19%
   2.016771 2  Statistic: D 0 R 0 XD 0 XR 0 E 0 O 0 B 0.00%
   2.016771 3  Statistic: D 0 R 0 XD 0 XR 0 E 0 O 0 B 0.00%
   2.019005 1  10230040x       Rx   d 8 10 00 00 00 10 00 00 00  Length = 4258208 BitCount = 146 ID = 270729280x
   2.022304 1  10250040x       Rx   d 2 00 03  Length = 2604654 BitCount = 91 ID = 270860352x
   2.028879 1  102CC040x       Rx   d 8 00 09 CF 69 00 87 06 A9  Length = 4048212 BitCount = 139 ID = 271368256x
   2.033802 1  102CE040x       Rx   d 8 90 00 65 7F 00 00 26 A9  Length = 4078212 BitCount = 140 ID = 271376448x
   2.038901 1  10240040x       Rx   d 8 83 FE 88 01 01 08 0F FC  Length = 4194562 BitCount = 144 ID = 270794816x
   2.043796 1  102D0040x       Rx   d 8 01 69 01 ED 7C 89 00 FF  Length = 4078212 BitCount = 140 ID = 271384640x
   2.048900 1  102E0040x       Rx   d 8 00 33 CA 6E 8A 00 62 81  Length = 4138208 BitCount = 142 ID = 271450176x
   2.054031 1  106B8040x       Rx   d 8 00 00 00 00 00 00 00 00  Length = 4318208 BitCount = 148 ID = 275480640x
   2.058922 1  102CA040x       Rx   d 8 00 40 0C CD 2B 00 F1 00  Length = 4138208 BitCount = 142 ID = 271360064x
   2.061985 1  106B0040x       Rx   d 1 00  Length = 2308263 BitCount = 81 ID = 275447872x
   2.068469 1  C800040x        Rx   d 6 08 CB 00 00 23 2F  Length = 3628216 BitCount = 125 ID = 209715264x
   2.073122 1  106C0040x       Rx   d 5 00 06 0F 07 00  Length = 3448235 BitCount = 119 ID = 275513408x
   2.079037 1  10264040x       Rx   d 8 04 06 00 00 00 00 00 3D  Length = 4198208 BitCount = 144 ID = 270942272x
   2.082818 1  1077C040x       Rx   d 4 30 30 01 F4  Length = 3148224 BitCount = 109 ID = 276283456x
   2.089000 1  10210040x       Rx   d 8 00 00 00 00 00 00 00 00  Length = 4284562 BitCount = 147 ID = 270598208x
   2.094043 1  10780040x       Rx   d 8 00 00 01 04 08 00 00 22  Length = 4288208 BitCount = 147 ID = 276299840x
   2.099086 1  10220040x       Rx   d 8 10 00 00 00 00 08 00 00  Length = 4318208 BitCount = 148 ID = 270663744x
   2.103493 1  10788040x       Rx   d 6 08 00 00 00 00 00  Length = 3774582 BitCount = 130 ID = 276332608x
   2.109018 1  1022E040x       Rx   d 8 20 00 00 00 20 00 00 00  Length = 4288208 BitCount = 147 ID = 270721088x
   2.113130 1  10806040x       Rx   d 5 00 00 00 00 19  Length = 3414598 BitCount = 118 ID = 276848704x
   2.118984 1  10230040x       Rx   d 8 30 00 00 00 30 00 00 00  Length = 4258208 BitCount = 146 ID = 270729280x
   2.128979 1  1043A040x       Rx   d 8 00 00 35 00 00 00 00 00  Length = 4288208 BitCount = 147 ID = 272867392x
   2.138913 1  10240040x       Rx   d 8 83 FE 88 01 01 08 0F FC  Length = 4198223 BitCount = 144 ID = 270794816x
   2.158897 1  102CA040x       Rx   d 8 00 40 0C D6 2B 00 F1 00  Length = 4104566 BitCount = 141 ID = 271360064x
   2.179005 1  10264040x       Rx   d 8 04 06 00 00 00 00 00 3D  Length = 4198208 BitCount = 144 ID = 270942272x
   2.182008 1  106B0040x       Rx   d 1 00  Length = 2308248 BitCount = 81 ID = 275447872x
   2.189063 1  10210040x       Rx   d 8 00 00 00 00 00 00 00 00  Length = 4288208 BitCount = 147 ID = 270598208x
   2.199120 1  10220040x       Rx   d 8 10 00 00 00 00 08 00 00  Length = 4318208 BitCount = 148 ID = 270663744x
   2.209024 1  1022E040x       Rx   d 8 00 00 00 00 00 00 00 00  Length = 4318208 BitCount = 148 ID = 270721088x
   2.212742 1  10734099x       Rx   d 6 24 41 00 7D 00 00  Length = 3594590 BitCount = 124 ID = 275988633x
   2.218953 1  10230040x       Rx   d 8 10 00 00 00 10 00 00 00  Length = 4254562 BitCount = 146 ID = 270729280x
   2.238882 1  1022A040x       Rx   d 8 00 B0 00 12 42 00 00 22  Length = 4138208 BitCount = 142 ID = 270704704x
   2.243417 1  1022C040x       Rx   d 6 00 10 00 20 00 00  Length = 3688216 BitCount = 127 ID = 270712896x
   2.248972 1  10240040x       Rx   d 8 83 FE 88 01 01 08 0F FC  Length = 4198208 BitCount = 144 ID = 270794816x
   2.252995 1  102C0040x       Rx   d 5 AE EF 44 59 03  Length = 3298224 BitCount = 114 ID = 271319104x
   2.258638 1  10248040x       Rx   d 7 00 00 6D D0 CC 08 00  Length = 3868212 BitCount = 133 ID = 270827584x
   2.263948 1  102CA040x       Rx   d 8 00 40 0C CD 2B 00 F1 00  Length = 4134566 BitCount = 142 ID = 271360064x
   2.268963 1  102CC040x       Rx   d 8 00 09 CF 69 00 87 06 A8  Length = 4078212 BitCount = 140 ID = 271368256x
   2.271840 1  10306099x       Rx   d 3 44 59 01  Length = 2754657 BitCount = 96 ID = 271605913x
   2.276284 1  106B8040x       Rx   d 8 00 00 00 00 00 00 00 00  Length = 4318208 BitCount = 148 ID = 275480640x
   2.279135 1  10304058x       Rx   d 3 44 59 01  Length = 2724642 BitCount = 95 ID = 271597656x
   2.283968 1  10264040x       Rx   d 8 04 06 00 00 00 00 00 28  Length = 4198208 BitCount = 144 ID = 270942272x
   2.286881 1  10308060x       Rx   d 3 44 59 01  Length = 2788236 BitCount = 97 ID = 271614048x
   2.291294 1  10210040x       Rx   d 8 00 00 00 00 00 00 00 00  Length = 4288208 BitCount = 147 ID = 270598208x
   2.299066 1  10220040x       Rx   d 8 10 00 00 00 00 08 00 00  Length = 4318223 BitCount = 148 ID = 270663744x
   2.303867 1  102CE040x       Rx   d 8 90 00 65 7F 00 00 26 A8  Length = 4078212 BitCount = 140 ID = 271376448x
   2.309000 1  1022E040x       Rx   d 8 20 00 00 00 20 00 00 00  Length = 4288223 BitCount = 147 ID = 270721088x
   2.312031 1  106B0040x       Rx   d 1 00  Length = 2308248 BitCount = 81 ID = 275447872x
   2.318397 1  C800040x        Rx   d 6 08 CB 00 00 23 33  Length = 3598216 BitCount = 124 ID = 209715264x
   2.323980 1  10230040x       Rx   d 8 30 00 00 00 30 00 00 00  Length = 4258208 BitCount = 146 ID = 270729280x
   2.329111 1  10780040x       Rx   d 8 00 00 01 04 08 00 00 22  Length = 4284562 BitCount = 147 ID = 276299840x
   2.338957 1  10240040x       Rx   d 8 83 FF 88 01 01 08 0F FC  Length = 4198208 BitCount = 144 ID = 270794816x
   2.358911 1  102CA040x       Rx   d 8 00 40 0C BE 2B 00 F1 00  Length = 4104566 BitCount = 141 ID = 271360064x
   2.379049 1  10264040x       Rx   d 8 04 06 00 00 00 00 00 3D  Length = 4198208 BitCount = 144 ID = 270942272x
   2.384061 1  1043A040x       Rx   d 8 00 00 35 00 00 00 00 00  Length = 4284573 BitCount = 147 ID = 272867392x
   2.389076 1  10210040x       Rx   d 8 00 00 00 00 00 00 00 00  Length = 4288208 BitCount = 147 ID = 270598208x
   2.399070 1  10220040x       Rx   d 8 10 00 00 00 00 06 00 00  Length = 4288208 BitCount = 147 ID = 270663744x
   2.409064 1  1022E040x       Rx   d 8 00 00 00 00 00 00 00 00  Length = 4318223 BitCount = 148 ID = 270721088x
   2.419059 1  10230040x       Rx   d 8 10 00 00 00 10 00 00 00  Length = 4258208 BitCount = 146 ID = 270729280x
   2.427133 1  106B0040x       Rx   d 1 00  Length = 2308248 BitCount = 81 ID = 275447872x
   2.439078 1  10240040x       Rx   d 8 83 FE 88 01 01 08 0F FC  Length = 4198208 BitCount = 144 ID = 270794816x
   2.444121 1  106B8040x       Rx   d 8 00 00 00 00 00 00 00 00  Length = 4318208 BitCount = 148 ID = 275480640x
   2.458941 1  102CA040x       Rx   d 8 00 40 0C D2 2B 00 F1 00  Length = 4104566 BitCount = 141 ID = 271360064x
   2.479079 1  10264040x       Rx   d 8 04 06 00 00 00 00 00 3D  Length = 4198208 BitCount = 144 ID = 270942272x
   2.489134 1  10210040x       Rx   d 8 00 00 00 00 00 00 00 00  Length = 4288208 BitCount = 147 ID = 270598208x
   2.493967 1  1022A040x       Rx   d 8 00 B0 00 12 42 00 00 22  Length = 4138208 BitCount = 142 ID = 270704704x
   2.499130 1  10220040x       Rx   d 8 10 00 00 00 00 04 00 00  Length = 4318223 BitCount = 148 ID = 270663744x
   2.503481 1  1022C040x       Rx   d 6 00 10 00 20 00 00  Length = 3688231 BitCount = 127 ID = 270712896x
   2.509093 1  1022E040x       Rx   d 8 20 00 00 00 20 00 00 00  Length = 4288208 BitCount = 147 ID = 270721088x
   2.519089 1  10230040x       Rx   d 8 30 00 00 00 30 00 00 00  Length = 4258208 BitCount = 146 ID = 270729280x
   2.523922 1  102CC040x       Rx   d 8 00 09 CF 69 00 87 06 A8  Length = 4078212 BitCount = 140 ID = 271368256x
   2.529082 1  102CE040x       Rx   d 8 90 00 66 7F 00 00 26 A8  Length = 4104566 BitCount = 141 ID = 271376448x
   2.531242 1  13FFE0BBx       Rx   d 0  Length = 2034718 BitCount = 72 ID = 335536315x
   2.535443 1  102D0040x       Rx   d 8 01 69 01 ED 7C 89 00 FF  Length = 4078212 BitCount = 140 ID = 271384640x
   2.544023 1  10240040x       Rx   d 8 83 FF 88 01 01 08 0F FC  Length = 4194577 BitCount = 144 ID = 270794816x
   2.547833 1  10324058x       Rx   d 6 00 00 03 FF 00 00  Length = 3684586 BitCount = 127 ID = 271728728x
   2.551253 1  102C0040x       Rx   d 5 AE EF 44 59 03  Length = 3294606 BitCount = 114 ID = 271319104x
   2.555033 1  108E0080x       Rx   d 6 0E 01 17 02 03 E5  Length = 3654586 BitCount = 126 ID = 277741696x
   2.559267 1  102CA040x       Rx   d 8 00 40 0C BA 2B 00 F1 00  Length = 4108223 BitCount = 141 ID = 271360064x
   2.562088 1  106B0040x       Rx   d 1 00  Length = 2308248 BitCount = 81 ID = 275447872x
   2.566707 1  10308060x       Rx   d 3 44 59 01  Length = 2784638 BitCount = 97 ID = 271614048x
   2.570432 1  C800040x        Rx   d 6 08 CB 00 00 23 35  Length = 3598231 BitCount = 124 ID = 209715264x
   2.573311 1  10306099x       Rx   d 3 44 59 01  Length = 2754642 BitCount = 96 ID = 271605913x
   2.576704 1  10304058x       Rx   d 3 44 59 01  Length = 2728236 BitCount = 95 ID = 271597656x
   2.581052 1  10264040x       Rx   d 8 04 06 00 00 00 00 00 27  Length = 4224577 BitCount = 145 ID = 270942272x
   2.589158 1  10210040x       Rx   d 8 00 00 00 00 00 00 00 00  Length = 4288208 BitCount = 147 ID = 270598208x
   2.594173 1  10780040x       Rx   d 8 00 00 01 04 08 00 00 22  Length = 4288208 BitCount = 147 ID = 276299840x
   2.599214 1  10220040x       Rx   d 8 10 00 00 00 00 04 00 00  Length = 4318223 BitCount = 148 ID = 270663744x
   2.603597 1  10788040x       Rx   d 6 08 00 00 00 00 00  Length = 3778216 BitCount = 130 ID = 276332608x
   2.609123 1  1022E040x       Rx   d 8 00 00 00 00 00 00 00 00  Length = 4318208 BitCount = 148 ID = 270721088x
   2.613266 1  10806040x       Rx   d 5 00 00 00 00 19  Length = 3418220 BitCount = 118 ID = 276848704x
   2.619059 1  10230040x       Rx   d 8 10 00 00 00 10 00 00 00  Length = 4258208 BitCount = 146 ID = 270729280x
   2.629143 1  1043A040x       Rx   d 8 00 00 37 00 00 00 00 00  Length = 4318208 BitCount = 148 ID = 272867392x
   2.639046 1  10240040x       Rx   d 8 83 FE 88 01 01 08 0F FC  Length = 4198223 BitCount = 144 ID = 270794816x
   2.644177 1  106B8040x       Rx   d 8 00 00 00 00 00 00 00 00  Length = 4314558 BitCount = 148 ID = 275480640x
   2.646882 1  13FFE040x       Rx   d 0  Length = 2068260 BitCount = 73 ID = 335536192x
   2.659005 1  102CA040x       Rx   d 8 00 40 0C AC 2B 00 F1 00  Length = 4104566 BitCount = 141 ID = 271360064x
   2.679113 1  10264040x       Rx   d 8 04 06 00 00 00 00 00 3A  Length = 4198208 BitCount = 144 ID = 270942272x
   2.682119 1  106B0040x       Rx   d 1 00  Length = 2308248 BitCount = 81 ID = 275447872x
   2.689011 CAN 1 Status:chip status error active  - TxErr: 0 RxErr: 1
   2.689018 1  ErrorFrame	Flags = 0xfffe	CodeExt = 0x2072	Code = 0x81	ID = 0x90210040	DLC = 8	Position = 120	Length = 4104375	Data = 0  0  0  0  0  0  0  0
   2.693600 CAN 1 Status:chip status error active
   2.693817 1  10210040x       Rx   d 8 00 00 00 00 00 00 00 00  Length = 4284562 BitCount = 147 ID = 270598208x
   2.699162 1  10220040x       Rx   d 8 10 00 00 00 00 05 00 00  Length = 4288208 BitCount = 147 ID = 270663744x
   2.709129 1  1022E040x       Rx   d 8 20 00 00 00 20 00 00 00  Length = 4288208 BitCount = 147 ID = 270721088x
   2.712847 1  10734099x       Rx   d 6 24 41 00 7D 00 00  Length = 3594590 BitCount = 124 ID = 275988633x
   2.718900 CAN 1 Status:chip status error active  - TxErr: 0 RxErr: 1
   2.718907 1  ErrorFrame	Flags = 0xfffe	CodeExt = 0x2072	Code = 0x81	ID = 0x90230040	DLC = 8	Position = 120	Length = 4074375	Data = 0x30  0  0  0  0x30  0  0  0
   2.723459 CAN 1 Status:chip status error active
   2.723677 1  10230040x       Rx   d 8 30 00 00 00 30 00 00 00  Length = 4254562 BitCount = 146 ID = 270729280x
   2.728422 1  621             Rx   d 8 00 52 00 00 00 00 00 00  Length = 3598231 BitCount = 124 ID = 1569
   2.739016 1  1022A040x       Rx   d 8 00 B0 00 12 42 00 00 22  Length = 4138208 BitCount = 142 ID = 270704704x
   2.743551 1  1022C040x       Rx   d 6 00 10 00 20 00 00  Length = 3688216 BitCount = 127 ID = 270712896x
   2.749076 1  10240040x       Rx   d 8 83 FE 88 01 01 08 0F FC  Length = 4198223 BitCount = 144 ID = 270794816x
   2.758707 1  10248040x       Rx   d 7 00 00 6D D0 CC 09 00  Length = 3834578 BitCount = 132 ID = 270827584x
   2.764022 1  102CA040x       Rx   d 8 00 40 0C B9 2B 00 F1 00  Length = 4078227 BitCount = 140 ID = 271360064x
   2.769037 1  102CC040x       Rx   d 8 00 09 CF 69 00 87 06 AA  Length = 4048227 BitCount = 139 ID = 271368256x
   2.779060 1  10264040x       Rx   d 8 04 06 00 00 00 00 00 3A  Length = 4198208 BitCount = 144 ID = 270942272x
   2.784013 1  102CE040x       Rx   d 8 90 00 65 7F 00 00 26 AA  Length = 4108212 BitCount = 141 ID = 271376448x
   2.786235 1  13FFE060x       Rx   d 0  Length = 2098271 BitCount = 74 ID = 335536224x
   2.790644 1  10210040x       Rx   d 8 00 00 00 00 00 00 00 00  Length = 4284562 BitCount = 147 ID = 270598208x
   2.792840 1  13FFE080x       Rx   d 0  Length = 2068260 BitCount = 73 ID = 335536256x
   2.799172 1  10220040x       Rx   d 8 10 00 00 00 00 06 00 00  Length = 4288208 BitCount = 147 ID = 270663744x
   2.801367 1  13FFE099x       Rx   d 0  Length = 2068275 BitCount = 73 ID = 335536281x
   2.803796 1  106B0040x       Rx   d 1 00  Length = 2304686 BitCount = 81 ID = 275447872x
   2.809197 1  1022E040x       Rx   d 8 00 00 00 00 00 00 00 00  Length = 4314558 BitCount = 148 ID = 270721088x
   2.814210 1  10780040x       Rx   d 8 00 00 01 04 08 00 00 22  Length = 4288208 BitCount = 147 ID = 276299840x
   2.818619 1  C800040x        Rx   d 6 08 CB 00 00 23 39  Length = 3654601 BitCount = 126 ID = 209715264x
   2.824144 1  10230040x       Rx   d 8 10 00 00 00 10 00 00 00  Length = 4258208 BitCount = 146 ID = 270729280x
   2.839090 1  10240040x       Rx   d 8 83 FF 88 01 01 08 0F FC  Length = 4198208 BitCount = 144 ID = 270794816x
   2.844222 1  106B8040x       Rx   d 8 00 00 00 00 00 00 00 00  Length = 4314558 BitCount = 148 ID = 275480640x
   2.848156 1  102C0040x       Rx   d 5 AE EF 44 59 03  Length = 3298224 BitCount = 114 ID = 271319104x
   2.859051 1  102CA040x       Rx   d 8 00 40 0C A1 2B 00 F1 00  Length = 4108212 BitCount = 141 ID = 271360064x
   2.864421 1  624             Rx   d 8 00 20 00 00 00 00 00 00  Length = 3624601 BitCount = 125 ID = 1572
   2.870930 1  10306099x       Rx   d 3 44 59 01  Length = 2754642 BitCount = 96 ID = 271605913x
   2.876718 1  10304058x       Rx   d 3 44 59 01  Length = 2724642 BitCount = 95 ID = 271597656x
   2.881040 1  10264040x       Rx   d 8 04 06 00 00 00 00 00 3A  Length = 4198208 BitCount = 144 ID = 270942272x
   2.886708 1  10308060x       Rx   d 3 44 59 01  Length = 2784638 BitCount = 97 ID = 271614048x
   2.891117 1  10210040x       Rx   d 8 00 00 00 00 00 00 00 00  Length = 4284562 BitCount = 147 ID = 270598208x
   2.899252 1  10220040x       Rx   d 8 10 00 00 00 00 05 00 00  Length = 4288208 BitCount = 147 ID = 270663744x
   2.904176 1  1043A040x       Rx   d 8 00 00 36 00 00 00 00 00  Length = 4288208 BitCount = 147 ID = 272867392x
   2.909219 1  1022E040x       Rx   d 8 20 00 00 00 20 00 00 00  Length = 4288208 BitCount = 147 ID = 270721088x
   2.913930 1  1080A040x       Rx   d 7 00 00 00 00 00 00 00  Length = 4018212 BitCount = 138 ID = 276865088x
   2.917681 1  62C             Rx   d 8 00 40 00 00 00 00 00 00  Length = 3624586 BitCount = 125 ID = 1580
   2.922060 1  10230040x       Rx   d 8 30 00 00 00 30 00 00 00  Length = 4254562 BitCount = 146 ID = 270729280x
   2.925750 1  631             Rx   d 8 00 40 00 00 00 00 00 00  Length = 3564590 BitCount = 123 ID = 1585
   2.928184 1  106B0040x       Rx   d 1 00  Length = 2308248 BitCount = 81 ID = 275447872x
   2.939106 1  10240040x       Rx   d 8 83 FF 88 01 01 08 0F FC  Length = 4198208 BitCount = 144 ID = 270794816x
   2.945948 1  13FFE058x       Rx   d 0  Length = 2098256 BitCount = 74 ID = 335536216x
   2.950361 1  13FFE0AFx       Rx   d 0  Length = 2068260 BitCount = 73 ID = 335536303x
   2.959089 1  102CA040x       Rx   d 8 00 40 0C A0 2B 00 F1 00  Length = 4104566 BitCount = 141 ID = 271360064x
   2.967041 1  10448060x       Rx   d 4 00 00 45 40  Length = 3084618 BitCount = 107 ID = 272924768x
   2.979166 1  10264040x       Rx   d 8 04 06 00 00 00 00 00 27  Length = 4228208 BitCount = 145 ID = 270942272x
   2.989218 1  10210040x       Rx   d 8 00 00 00 00 00 00 00 00  Length = 4288208 BitCount = 147 ID = 270598208x
   2.994081 1  1022A040x       Rx   d 8 00 B0 00 12 42 00 00 22  Length = 4138208 BitCount = 142 ID = 270704704x
   2.999271 1  10220040x       Rx   d 8 10 00 00 00 00 04 00 00  Length = 4314558 BitCount = 148 ID = 270663744x
   3.003592 1  1022C040x       Rx   d 6 00 10 00 20 00 00  Length = 3684586 BitCount = 127 ID = 270712896x
   3.009297 1  1022E040x       Rx   d 8 00 00 00 00 00 00 00 00  Length = 4318208 BitCount = 148 ID = 270721088x
   3.012510 1  10250040x       Rx   d 2 00 03  Length = 2608240 BitCount = 91 ID = 270860352x
   3.016771 1  Statistic: D 4 R 0 XD 149 XR 0 E 2 O 0 B 60.81%
   3.016771 2  Statistic: D 0 R 0 XD 0 XR 0 E 0 O 0 B 0.00%
   3.016771 3  Statistic: D 0 R 0 XD 0 XR 0 E 0 O 0 B 0.00%
   3.019263 1  10230040x       Rx   d 8 10 00 00 00 10 00 00 00  Length = 4258208 BitCount = 146 ID = 270729280x
   3.024065 1  102CC040x       Rx   d 8 00 09 CF 69 00 87 06 AB  Length = 4048227 BitCount = 139 ID = 271368256x
   3.029168 1  102CE040x       Rx   d 8 90 00 65 7F 00 00 26 AA  Length = 4108212 BitCount = 141 ID = 271376448x
   3.034031 1  102D0040x       Rx   d 8 01 69 01 ED 7C 8A 00 FF  Length = 4078212 BitCount = 140 ID = 271384640x
   3.039162 1  10240040x       Rx   d 8 83 FF 88 01 01 08 0F FC  Length = 4198208 BitCount = 144 ID = 270794816x
   3.044145 1  102E0040x       Rx   d 8 00 33 CA 6E 8A 00 62 81  Length = 4138208 BitCount = 142 ID = 271450176x
   3.048377 1  10466040x       Rx   d 5 00 00 00 00 00  Length = 3448220 BitCount = 119 ID = 273047616x
   3.052218 1  106B0040x       Rx   d 1 00  Length = 2308248 BitCount = 81 ID = 275447872x
   3.059089 1  102CA040x       Rx   d 8 00 40 0C B6 2B 00 F1 00  Length = 4074566 BitCount = 140 ID = 271360064x
   3.064251 1  106B8040x       Rx   d 8 00 00 00 00 00 00 00 00  Length = 4314558 BitCount = 148 ID = 275480640x
   3.068632 1  C800040x        Rx   d 6 08 CB 00 00 23 3B  Length = 3594590 BitCount = 124 ID = 209715264x
   3.073347 1  106C0040x       Rx   d 5 00 06 0F 07 00  Length = 3448220 BitCount = 119 ID = 275513408x
   3.079290 1  10264040x       Rx   d 8 04 06 00 00 00 00 00 3B  Length = 4228208 BitCount = 145 ID = 270942272x
   3.083071 1  1077C040x       Rx   d 4 30 30 01 F4  Length = 3148239 BitCount = 109 ID = 276283456x
   3.089095 CAN 1 Status:chip status error active  - TxErr: 0 RxErr: 1
   3.089102 1  ErrorFrame	Flags = 0xfffe	CodeExt = 0x2072	Code = 0x81	ID = 0x90210040	DLC = 8	Position = 120	Length = 4104375	Data = 0  0  0  0  0  0  0  0
   3.093684 CAN 1 Status:chip status error active
   3.093902 1  10210040x       Rx   d 8 00 00 00 00 00 00 00 00  Length = 4284562 BitCount = 147 ID = 270598208x
   3.099277 1  10220040x       Rx   d 8 10 00 00 00 00 08 00 00  Length = 4318223 BitCount = 148 ID = 270663744x
   3.104290 1  10780040x       Rx   d 8 00 00 01 04 08 00 00 22  Length = 4288208 BitCount = 147 ID = 276299840x
   3.109243 1  1022E040x       Rx   d 8 20 00 00 00 20 00 00 00  Length = 4288208 BitCount = 147 ID = 270721088x
   3.113716 1  10788040x       Rx   d 6 08 00 00 00 00 00  Length = 3778216 BitCount = 130 ID = 276332608x
   3.119181 1  10230040x       Rx   d 8 30 00 00 00 30 00 00 00  Length = 4258208 BitCount = 146 ID = 270729280x
   3.123385 1  10806040x       Rx   d 5 00 00 00 00 19  Length = 3418220 BitCount = 118 ID = 276848704x
   3.129238 1  1043A040x       Rx   d 8 00 00 35 00 00 00 00 00  Length = 4288223 BitCount = 147 ID = 272867392x
   3.139170 1  10240040x       Rx   d 8 83 FF 88 01 01 08 0F FC  Length = 4198208 BitCount = 144 ID = 270794816x
   3.148235 1  102C0040x       Rx   d 5 AE EF 44 59 03  Length = 3298224 BitCount = 114 ID = 271319104x
   3.159101 1  102CA040x       Rx   d 8 00 40 0C D1 2B 00 F1 00  Length = 4108212 BitCount = 141 ID = 271360064x
   3.163481 1  106D0080x       Rx   d 2 00 00  Length = 2574658 BitCount = 90 ID = 275579008x
   3.165675 1  13FFE068x       Rx   d 0  Length = 2068260 BitCount = 73 ID = 335536232x
   3.168587 1  10308060x       Rx   d 3 44 59 01  Length = 2788236 BitCount = 97 ID = 271614048x
   3.171467 1  10306099x       Rx   d 3 44 59 01  Length = 2754657 BitCount = 96 ID = 271605913x
   3.173899 1  106B0040x       Rx   d 1 00  Length = 2308248 BitCount = 81 ID = 275447872x
   3.176747 1  10304058x       Rx   d 3 44 59 01  Length = 2724657 BitCount = 95 ID = 271597656x
   3.181097 1  10264040x       Rx   d 8 04 06 00 00 00 00 00 3B  Length = 4224562 BitCount = 145 ID = 270942272x
   3.189412 1  10210040x       Rx   d 8 00 00 00 00 00 00 00 00  Length = 4288208 BitCount = 147 ID = 270598208x
   3.199257 1  10220040x       Rx   d 8 10 00 00 00 00 06 00 00  Length = 4288223 BitCount = 147 ID = 270663744x
   3.209251 1  1022E040x       Rx   d 8 00 00 00 00 00 00 00 00  Length = 4318208 BitCount = 148 ID = 270721088x
   3.212976 1  10734099x       Rx   d 6 24 41 00 7D 00 00  Length = 3598216 BitCount = 124 ID = 275988633x
   3.219279 1  10230040x       Rx   d 8 10 00 00 00 10 00 00 00  Length = 4258223 BitCount = 146 ID = 270729280x
   3.239145 1  1022A040x       Rx   d 8 00 B0 00 12 42 00 00 22  Length = 4134566 BitCount = 142 ID = 270704704x
   3.243650 1  1022C040x       Rx   d 6 00 10 00 20 00 00  Length = 3688216 BitCount = 127 ID = 270712896x
   3.249205 1  10240040x       Rx   d 8 83 FE 88 01 01 08 0F FC  Length = 4198208 BitCount = 144 ID = 270794816x
   3.254308 1  106B8040x       Rx   d 8 00 00 00 00 00 00 00 00  Length = 4318208 BitCount = 148 ID = 275480640x
   3.258841 1  10248040x       Rx   d 7 00 00 6D D0 CC 09 00  Length = 3838212 BitCount = 132 ID = 270827584x
   3.264121 1  102CA040x       Rx   d 8 00 40 0C AF 2B 00 F1 00  Length = 4074581 BitCount = 140 ID = 271360064x
   3.269076 1  102CC040x       Rx   d 8 00 09 CF 69 00 87 06 AA  Length = 4048212 BitCount = 139 ID = 271368256x
   3.279220 1  10264040x       Rx   d 8 04 06 00 00 00 00 00 27  Length = 4228208 BitCount = 145 ID = 270942272x
   3.284141 1  102CE040x       Rx   d 8 90 00 65 7F 00 00 26 AA  Length = 4108212 BitCount = 141 ID = 271376448x
   3.289391 1  10210040x       Rx   d 8 00 00 00 00 00 00 00 00  Length = 4284562 BitCount = 147 ID = 270598208x
   3.292276 1  106B0040x       Rx   d 1 00  Length = 2308248 BitCount = 81 ID = 275447872x
   3.299451 1  10220040x       Rx   d 8 10 00 00 00 00 08 00 00  Length = 4318208 BitCount = 148 ID = 270663744x
   3.302633 1  10814099x       Rx   d 4 20 44 2E 00  Length = 3058228 BitCount = 106 ID = 276906137x
   3.309237 1  1022E040x       Rx   d 8 20 00 00 00 20 00 00 00  Length = 4288208 BitCount = 147 ID = 270721088x
   3.314340 1  10780040x       Rx   d 8 00 00 01 04 08 00 00 22  Length = 4288223 BitCount = 147 ID = 276299840x
   3.318662 1  C800040x        Rx   d 6 08 CB 00 00 23 3F  Length = 3628216 BitCount = 125 ID = 209715264x
   3.324273 1  10230040x       Rx   d 8 30 00 00 00 30 00 00 00  Length = 4258208 BitCount = 146 ID = 270729280x
   3.339245 1  10240040x       Rx   d 8 83 FE 88 01 01 08 0F FC  Length = 4194562 BitCount = 144 ID = 270794816x
   3.359143 1  102CA040x       Rx   d 8 00 40 0C B6 2B 00 F1 00  Length = 4078227 BitCount = 140 ID = 271360064x
   3.379342 1  10264040x       Rx   d 8 04 06 00 00 00 00 00 3B  Length = 4228208 BitCount = 145 ID = 270942272x
   3.384327 1  1043A040x       Rx   d 8 00 00 37 00 00 00 00 00  Length = 4318208 BitCount = 148 ID = 272867392x
   3.389339 1  10210040x       Rx   d 8 00 00 00 00 00 00 00 00  Length = 4288208 BitCount = 147 ID = 270598208x
   3.399333 1  10220040x       Rx   d 8 10 00 00 00 00 06 00 00  Length = 4288208 BitCount = 147 ID = 270663744x
   3.409357 1  1022E040x       Rx   d 8 00 00 00 00 00 00 00 00  Length = 4318223 BitCount = 148 ID = 270721088x
   3.412300 1  106B0040x       Rx   d 1 00  Length = 2308248 BitCount = 81 ID = 275447872x
   3.419260 1  10230040x       Rx   d 8 10 00 00 00 10 00 00 00  Length = 4254562 BitCount = 146 ID = 270729280x
   3.439215 1  10240040x       Rx   d 8 83 FF 88 01 01 08 0F FC  Length = 4194562 BitCount = 144 ID = 270794816x
   3.444346 1  106B8040x       Rx   d 8 00 00 00 00 00 00 00 00  Length = 4314558 BitCount = 148 ID = 275480640x
   3.448431 1  102C0040x       Rx   d 5 AE EF 44 59 03  Length = 3298224 BitCount = 114 ID = 271319104x
   3.459203 1  102CA040x       Rx   d 8 00 40 0C B1 2B 00 F1 00  Length = 4108223 BitCount = 141 ID = 271360064x
   3.470935 1  10306099x       Rx   d 3 44 59 01  Length = 2758236 BitCount = 96 ID = 271605913x
   3.476484 1  10304058x       Rx   d 3 44 59 01  Length = 2724642 BitCount = 95 ID = 271597656x
   3.480836 1  10264040x       Rx   d 8 04 06 00 00 00 00 00 3B  Length = 4228223 BitCount = 145 ID = 270942272x
   3.486687 1  10308060x       Rx   d 3 44 59 01  Length = 2788236 BitCount = 97 ID = 271614048x
   3.491097 1  10210040x       Rx   d 8 00 00 00 00 00 00 00 00  Length = 4284562 BitCount = 147 ID = 270598208x
   3.499411 1  10220040x       Rx   d 8 10 00 00 00 00 08 00 00  Length = 4318208 BitCount = 148 ID = 270663744x
   3.504214 1  1022A040x       Rx   d 8 00 B0 00 12 42 00 00 22  Length = 4138208 BitCount = 142 ID = 270704704x
   3.508714 1  1022C040x       Rx   d 6 00 10 00 20 00 00  Length = 3684586 BitCount = 127 ID = 270712896x
   3.514299 1  1022E040x       Rx   d 8 20 00 00 00 20 00 00 00  Length = 4288208 BitCount = 147 ID = 270721088x
   3.519282 1  10230040x       Rx   d 8 30 00 00 00 30 00 00 00  Length = 4258208 BitCount = 146 ID = 270729280x
   3.524235 1  102CC040x       Rx   d 8 00 09 CF 69 00 87 06 AB  Length = 4048212 BitCount = 139 ID = 271368256x
   3.529276 1  102CE040x       Rx   d 8 90 00 65 7F 00 00 26 AA  Length = 4108212 BitCount = 141 ID = 271376448x
   3.534139 1  102D0040x       Rx   d 8 01 69 01 ED 7C 8A 00 FF  Length = 4078212 BitCount = 140 ID = 271384640x
   3.539269 1  10240040x       Rx   d 8 83 FE 88 01 01 08 0F FC  Length = 4194577 BitCount = 144 ID = 270794816x
   3.542600 1  10250040x       Rx   d 2 00 05  Length = 2574658 BitCount = 90 ID = 270860352x
   3.546355 1  108E0080x       Rx   d 6 0E 01 17 02 03 E6  Length = 3628216 BitCount = 125 ID = 277741696x
   3.548787 1  106B0040x       Rx   d 1 00  Length = 2308248 BitCount = 81 ID = 275447872x
   3.553279 CAN 1 Status:chip status error active  - TxErr: 0 RxErr: 1
   3.553287 1  ErrorFrame	Flags = 0xfffe	CodeExt = 0x2072	Code = 0x81	ID = 0x90806040	DLC = 5	Position = 96	Length = 3234375	Data = 0  0  0  0  0x19
   3.556998 CAN 1 Status:chip status error active
   3.557028 CAN 1 Status:chip status error active  - TxErr: 0 RxErr: 1
   3.557035 1  ErrorFrame	Flags = 0xfffe	CodeExt = 0x2072	Code = 0x81	ID = 0x90806040	DLC = 5	Position = 96	Length = 3234375	Data = 0  0  0  0  0x19
   3.560747 CAN 1 Status:chip status error active
   3.560964 1  10806040x       Rx   d 5 00 00 00 00 19  Length = 3414598 BitCount = 118 ID = 276848704x
   3.568740 1  C800040x        Rx   d 6 08 CB 00 00 23 41  Length = 3658216 BitCount = 126 ID = 209715264x
   3.574205 1  102CA040x       Rx   d 8 00 40 0C B6 2B 00 F1 00  Length = 4078212 BitCount = 140 ID = 271360064x
   3.579336 1  10264040x       Rx   d 8 04 06 00 00 00 00 00 3B  Length = 4224562 BitCount = 145 ID = 270942272x
   3.584411 1  10780040x       Rx   d 8 00 00 01 04 08 00 00 22  Length = 4288208 BitCount = 147 ID = 276299840x
   3.589423 1  10210040x       Rx   d 8 00 00 00 00 00 00 00 00  Length = 4288208 BitCount = 147 ID = 270598208x
   3.593836 1  10788040x       Rx   d 6 08 00 00 00 00 00  Length = 3778216 BitCount = 130 ID = 276332608x
   3.599391 1  10220040x       Rx   d 8 10 00 00 00 00 08 00 00  Length = 4318223 BitCount = 148 ID = 270663744x
   3.609355 1  1022E040x       Rx   d 8 00 00 00 00 00 00 00 00  Length = 4318208 BitCount = 148 ID = 270721088x
   3.619290 1  10230040x       Rx   d 8 10 00 00 00 10 00 00 00  Length = 4258208 BitCount = 146 ID = 270729280x
   3.628416 1  1020C040x       Rx   d 5 00 C0 04 04 01  Length = 3358235 BitCount = 116 ID = 270581824x
   3.634356 1  1043A040x       Rx   d 8 00 00 36 00 00 00 00 00  Length = 4284562 BitCount = 147 ID = 272867392x
   3.639371 1  10240040x       Rx   d 8 83 FF 88 01 01 08 0F FC  Length = 4198208 BitCount = 144 ID = 270794816x
   3.644410 1  106B8040x       Rx   d 8 00 00 00 00 00 00 00 00  Length = 4314558 BitCount = 148 ID = 275480640x
   3.657618 1  10250040x       Rx   d 2 02 12  Length = 2548240 BitCount = 89 ID = 270860352x
   3.664283 1  102CA040x       Rx   d 8 00 40 0C C0 2B 00 F1 00  Length = 4138223 BitCount = 142 ID = 271360064x
   3.667464 1  106B0040x       Rx   d 1 00  Length = 2308263 BitCount = 81 ID = 275447872x
   3.679408 1  10264040x       Rx   d 8 04 06 00 00 00 00 00 27  Length = 4228208 BitCount = 145 ID = 270942272x
   3.682892 1  10758040x       Rx   d 3 22 00 00  Length = 2818232 BitCount = 98 ID = 276136000x
   3.689407 1  10210040x       Rx   d 8 00 00 00 00 00 00 00 00  Length = 4288223 BitCount = 147 ID = 270598208x
   3.699371 1  10220040x       Rx   d 8 10 00 00 00 00 06 00 00  Length = 4288208 BitCount = 147 ID = 270663744x
   3.709335 1  1022E040x       Rx   d 8 20 00 00 00 20 00 00 00  Length = 4288208 BitCount = 147 ID = 270721088x
   3.713055 1  10734099x       Rx   d 6 24 41 00 7D 00 00  Length = 3594590 BitCount = 124 ID = 275988633x
   3.719390 1  10230040x       Rx   d 8 30 00 00 00 30 00 00 00  Length = 4258208 BitCount = 146 ID = 270729280x
   3.728695 1  621             Rx   d 8 00 52 00 00 00 00 00 00  Length = 3598216 BitCount = 124 ID = 1569
   3.731662 1  13FFE0BBx       Rx   d 0  Length = 2034718 BitCount = 72 ID = 335536315x
   3.739317 1  1022A040x       Rx   d 8 00 B0 00 12 42 00 00 22  Length = 4138223 BitCount = 142 ID = 270704704x
   3.743784 1  1022C040x       Rx   d 6 00 10 00 20 00 00  Length = 3684586 BitCount = 127 ID = 270712896x
   3.749339 1  10240040x       Rx   d 8 83 FF 88 01 01 08 00 00  Length = 4228208 BitCount = 145 ID = 270794816x
   3.753362 1  102C0040x       Rx   d 5 AE EF 44 59 03  Length = 3298224 BitCount = 114 ID = 271319104x
   3.758946 1  10248040x       Rx   d 7 00 00 6D D0 CC 09 00  Length = 3838227 BitCount = 132 ID = 270827584x
   3.764285 1  102CA040x       Rx   d 8 00 40 0C AD 2B 00 F1 00  Length = 4104566 BitCount = 141 ID = 271360064x
   3.767200 1  10308060x       Rx   d 3 44 59 01  Length = 2788247 BitCount = 97 ID = 271614048x
   3.769869 1  10250040x       Rx   d 2 02 1D  Length = 2544658 BitCount = 89 ID = 270860352x
   3.772749 1  10306099x       Rx   d 3 44 59 01  Length = 2754642 BitCount = 96 ID = 271605913x
   3.776922 1  102CC040x       Rx   d 8 00 09 CF 69 00 87 06 AB  Length = 4048212 BitCount = 139 ID = 271368256x
   3.779771 1  10304058x       Rx   d 3 44 59 01  Length = 2724642 BitCount = 95 ID = 271597656x
   3.784334 1  10264040x       Rx   d 8 04 06 00 00 00 00 00 3B  Length = 4228208 BitCount = 145 ID = 270942272x
   3.789435 1  10210040x       Rx   d 8 00 00 00 00 00 00 00 00  Length = 4284562 BitCount = 147 ID = 270598208x
   3.794270 1  102CE040x       Rx   d 8 90 00 65 7F 00 00 26 AA  Length = 4108223 BitCount = 141 ID = 271376448x
   3.799430 1  10220040x       Rx   d 8 10 00 00 00 00 05 00 00  Length = 4284562 BitCount = 147 ID = 270663744x
   3.802404 1  106B0040x       Rx   d 1 00  Length = 2308248 BitCount = 81 ID = 275447872x
   3.809398 1  1022E040x       Rx   d 8 00 00 00 00 00 00 00 00  Length = 4318208 BitCount = 148 ID = 270721088x
   3.814469 1  10780040x       Rx   d 8 00 00 01 04 08 00 00 22  Length = 4288208 BitCount = 147 ID = 276299840x
   3.818850 1  C800040x        Rx   d 6 08 CB 00 00 23 45  Length = 3598231 BitCount = 124 ID = 209715264x
   3.824401 1  10230040x       Rx   d 8 10 00 00 00 10 00 00 00  Length = 4258208 BitCount = 146 ID = 270729280x
   3.839319 1  10240040x       Rx   d 8 83 FE 88 01 01 08 0F FC  Length = 4198208 BitCount = 144 ID = 270794816x
   3.844450 1  106B8040x       Rx   d 8 00 00 00 00 00 00 00 00  Length = 4314573 BitCount = 148 ID = 275480640x
   3.847305 1  13FFE040x       Rx   d 0  Length = 2068260 BitCount = 73 ID = 335536192x
   3.859310 1  102CA040x       Rx   d 8 00 40 0C 9F 2B 00 F1 00  Length = 4108212 BitCount = 141 ID = 271360064x
   3.877707 1  10250040x       Rx   d 2 02 26  Length = 2518240 BitCount = 88 ID = 270860352x
   3.884370 1  10264040x       Rx   d 8 04 06 00 00 00 00 00 3B  Length = 4228223 BitCount = 145 ID = 270942272x
   3.889473 1  10210040x       Rx   d 8 00 00 00 00 00 00 00 00  Length = 4288223 BitCount = 147 ID = 270598208x
   3.894424 1  1043A040x       Rx   d 8 00 00 36 00 00 00 00 00  Length = 4288208 BitCount = 147 ID = 272867392x
   3.899497 1  10220040x       Rx   d 8 10 00 00 00 00 05 00 00  Length = 4288208 BitCount = 147 ID = 270663744x
   3.904149 1  1080A040x       Rx   d 7 00 00 00 00 00 00 00  Length = 4018212 BitCount = 138 ID = 276865088x
   3.909400 1  1022E040x       Rx   d 8 20 00 00 00 20 00 00 00  Length = 4284562 BitCount = 147 ID = 270721088x
   3.919366 1  10230040x       Rx   d 8 30 00 00 00 30 00 00 00  Length = 4258208 BitCount = 146 ID = 270729280x
   3.922429 1  106B0040x       Rx   d 1 00  Length = 2308263 BitCount = 81 ID = 275447872x
   3.939445 1  10240040x       Rx   d 8 83 FF 88 01 01 08 0F FC  Length = 4198208 BitCount = 144 ID = 270794816x
   3.959308 1  102CA040x       Rx   d 8 00 40 0C AC 2B 00 F1 00  Length = 4104566 BitCount = 141 ID = 271360064x
   3.967022 1  10448060x       Rx   d 4 00 00 45 40  Length = 3088228 BitCount = 107 ID = 272924768x
   3.979417 1  10264040x       Rx   d 8 04 06 00 00 00 00 00 27  Length = 4228223 BitCount = 145 ID = 270942272x
   3.983017 1  13FFE080x       Rx   d 0  Length = 2064729 BitCount = 73 ID = 335536256x
   3.986051 1  13FFE060x       Rx   d 0  Length = 2098256 BitCount = 74 ID = 335536224x
   3.990460 1  10210040x       Rx   d 8 00 00 00 00 00 00 00 00  Length = 4284562 BitCount = 147 ID = 270598208x
   3.999556 1  10220040x       Rx   d 8 10 00 00 00 00 06 00 00  Length = 4288208 BitCount = 147 ID = 270663744x
   4.001748 1  13FFE099x       Rx   d 0  Length = 2068260 BitCount = 73 ID = 335536281x
   4.002228 Li SleepModeEvent 0 entering sleep mode due to bus idle timeout
   4.006011 1  1022A040x       Rx   d 8 00 B0 00 12 42 00 00 22  Length = 4138208 BitCount = 142 ID = 270704704x
   4.013839 1  1022C040x       Rx   d 6 00 10 00 20 00 00  Length = 3684597 BitCount = 127 ID = 270712896x
   4.016771 1  Statistic: D 1 R 0 XD 153 XR 0 E 3 O 0 B 61.06%
   4.016771 2  Statistic: D 0 R 0 XD 0 XR 0 E 0 O 0 B 0.00%
   4.016771 3  Statistic: D 0 R 0 XD 0 XR 0 E 0 O 0 B 0.00%
   4.019394 1  1022E040x       Rx   d 8 10 00 00 00 10 00 00 00  Length = 4258208 BitCount = 146 ID = 270721088x
   4.024406 1  10230040x       Rx   d 8 10 00 00 00 10 00 00 00  Length = 4254562 BitCount = 146 ID = 270729280x
   4.027767 1  10250040x       Rx   d 2 02 33  Length = 2574658 BitCount = 90 ID = 270860352x
   4.034252 1  102CC040x       Rx   d 8 00 09 CF 69 00 87 06 AB  Length = 4048227 BitCount = 139 ID = 271368256x
   4.039413 1  10240040x       Rx   d 8 83 FF 88 01 01 08 0F FC  Length = 4194562 BitCount = 144 ID = 270794816x
   4.044338 1  102CE040x       Rx   d 8 90 00 65 7F 00 00 26 AA  Length = 4108212 BitCount = 141 ID = 271376448x
   4.048450 1  102C0040x       Rx   d 5 AE EF 44 59 03  Length = 3298224 BitCount = 114 ID = 271319104x
   4.054363 1  102D0040x       Rx   d 8 01 69 01 ED 7C 8C 00 FF  Length = 4168208 BitCount = 143 ID = 271384640x
   4.059404 1  102CA040x       Rx   d 8 00 40 0C C5 2C 00 F1 00  Length = 4138208 BitCount = 142 ID = 271360064x
   4.064387 1  102E0040x       Rx   d 8 00 33 CA 6E 8A 00 62 81  Length = 4138208 BitCount = 142 ID = 271450176x
   4.068795 1  C800040x        Rx   d 6 08 CB 00 00 23 47  Length = 3594590 BitCount = 124 ID = 209715264x
   4.071679 1  10306099x       Rx   d 3 44 59 01  Length = 2758236 BitCount = 96 ID = 271605913x
   4.074112 1  106B0040x       Rx   d 1 00  Length = 2308248 BitCount = 81 ID = 275447872x
   4.076960 1  10304058x       Rx   d 3 44 59 01  Length = 2724642 BitCount = 95 ID = 271597656x
   4.081283 1  10264040x       Rx   d 8 04 06 00 00 00 00 00 3D  Length = 4198208 BitCount = 144 ID = 270942272x
   4.086682 1  10308060x       Rx   d 3 44 59 01  Length = 2784638 BitCount = 97 ID = 271614048x
   4.091092 1  10210040x       Rx   d 8 00 00 00 00 00 00 00 00  Length = 4284562 BitCount = 147 ID = 270598208x
   4.099495 1  10220040x       Rx   d 8 10 00 00 00 00 06 00 00  Length = 4288208 BitCount = 147 ID = 270663744x
   4.104509 1  106B8040x       Rx   d 8 00 00 00 00 00 00 00 00  Length = 4318208 BitCount = 148 ID = 275480640x
   4.109462 1  1022E040x       Rx   d 8 20 00 00 00 20 00 00 00  Length = 4288208 BitCount = 147 ID = 270721088x
   4.113603 1  106C0040x       Rx   d 5 00 06 0F 07 00  Length = 3448220 BitCount = 119 ID = 275513408x
   4.119426 1  10230040x       Rx   d 8 30 00 00 00 30 00 00 00  Length = 4258223 BitCount = 146 ID = 270729280x
   4.123358 1  1077C040x       Rx   d 4 30 30 01 F4  Length = 3148224 BitCount = 109 ID = 276283456x
   4.129543 1  1043A040x       Rx   d 8 00 00 37 00 00 00 00 00  Length = 4318223 BitCount = 148 ID = 272867392x
   4.134554 1  10780040x       Rx   d 8 00 00 01 04 08 00 00 22  Length = 4284562 BitCount = 147 ID = 276299840x
   4.139419 1  10240040x       Rx   d 8 83 FE 88 01 01 08 0F FC  Length = 4198208 BitCount = 144 ID = 270794816x
   4.142692 1  10250040x       Rx   d 2 02 37  Length = 2518240 BitCount = 88 ID = 270860352x
   4.145660 1  13FFE058x       Rx   d 0  Length = 2094710 BitCount = 74 ID = 335536216x
   4.149562 1  10788040x       Rx   d 6 08 00 00 00 00 00  Length = 3778231 BitCount = 130 ID = 276332608x
   4.151756 1  13FFE0AFx       Rx   d 0  Length = 2068275 BitCount = 73 ID = 335536303x
   4.155108 CAN 1 Status:chip status error active  - TxErr: 0 RxErr: 1
   4.155115 1  ErrorFrame	Flags = 0xfffe	CodeExt = 0x2072	Code = 0x81	ID = 0x90806040	DLC = 5	Position = 96	Length = 3234375	Data = 0  0  0  0  0x19
   4.158833 CAN 1 Status:chip status error active
   4.159050 1  10806040x       Rx   d 5 00 00 00 00 19  Length = 3418220 BitCount = 118 ID = 276848704x
   4.164390 1  102CA040x       Rx   d 8 00 40 0C CB 2C 00 F1 00  Length = 4134566 BitCount = 142 ID = 271360064x
   4.179517 1  10264040x       Rx   d 8 04 06 00 00 00 00 00 3E  Length = 4228208 BitCount = 145 ID = 270942272x
   4.189541 1  10210040x       Rx   d 8 00 00 00 00 00 00 00 00  Length = 4288208 BitCount = 147 ID = 270598208x
   4.192484 1  106B0040x       Rx   d 1 00  Length = 2308248 BitCount = 81 ID = 275447872x
   4.199504 1  10220040x       Rx   d 8 10 00 00 00 00 05 00 00  Length = 4284562 BitCount = 147 ID = 270663744x
   4.209500 1  1022E040x       Rx   d 8 00 00 00 00 00 00 00 00  Length = 4318208 BitCount = 148 ID = 270721088x
   4.213220 1  10734099x       Rx   d 6 24 41 00 7D 00 00  Length = 3594590 BitCount = 124 ID = 275988633x
   4.219429 1  10230040x       Rx   d 8 10 00 00 00 10 00 00 00  Length = 4254562 BitCount = 146 ID = 270729280x
   4.239447 1  1022A040x       Rx   d 8 00 B0 00 12 42 00 00 22  Length = 4138208 BitCount = 142 ID = 270704704x
   4.243892 1  1022C040x       Rx   d 6 00 10 00 20 00 00  Length = 3688216 BitCount = 127 ID = 270712896x
   4.249568 1  10240040x       Rx   d 8 83 FE 88 01 01 08 0F FC  Length = 4198208 BitCount = 144 ID = 270794816x
   4.254551 1  106B8040x       Rx   d 8 00 00 00 00 00 00 00 00  Length = 4318208 BitCount = 148 ID = 275480640x
   4.259084 1  10248040x       Rx   d 7 00 00 6D D0 CC 09 00  Length = 3838212 BitCount = 132 ID = 270827584x
   4.262749 1  10250040x       Rx   d 2 02 39  Length = 2548255 BitCount = 89 ID = 270860352x
   4.269412 1  102CA040x       Rx   d 8 00 40 0C BB 2B 00 F1 00  Length = 4108212 BitCount = 141 ID = 271360064x
   4.274306 1  102CC040x       Rx   d 8 00 09 CF 69 00 87 06 A9  Length = 4048227 BitCount = 139 ID = 271368256x
   4.279435 1  10264040x       Rx   d 8 04 06 00 00 00 00 00 3D  Length = 4194562 BitCount = 144 ID = 270942272x
   4.284360 1  102CE040x       Rx   d 8 90 00 65 7F 00 00 26 A9  Length = 4078212 BitCount = 140 ID = 271376448x
   4.289579 1  10210040x       Rx   d 8 00 00 00 00 00 00 00 00  Length = 4284562 BitCount = 147 ID = 270598208x
   4.299606 1  10220040x       Rx   d 8 10 00 00 00 00 05 00 00  Length = 4288208 BitCount = 147 ID = 270663744x
   4.309540 1  1022E040x       Rx   d 8 20 00 00 00 20 00 00 00  Length = 4288223 BitCount = 147 ID = 270721088x
   4.312513 1  106B0040x       Rx   d 1 00  Length = 2308248 BitCount = 81 ID = 275447872x
   4.318847 1  C800040x        Rx   d 6 08 CB 00 00 23 4B  Length = 3598216 BitCount = 124 ID = 209715264x
   4.324492 1  10230040x       Rx   d 8 30 00 00 00 30 00 00 00  Length = 4258208 BitCount = 146 ID = 270729280x
   4.329595 1  10780040x       Rx   d 8 00 00 01 04 08 00 00 22  Length = 4288223 BitCount = 147 ID = 276299840x
   4.339437 1  10240040x       Rx   d 8 83 FF 88 01 01 08 0F FC  Length = 4198208 BitCount = 144 ID = 270794816x
   4.348624 1  102C0040x       Rx   d 5 AE EF 44 59 03  Length = 3298224 BitCount = 114 ID = 271319104x
   4.359368 1  102CA040x       Rx   d 8 00 40 0C BD 2B 00 F1 00  Length = 4078212 BitCount = 140 ID = 271360064x
   4.363482 1  106D0080x       Rx   d 2 00 00  Length = 2578240 BitCount = 90 ID = 275579008x
   4.365673 1  13FFE068x       Rx   d 0  Length = 2068260 BitCount = 73 ID = 335536232x
   4.368587 1  10308060x       Rx   d 3 44 59 01  Length = 2788236 BitCount = 97 ID = 271614048x
   4.371470 1  10306099x       Rx   d 3 44 59 01  Length = 2758236 BitCount = 96 ID = 271605913x
   4.376329 1  10304058x       Rx   d 3 44 59 01  Length = 2724642 BitCount = 95 ID = 271597656x
   4.380681 1  10264040x       Rx   d 8 04 06 00 00 00 00 00 29  Length = 4228208 BitCount = 145 ID = 270942272x
   4.389743 1  10210040x       Rx   d 8 00 00 00 00 00 00 00 00  Length = 4288208 BitCount = 147 ID = 270598208x
   4.394609 1  1043A040x       Rx   d 8 00 00 38 00 00 00 00 00  Length = 4348223 BitCount = 149 ID = 272867392x
   4.399592 1  10220040x       Rx   d 8 10 00 00 00 00 07 00 00  Length = 4318208 BitCount = 148 ID = 270663744x
   4.409554 1  1022E040x       Rx   d 8 00 00 00 00 00 00 00 00  Length = 4318208 BitCount = 148 ID = 270721088x
   4.419549 1  10230040x       Rx   d 8 10 00 00 00 10 00 00 00  Length = 4258208 BitCount = 146 ID = 270729280x
   4.427559 1  106B0040x       Rx   d 1 00  Length = 2304686 BitCount = 81 ID = 275447872x
   4.439475 1  10240040x       Rx   d 8 83 FF 88 01 01 08 0F FC  Length = 4198208 BitCount = 144 ID = 270794816x
   4.444607 1  106B8040x       Rx   d 8 00 00 00 00 00 00 00 00  Length = 4318208 BitCount = 148 ID = 275480640x
   4.459457 1  102CA040x       Rx   d 8 00 40 0C B5 2B 00 F1 00  Length = 4134566 BitCount = 142 ID = 271360064x
   4.479475 1  10264040x       Rx   d 8 04 06 00 00 00 00 00 3D  Length = 4198208 BitCount = 144 ID = 270942272x
   4.489592 1  10210040x       Rx   d 8 00 00 00 00 00 00 00 00  Length = 4288223 BitCount = 147 ID = 270598208x
   4.494455 1  1022A040x       Rx   d 8 00 B0 00 12 42 00 00 22  Length = 4138208 BitCount = 142 ID = 270704704x
   4.499616 1  10220040x       Rx   d 8 10 00 00 00 00 06 00 00  Length = 4288208 BitCount = 147 ID = 270663744x
   4.503967 1  1022C040x       Rx   d 6 00 10 00 20 00 00  Length = 3688216 BitCount = 127 ID = 270712896x
   4.509548 1  1022E040x       Rx   d 8 20 00 00 00 20 00 00 00  Length = 4288208 BitCount = 147 ID = 270721088x
   4.519515 1  10230040x       Rx   d 8 30 00 00 00 30 00 00 00  Length = 4258208 BitCount = 146 ID = 270729280x
   4.524378 1  102CC040x       Rx   d 8 00 09 CF 69 00 87 06 AA  Length = 4048212 BitCount = 139 ID = 271368256x
   4.529421 1  102CE040x       Rx   d 8 90 00 65 7F 00 00 26 A9  Length = 4078227 BitCount = 140 ID = 271376448x
   4.534432 1  102D0040x       Rx   d 8 01 69 01 ED 7C 8D 00 FF  Length = 4108223 BitCount = 141 ID = 271384640x
   4.539502 1  10240040x       Rx   d 8 83 FE 88 01 01 08 0F FC  Length = 4194562 BitCount = 144 ID = 270794816x
   4.542597 1  106B0040x       Rx   d 1 00  Length = 2308248 BitCount = 81 ID = 275447872x
   4.546345 1  108E0080x       Rx   d 6 0E 01 17 02 03 E7  Length = 3624586 BitCount = 125 ID = 277741696x
   4.550155 1  10324058x       Rx   d 6 00 00 03 FF 00 00  Length = 3684586 BitCount = 127 ID = 271728728x
   4.553693 1  10806040x       Rx   d 5 00 00 00 00 19  Length = 3414598 BitCount = 118 ID = 276848704x
   4.559489 1  102CA040x       Rx   d 8 00 40 0C D1 2B 00 F1 00  Length = 4108223 BitCount = 141 ID = 271360064x
   4.564648 1  10780040x       Rx   d 8 00 00 01 04 08 00 00 22  Length = 4284562 BitCount = 147 ID = 276299840x
   4.568969 1  C800040x        Rx   d 6 08 CB 00 00 23 4E  Length = 3624586 BitCount = 125 ID = 209715264x
   4.574160 1  10788040x       Rx   d 6 08 00 00 00 00 00  Length = 3774582 BitCount = 130 ID = 276332608x
   4.579505 1  10264040x       Rx   d 8 04 06 00 00 00 00 00 3D  Length = 4198223 BitCount = 144 ID = 270942272x
   4.589622 1  10210040x       Rx   d 8 00 00 00 00 00 00 00 00  Length = 4288208 BitCount = 147 ID = 270598208x
   4.599644 1  10220040x       Rx   d 8 10 00 00 00 00 08 00 00  Length = 4318208 BitCount = 148 ID = 270663744x
   4.609578 1  1022E040x       Rx   d 8 00 00 00 00 00 00 00 00  Length = 4318208 BitCount = 148 ID = 270721088x
   4.619515 1  10230040x       Rx   d 8 10 00 00 00 10 00 00 00  Length = 4258208 BitCount = 146 ID = 270729280x
   4.629599 1  1043A040x       Rx   d 8 00 00 35 00 00 00 00 00  Length = 4288208 BitCount = 147 ID = 272867392x
   4.639534 1  10240040x       Rx   d 8 83 FE 88 01 01 08 0F FC  Length = 4198208 BitCount = 144 ID = 270794816x
   4.644633 1  106B8040x       Rx   d 8 00 00 00 00 00 00 00 00  Length = 4314558 BitCount = 148 ID = 275480640x
   4.648598 1  102C0040x       Rx   d 5 AE EF 44 59 03  Length = 3298224 BitCount = 114 ID = 271319104x
   4.659493 1  102CA040x       Rx   d 8 00 40 0C B0 2B 00 F1 00  Length = 4108212 BitCount = 141 ID = 271360064x
   4.662616 1  106B0040x       Rx   d 1 00  Length = 2308263 BitCount = 81 ID = 275447872x
   4.670924 1  10306099x       Rx   d 3 44 59 01  Length = 2754657 BitCount = 96 ID = 271605913x
   4.676176 1  10304058x       Rx   d 3 44 59 01  Length = 2728236 BitCount = 95 ID = 271597656x
   4.680528 1  10264040x       Rx   d 8 04 06 00 00 00 00 00 27  Length = 4228208 BitCount = 145 ID = 270942272x
   4.686678 1  10308060x       Rx   d 3 44 59 01  Length = 2788236 BitCount = 97 ID = 271614048x
   4.691086 1  10210040x       Rx   d 8 00 00 00 00 00 00 00 00  Length = 4284562 BitCount = 147 ID = 270598208x
   4.699668 1  10220040x       Rx   d 8 10 00 00 00 00 07 00 00  Length = 4314558 BitCount = 148 ID = 270663744x
   4.709575 1  1022E040x       Rx   d 8 20 00 00 00 20 00 00 00  Length = 4288208 BitCount = 147 ID = 270721088x
   4.713293 1  10734099x       Rx   d 6 24 41 00 7D 00 00  Length = 3594590 BitCount = 124 ID = 275988633x
   4.719563 1  10230040x       Rx   d 8 30 00 00 00 30 00 00 00  Length = 4254562 BitCount = 146 ID = 270729280x
   4.728865 1  621             Rx   d 8 00 52 00 00 00 00 00 00  Length = 3594590 BitCount = 124 ID = 1569
   4.739492 1  1022A040x       Rx   d 8 00 B0 00 12 42 00 00 22  Length = 4138223 BitCount = 142 ID = 270704704x
   4.744027 1  1022C040x       Rx   d 6 00 10 00 20 00 00  Length = 3688216 BitCount = 127 ID = 270712896x
   4.749582 1  10240040x       Rx   d 8 83 FE 88 01 01 08 0F FC  Length = 4198208 BitCount = 144 ID = 270794816x
   4.752885 1  10250040x       Rx   d 2 02 3B  Length = 2548240 BitCount = 89 ID = 270860352x
   4.759189 1  10248040x       Rx   d 7 00 00 6D D0 CC 09 00  Length = 3838212 BitCount = 132 ID = 270827584x
   4.764498 1  102CA040x       Rx   d 8 00 40 0C A2 2B 00 F1 00  Length = 4074566 BitCount = 140 ID = 271360064x
   4.769453 1  102CC040x       Rx   d 8 00 09 CF 69 00 87 06 AC  Length = 4078227 BitCount = 140 ID = 271368256x
   4.779567 1  10264040x       Rx   d 8 04 06 00 00 00 00 00 3B  Length = 4228208 BitCount = 145 ID = 270942272x
   4.784579 1  102CE040x       Rx   d 8 90 00 65 7F 00 00 26 AA  Length = 4108212 BitCount = 141 ID = 271376448x
   4.789678 1  10210040x       Rx   d 8 00 00 00 00 00 00 00 00  Length = 4284562 BitCount = 147 ID = 270598208x
   4.792623 1  106B0040x       Rx   d 1 00  Length = 2308248 BitCount = 81 ID = 275447872x
   4.799648 1  10220040x       Rx   d 8 10 00 00 00 00 09 00 00  Length = 4288208 BitCount = 147 ID = 270663744x
   4.809644 1  1022E040x       Rx   d 8 00 00 00 00 00 00 00 00  Length = 4318208 BitCount = 148 ID = 270721088x
   4.814744 1  10780040x       Rx   d 8 00 00 01 04 08 00 00 22  Length = 4284573 BitCount = 147 ID = 276299840x
   4.818979 1  C800040x        Rx   d 6 08 CB 00 00 23 51  Length = 3598216 BitCount = 124 ID = 209715264x
   4.824740 1  10230040x       Rx   d 8 10 00 00 00 10 00 00 00  Length = 4258208 BitCount = 146 ID = 270729280x
   4.839562 1  10240040x       Rx   d 8 83 FE 88 01 01 08 0F FC  Length = 4194562 BitCount = 144 ID = 270794816x
   4.844787 1  106B8040x       Rx   d 8 00 00 00 00 00 00 00 00  Length = 4318208 BitCount = 148 ID = 275480640x
   4.859551 1  102CA040x       Rx   d 8 00 40 0C B2 2C 00 F1 00  Length = 4134566 BitCount = 142 ID = 271360064x
   4.879630 1  10264040x       Rx   d 8 04 06 00 00 00 00 00 3B  Length = 4228208 BitCount = 145 ID = 270942272x
   4.884701 1  1043A040x       Rx   d 8 00 00 35 00 00 00 00 00  Length = 4284562 BitCount = 147 ID = 272867392x
   4.889716 1  10210040x       Rx   d 8 00 00 00 00 00 00 00 00  Length = 4288208 BitCount = 147 ID = 270598208x
   4.894397 1  1080A040x       Rx   d 7 00 00 00 00 00 00 00  Length = 4018212 BitCount = 138 ID = 276865088x
   4.899712 1  10220040x       Rx   d 8 10 00 00 00 00 07 00 00  Length = 4318223 BitCount = 148 ID = 270663744x
   4.909649 1  1022E040x       Rx   d 8 20 00 00 00 20 00 00 00  Length = 4288208 BitCount = 147 ID = 270721088x
   4.912682 1  106B0040x       Rx   d 1 00  Length = 2308263 BitCount = 81 ID = 275447872x
   4.919615 1  10230040x       Rx   d 8 30 00 00 00 30 00 00 00  Length = 4258208 BitCount = 146 ID = 270729280x
   4.934664 1  13FFE0BBx       Rx   d 0  Length = 2034718 BitCount = 72 ID = 335536315x
   4.939618 1  10240040x       Rx   d 8 83 FE 88 01 01 08 0F FC  Length = 4198208 BitCount = 144 ID = 270794816x
   4.948652 1  102C0040x       Rx   d 5 AE EF 44 59 03  Length = 3298224 BitCount = 114 ID = 271319104x
   4.959607 1  102CA040x       Rx   d 8 00 40 0C A8 2C 00 F1 00  Length = 4168208 BitCount = 143 ID = 271360064x
   4.966686 1  10308060x       Rx   d 3 44 59 01  Length = 2784653 BitCount = 97 ID = 271614048x
   4.969901 1  10448060x       Rx   d 4 00 00 45 40  Length = 3088228 BitCount = 107 ID = 272924768x
   4.972778 1  10306099x       Rx   d 3 44 59 01  Length = 2754642 BitCount = 96 ID = 271605913x
   4.976112 1  10304058x       Rx   d 3 44 59 01  Length = 2728236 BitCount = 95 ID = 271597656x
   4.980460 1  10264040x       Rx   d 8 04 06 00 00 00 00 00 3B  Length = 4224562 BitCount = 145 ID = 270942272x
   4.989736 1  10210040x       Rx   d 8 00 00 00 00 00 00 00 00  Length = 4288208 BitCount = 147 ID = 270598208x
   4.994567 1  1022A040x       Rx   d 8 00 B0 00 12 42 00 00 22  Length = 4138223 BitCount = 142 ID = 270704704x
   4.999700 1  10220040x       Rx   d 8 10 00 00 00 00 05 00 00  Length = 4288208 BitCount = 147 ID = 270663744x
   5.004082 1  1022C040x       Rx   d 6 00 10 00 20 00 00  Length = 3688216 BitCount = 127 ID = 270712896x
   5.009723 1  1022E040x       Rx   d 8 00 00 00 00 00 00 00 00  Length = 4318208 BitCount = 148 ID = 270721088x
   5.013026 1  10250040x       Rx   d 2 02 3C  Length = 2548240 BitCount = 89 ID = 270860352x
   5.016772 1  Statistic: D 1 R 0 XD 155 XR 0 E 1 O 0 B 61.21%
   5.016772 2  Statistic: D 0 R 0 XD 0 XR 0 E 0 O 0 B 0.00%
   5.016772 3  Statistic: D 0 R 0 XD 0 XR 0 E 0 O 0 B 0.00%
   5.019629 1  10230040x       Rx   d 8 10 00 00 00 10 00 00 00  Length = 4258208 BitCount = 146 ID = 270729280x
   5.024699 1  102CC040x       Rx   d 8 00 09 CF 69 00 87 06 AB  Length = 4044585 BitCount = 139 ID = 271368256x
   5.029594 1  102CE040x       Rx   d 8 90 00 65 7F 00 00 26 AA  Length = 4108212 BitCount = 141 ID = 271376448x
   5.034517 1  102D0040x       Rx   d 8 01 69 01 ED 7C 8E 00 FF  Length = 4078212 BitCount = 140 ID = 271384640x
   5.039646 1  10240040x       Rx   d 8 83 FE 88 01 01 08 0F FC  Length = 4194562 BitCount = 144 ID = 270794816x
   5.044898 1  102E0040x       Rx   d 8 00 33 CA 6E 8A 00 62 81  Length = 4134566 BitCount = 142 ID = 271450176x
   5.048862 1  10466040x       Rx   d 5 00 00 00 00 00  Length = 3448220 BitCount = 119 ID = 273047616x
   5.052706 1  106B0040x       Rx   d 1 00  Length = 2308248 BitCount = 81 ID = 275447872x
   5.059635 1  102CA040x       Rx   d 8 00 40 0C AD 2C 00 F1 00  Length = 4134566 BitCount = 142 ID = 271360064x
   5.064826 1  106B8040x       Rx   d 8 00 00 00 00 00 00 00 00  Length = 4314558 BitCount = 148 ID = 275480640x
   5.069057 1  C800040x        Rx   d 6 08 CB 00 00 23 54  Length = 3624586 BitCount = 125 ID = 209715264x
   5.073863 1  106C0040x       Rx   d 5 00 06 0F 07 00  Length = 3448220 BitCount = 119 ID = 275513408x
   5.079686 1  10264040x       Rx   d 8 04 06 00 00 00 00 00 27  Length = 4228208 BitCount = 145 ID = 270942272x
   5.083649 1  1077C040x       Rx   d 4 30 30 01 F4  Length = 3148224 BitCount = 109 ID = 276283456x
   5.089738 1  10210040x       Rx   d 8 00 00 00 00 00 00 00 00  Length = 4284562 BitCount = 147 ID = 270598208x
   5.094780 1  10780040x       Rx   d 8 00 00 01 04 08 00 00 22  Length = 4284562 BitCount = 147 ID = 276299840x
   5.099765 1  10220040x       Rx   d 8 10 00 00 00 00 04 00 00  Length = 4318208 BitCount = 148 ID = 270663744x
   5.104208 1  10788040x       Rx   d 6 08 00 00 00 00 00  Length = 3778216 BitCount = 130 ID = 276332608x
   5.109703 1  1022E040x       Rx   d 8 20 00 00 00 20 00 00 00  Length = 4288208 BitCount = 147 ID = 270721088x
   5.113876 1  10806040x       Rx   d 5 00 00 00 00 19  Length = 3418235 BitCount = 118 ID = 276848704x
   5.119669 1  10230040x       Rx   d 8 30 00 00 00 30 00 00 00  Length = 4258223 BitCount = 146 ID = 270729280x
   5.122487 1  13FFE040x       Rx   d 0  Length = 2064714 BitCount = 73 ID = 335536192x
   5.129722 1  1043A040x       Rx   d 8 00 00 39 00 00 00 00 00  Length = 4288208 BitCount = 147 ID = 272867392x
   5.139656 1  10240040x       Rx   d 8 83 FE 88 01 01 08 0F FC  Length = 4198208 BitCount = 144 ID = 270794816x
   5.159645 1  102CA040x       Rx   d 8 00 40 0C AB 2C 00 F1 00  Length = 4138208 BitCount = 142 ID = 271360064x
   5.167721 1  106B0040x       Rx   d 1 00  Length = 2308263 BitCount = 81 ID = 275447872x
   5.179696 1  10264040x       Rx   d 8 04 06 00 00 00 00 00 3B  Length = 4228208 BitCount = 145 ID = 270942272x
   5.183028 1  13FFE080x       Rx   d 0  Length = 2068260 BitCount = 73 ID = 335536256x
   5.186030 1  13FFE060x       Rx   d 0  Length = 2098256 BitCount = 74 ID = 335536224x
   5.190439 1  10210040x       Rx   d 8 00 00 00 00 00 00 00 00  Length = 4284562 BitCount = 147 ID = 270598208x
   5.199804 1  10220040x       Rx   d 8 10 00 00 00 00 04 00 00  Length = 4318208 BitCount = 148 ID = 270663744x
   5.201996 1  13FFE099x       Rx   d 0  Length = 2068275 BitCount = 73 ID = 335536281x
   5.209739 1  1022E040x       Rx   d 8 00 00 00 00 00 00 00 00  Length = 4318208 BitCount = 148 ID = 270721088x
   5.213457 1  10734099x       Rx   d 6 24 41 00 7D 00 00  Length = 3594590 BitCount = 124 ID = 275988633x
   5.219671 1  10230040x       Rx   d 8 10 00 00 00 10 00 00 00  Length = 4258208 BitCount = 146 ID = 270729280x
   5.239627 1  1022A040x       Rx   d 8 00 B0 00 12 42 00 00 22  Length = 4134566 BitCount = 142 ID = 270704704x
   5.244131 1  1022C040x       Rx   d 6 00 10 00 20 00 00  Length = 3688216 BitCount = 127 ID = 270712896x
   5.249687 1  10240040x       Rx   d 8 83 FF 88 01 01 08 0F FC  Length = 4198208 BitCount = 144 ID = 270794816x
   5.253740 1  102C0040x       Rx   d 5 AE EF 44 59 03  Length = 3298239 BitCount = 114 ID = 271319104x
   5.259323 1  10248040x       Rx   d 7 00 00 6D D0 CC 09 00  Length = 3838212 BitCount = 132 ID = 270827584x
   5.264662 1  102CA040x       Rx   d 8 00 40 0C B9 2C 00 F1 00  Length = 4134566 BitCount = 142 ID = 271360064x
   5.269557 1  102CC040x       Rx   d 8 00 09 CF 69 00 87 06 AA  Length = 4048227 BitCount = 139 ID = 271368256x
   5.272435 1  10306099x       Rx   d 3 44 59 01  Length = 2754642 BitCount = 96 ID = 271605913x
   5.276879 1  106B8040x       Rx   d 8 00 00 00 00 00 00 00 00  Length = 4318223 BitCount = 148 ID = 275480640x
   5.279728 1  10304058x       Rx   d 3 44 59 01  Length = 2724642 BitCount = 95 ID = 271597656x
   5.284683 1  10264040x       Rx   d 8 04 06 00 00 00 00 00 3C  Length = 4198223 BitCount = 144 ID = 270942272x
   5.287596 1  10308060x       Rx   d 3 44 59 01  Length = 2788236 BitCount = 97 ID = 271614048x
   5.292005 1  10210040x       Rx   d 8 00 00 00 00 00 00 00 00  Length = 4284562 BitCount = 147 ID = 270598208x
   5.299807 1  10220040x       Rx   d 8 10 00 00 00 00 04 00 00  Length = 4314558 BitCount = 148 ID = 270663744x
   5.304642 1  102CE040x       Rx   d 8 90 00 65 7F 00 00 26 AA  Length = 4108212 BitCount = 141 ID = 271376448x
   5.309741 1  1022E040x       Rx   d 8 20 00 00 00 20 00 00 00  Length = 4284562 BitCount = 147 ID = 270721088x
   5.312776 1  106B0040x       Rx   d 1 00  Length = 2308248 BitCount = 81 ID = 275447872x
   5.319199 1  C800040x        Rx   d 6 08 CB 00 00 23 58  Length = 3688216 BitCount = 127 ID = 209715264x
   5.324725 1  10230040x       Rx   d 8 30 00 00 00 30 00 00 00  Length = 4258208 BitCount = 146 ID = 270729280x
   5.329858 1  10780040x       Rx   d 8 00 00 01 04 08 00 00 22  Length = 4288208 BitCount = 147 ID = 276299840x
   5.339700 1  10240040x       Rx   d 8 83 FF 88 01 01 08 0F FC  Length = 4198208 BitCount = 144 ID = 270794816x
   5.344415 1  10EC4040x       Rx   d 8 4C 41 5A 41 36 39 53 44  Length = 3958212 BitCount = 136 ID = 283918400x
   5.346638 1  13FFE058x       Rx   d 0  Length = 2098271 BitCount = 74 ID = 335536216x
   5.350661 1  10EC8040x       Rx   d 8 48 42 37 30 31 34 39 36  Length = 3898212 BitCount = 134 ID = 283934784x
   5.352854 1  13FFE0AFx       Rx   d 0  Length = 2068260 BitCount = 73 ID = 335536303x
   5.359727 1  102CA040x       Rx   d 8 00 40 0C A8 2C 00 F1 00  Length = 4168223 BitCount = 143 ID = 271360064x
   5.379738 1  10264040x       Rx   d 8 04 06 00 00 00 00 00 27  Length = 4224562 BitCount = 145 ID = 270942272x
   5.384783 1  1043A040x       Rx   d 8 00 00 39 00 00 00 00 00  Length = 4288208 BitCount = 147 ID = 272867392x
   5.389884 1  10210040x       Rx   d 8 00 00 00 00 00 00 00 00  Length = 4288208 BitCount = 147 ID = 270598208x
   5.399789 1  10220040x       Rx   d 8 10 00 00 00 00 06 00 00  Length = 4288208 BitCount = 147 ID = 270663744x
   5.409813 1  1022E040x       Rx   d 8 00 00 00 00 00 00 00 00  Length = 4318223 BitCount = 148 ID = 270721088x
   5.419838 1  10230040x       Rx   d 8 10 00 00 00 10 00 00 00  Length = 4258208 BitCount = 146 ID = 270729280x
   5.427792 1  106B0040x       Rx   d 1 00  Length = 2308248 BitCount = 81 ID = 275447872x
   5.439708 1  10240040x       Rx   d 8 83 FE 88 01 01 08 0F FC  Length = 4198208 BitCount = 144 ID = 270794816x
   5.444840 1  106B8040x       Rx   d 8 00 00 00 00 00 00 00 00  Length = 4318208 BitCount = 148 ID = 275480640x
   5.459689 1  102CA040x       Rx   d 8 00 40 0C AA 2C 00 F1 00  Length = 4134566 BitCount = 142 ID = 271360064x
   5.479738 1  10264040x       Rx   d 8 04 06 00 00 00 00 00 3B  Length = 4228208 BitCount = 145 ID = 270942272x
   5.489885 1  10210040x       Rx   d 8 00 00 00 00 00 00 00 00  Length = 4288208 BitCount = 147 ID = 270598208x
   5.494686 1  1022A040x       Rx   d 8 00 B0 00 12 42 00 00 22  Length = 4138208 BitCount = 142 ID = 270704704x
   5.499817 1  10220040x       Rx   d 8 10 00 00 00 00 06 00 00  Length = 4284562 BitCount = 147 ID = 270663744x
   5.504202 1  1022C040x       Rx   d 6 00 10 00 20 00 00  Length = 3688216 BitCount = 127 ID = 270712896x
   5.509787 1  1022E040x       Rx   d 8 20 00 00 00 20 00 00 00  Length = 4288208 BitCount = 147 ID = 270721088x
   5.519752 1  10230040x       Rx   d 8 30 00 00 00 30 00 00 00  Length = 4258208 BitCount = 146 ID = 270729280x
   5.524645 1  102CC040x       Rx   d 8 00 09 CF 69 00 87 06 AC  Length = 4078212 BitCount = 140 ID = 271368256x
   5.529748 1  102CE040x       Rx   d 8 90 00 65 7F 00 00 26 AA  Length = 4108212 BitCount = 141 ID = 271376448x
   5.534641 1  102D0040x       Rx   d 8 01 69 01 ED 7C 8F 00 FF  Length = 4108212 BitCount = 141 ID = 271384640x
   5.539742 1  10240040x       Rx   d 8 83 FE 88 01 01 08 0F FC  Length = 4198208 BitCount = 144 ID = 270794816x
   5.542806 1  106B0040x       Rx   d 1 00  Length = 2308248 BitCount = 81 ID = 275447872x
   5.546583 1  108E0080x       Rx   d 6 0E 01 17 02 03 E8  Length = 3654586 BitCount = 126 ID = 277741696x
   5.550003 1  102C0040x       Rx   d 5 AE EF 44 59 03  Length = 3294606 BitCount = 114 ID = 271319104x
   5.553968 1  10806040x       Rx   d 5 00 00 00 00 19  Length = 3418220 BitCount = 118 ID = 276848704x
   5.559731 1  102CA040x       Rx   d 8 00 40 0C AA 2C 00 F1 00  Length = 4138208 BitCount = 142 ID = 271360064x
   5.564891 1  10780040x       Rx   d 8 00 00 01 04 08 00 00 22  Length = 4284573 BitCount = 147 ID = 276299840x
   5.567805 1  10308060x       Rx   d 3 44 59 01  Length = 2788236 BitCount = 97 ID = 271614048x
   5.571528 1  C800040x        Rx   d 6 08 CB 00 00 23 5A  Length = 3598216 BitCount = 124 ID = 209715264x
   5.574408 1  10306099x       Rx   d 3 44 59 01  Length = 2754642 BitCount = 96 ID = 271605913x
   5.577258 1  10304058x       Rx   d 3 44 59 01  Length = 2724642 BitCount = 95 ID = 271597656x
   5.581581 1  10264040x       Rx   d 8 04 06 00 00 00 00 00 3C  Length = 4198208 BitCount = 144 ID = 270942272x
   5.584279 1  106D0080x       Rx   d 2 00 00  Length = 2574658 BitCount = 90 ID = 275579008x
   5.586473 1  13FFE068x       Rx   d 0  Length = 2068260 BitCount = 73 ID = 335536232x
   5.590881 1  10210040x       Rx   d 8 00 00 00 00 00 00 00 00  Length = 4284562 BitCount = 147 ID = 270598208x
   5.599887 1  10220040x       Rx   d 8 10 00 00 00 00 05 00 00  Length = 4288223 BitCount = 147 ID = 270663744x
   5.604326 1  10788040x       Rx   d 6 08 00 00 00 00 00  Length = 3774582 BitCount = 130 ID = 276332608x
   5.609851 1  1022E040x       Rx   d 8 00 00 00 00 00 00 00 00  Length = 4318208 BitCount = 148 ID = 270721088x
   5.619788 1  10230040x       Rx   d 8 10 00 00 00 10 00 00 00  Length = 4258208 BitCount = 146 ID = 270729280x
   5.629872 1  1043A040x       Rx   d 8 00 00 36 00 00 00 00 00  Length = 4288208 BitCount = 147 ID = 272867392x
