date Tue Sep 20 03:51:18.765 pm 2016
base hex  timestamps absolute
internal events logged
// version 9.0.0
Begin Triggerblock Tue Sep 20 03:51:18.765 pm 2016
   0.000000 Start of measurement
   0.002224 Li SleepModeEvent 0 starting up in wake mode
   0.012697 1  10248040x       Rx   d 7 00 00 6D D4 CC 06 00  Length = 3894574 BitCount = 134 ID = 270827584x
   0.018042 1  102CA040x       Rx   d 8 00 40 0C B2 2B 00 F1 00  Length = 4108212 BitCount = 141 ID = 271360064x
   0.022907 1  102CC040x       Rx   d 8 00 09 CF 6A 00 87 06 AA  Length = 4048212 BitCount = 139 ID = 271368256x
   0.033021 1  10264040x       Rx   d 8 04 06 00 00 00 00 00 3A  Length = 4198208 BitCount = 144 ID = 270942272x
   0.037972 1  102CE040x       Rx   d 8 90 00 68 7F 00 00 26 AA  Length = 4078212 BitCount = 140 ID = 271376448x
   0.043136 1  10210040x       Rx   d 8 00 00 00 00 00 00 00 00  Length = 4288208 BitCount = 147 ID = 270598208x
   0.050816 CAN 1 Status:chip status error active
   0.050816 CAN 2 Status:chip status error active
   0.050816 CAN 3 Status:chip status error active
   0.053098 1  10220040x       Rx   d 8 10 00 00 00 00 06 00 00  Length = 4288208 BitCount = 147 ID = 270663744x
   0.056101 1  106B0040x       Rx   d 1 00  Length = 2308248 BitCount = 81 ID = 275447872x
   0.063126 1  1022E040x       Rx   d 8 00 00 00 00 00 00 00 00  Length = 4318208 BitCount = 148 ID = 270721088x
   0.068258 1  10780040x       Rx   d 8 00 00 01 04 08 00 00 22  Length = 4284562 BitCount = 147 ID = 276299840x
   0.072489 1  C800040x        Rx   d 6 08 CB 00 00 4D 97  Length = 3624586 BitCount = 125 ID = 209715264x
   0.078044 1  10230040x       Rx   d 8 10 00 00 00 10 00 00 00  Length = 4258208 BitCount = 146 ID = 270729280x
   0.082216 1  1038C040x       Rx   d 5 00 00 00 00 7F  Length = 3414598 BitCount = 118 ID = 272154688x
   0.093052 1  10240040x       Rx   d 8 83 FF 88 01 01 13 0F FC  Length = 4198208 BitCount = 144 ID = 270794816x
   0.098215 1  106B8040x       Rx   d 8 00 00 00 00 00 00 00 00  Length = 4318208 BitCount = 148 ID = 275480640x
   0.102086 1  102C0040x       Rx   d 5 AE EF 44 59 03  Length = 3298224 BitCount = 114 ID = 271319104x
   0.112981 1  102CA040x       Rx   d 8 00 40 0C BE 2B 00 F1 00  Length = 4108223 BitCount = 141 ID = 271360064x
   0.122132 1  10304058x       Rx   d 3 44 59 01  Length = 2728236 BitCount = 95 ID = 271597656x
   0.133175 1  10264040x       Rx   d 8 04 06 00 00 00 00 00 27  Length = 4228223 BitCount = 145 ID = 270942272x
   0.138217 1  1043A040x       Rx   d 8 00 00 38 00 00 00 00 00  Length = 4348208 BitCount = 149 ID = 272867392x
   0.141905 1  631             Rx   d 8 00 40 00 00 00 00 00 00  Length = 3564605 BitCount = 123 ID = 1585
   0.146315 1  10210040x       Rx   d 8 00 00 00 00 00 00 00 00  Length = 4284562 BitCount = 147 ID = 270598208x
   0.149195 1  10306099x       Rx   d 3 44 59 01  Length = 2754642 BitCount = 96 ID = 271605913x
   0.153604 1  10220040x       Rx   d 8 10 00 00 00 00 05 00 00  Length = 4284562 BitCount = 147 ID = 270663744x
   0.156519 1  10308060x       Rx   d 3 44 59 01  Length = 2788247 BitCount = 97 ID = 271614048x
   0.160662 1  1080A040x       Rx   d 7 00 00 00 00 00 00 00  Length = 4018212 BitCount = 138 ID = 276865088x
   0.167475 1  62C             Rx   d 8 00 40 00 00 00 00 00 00  Length = 3628216 BitCount = 125 ID = 1580
   0.171883 1  1022E040x       Rx   d 8 20 00 00 00 20 00 00 00  Length = 4284562 BitCount = 147 ID = 270721088x
   0.178158 1  10230040x       Rx   d 8 30 00 00 00 30 00 00 00  Length = 4258208 BitCount = 146 ID = 270729280x
   0.181133 1  106B0040x       Rx   d 1 00  Length = 2308248 BitCount = 81 ID = 275447872x
   0.183387 1  13FFE068x       Rx   d 0  Length = 2068260 BitCount = 73 ID = 335536232x
   0.187648 1  106D0080x       Rx   d 2 00 00  Length = 2578240 BitCount = 90 ID = 275579008x
   0.193046 1  10240040x       Rx   d 8 83 FE 88 01 01 13 0F FC  Length = 4164581 BitCount = 143 ID = 270794816x
   0.213005 1  102CA040x       Rx   d 8 00 40 0C C3 2B 00 F1 00  Length = 4108212 BitCount = 141 ID = 271360064x
   0.233053 1  10264040x       Rx   d 8 04 06 00 00 00 00 00 3A  Length = 4198208 BitCount = 144 ID = 270942272x
   0.238158 1  10734099x       Rx   d 6 24 42 00 7D 00 00  Length = 3568216 BitCount = 123 ID = 275988633x
   0.243170 1  10210040x       Rx   d 8 00 00 00 00 00 00 00 00  Length = 4288208 BitCount = 147 ID = 270598208x
   0.248033 1  1022A040x       Rx   d 8 00 B0 00 12 42 00 00 22  Length = 4138208 BitCount = 142 ID = 270704704x
   0.253164 1  10220040x       Rx   d 8 10 00 00 00 00 05 00 00  Length = 4288208 BitCount = 147 ID = 270663744x
   0.257548 1  1022C040x       Rx   d 6 00 10 00 20 00 00  Length = 3688216 BitCount = 127 ID = 270712896x
   0.263163 1  1022E040x       Rx   d 8 00 00 00 00 00 00 00 00  Length = 4318208 BitCount = 148 ID = 270721088x
   0.266496 1  10250040x       Rx   d 2 00 03  Length = 2608240 BitCount = 91 ID = 270860352x
   0.273097 1  10230040x       Rx   d 8 10 00 00 00 10 00 00 00  Length = 4258208 BitCount = 146 ID = 270729280x
   0.277990 1  102CC040x       Rx   d 8 00 09 CF 6A 00 87 06 A9  Length = 4048227 BitCount = 139 ID = 271368256x
   0.283004 1  102CE040x       Rx   d 8 90 00 68 7F 00 00 26 A9  Length = 4078212 BitCount = 140 ID = 271376448x
   0.288013 1  102D0040x       Rx   d 8 01 69 01 ED 7C 89 00 FF  Length = 4074581 BitCount = 140 ID = 271384640x
   0.293088 1  10240040x       Rx   d 8 83 FF 88 01 01 13 0F FC  Length = 4198208 BitCount = 144 ID = 270794816x
   0.298159 1  102E0040x       Rx   d 8 00 33 CA 70 8A 00 62 81  Length = 4108212 BitCount = 141 ID = 271450176x
   0.302302 1  10466040x       Rx   d 5 00 00 00 00 00  Length = 3448220 BitCount = 119 ID = 273047616x
   0.306174 1  106B0040x       Rx   d 1 00  Length = 2308248 BitCount = 81 ID = 275447872x
   0.313045 1  102CA040x       Rx   d 8 00 40 0C AD 2B 00 F1 00  Length = 4104566 BitCount = 141 ID = 271360064x
   0.318360 1  106B8040x       Rx   d 8 00 00 00 00 00 00 00 00  Length = 4318208 BitCount = 148 ID = 275480640x
   0.322535 1  C800040x        Rx   d 6 08 CB 00 00 4D 9A  Length = 3628216 BitCount = 125 ID = 209715264x
   0.327306 1  106C0040x       Rx   d 5 00 06 0F 07 00  Length = 3448220 BitCount = 119 ID = 275513408x
   0.333100 1  10264040x       Rx   d 8 04 06 00 00 00 00 00 3A  Length = 4198223 BitCount = 144 ID = 270942272x
   0.337033 1  1077C040x       Rx   d 4 30 30 01 F4  Length = 3148224 BitCount = 109 ID = 276283456x
   0.343212 1  10210040x       Rx   d 8 00 00 00 00 00 00 00 00  Length = 4284573 BitCount = 147 ID = 270598208x
   0.348227 1  10780040x       Rx   d 8 00 00 01 04 08 00 00 22  Length = 4288208 BitCount = 147 ID = 276299840x
   0.353209 1  10220040x       Rx   d 8 10 00 00 00 00 06 00 00  Length = 4288223 BitCount = 147 ID = 270663744x
   0.357682 1  10788040x       Rx   d 6 08 00 00 00 00 00  Length = 3778231 BitCount = 130 ID = 276332608x
   0.363177 1  1022E040x       Rx   d 8 20 00 00 00 20 00 00 00  Length = 4288208 BitCount = 147 ID = 270721088x
   0.367408 1  10806040x       Rx   d 5 00 00 00 00 19  Length = 3414598 BitCount = 118 ID = 276848704x
   0.373113 1  10230040x       Rx   d 8 30 00 00 00 30 00 00 00  Length = 4258208 BitCount = 146 ID = 270729280x
   0.383168 1  1043A040x       Rx   d 8 00 00 35 00 00 00 00 00  Length = 4288208 BitCount = 147 ID = 272867392x
   0.393102 1  10240040x       Rx   d 8 83 FF 88 01 01 13 0F FC  Length = 4198208 BitCount = 144 ID = 270794816x
   0.402167 1  102C0040x       Rx   d 5 AE EF 44 59 03  Length = 3298224 BitCount = 114 ID = 271319104x
   0.413091 1  102CA040x       Rx   d 8 00 40 0C B4 2B 00 F1 00  Length = 4138223 BitCount = 142 ID = 271360064x
   0.421165 1  106B0040x       Rx   d 1 00  Length = 2308248 BitCount = 81 ID = 275447872x
   0.424014 1  10304058x       Rx   d 3 44 59 01  Length = 2724657 BitCount = 95 ID = 271597656x
   0.426929 1  10308060x       Rx   d 3 44 59 01  Length = 2788236 BitCount = 97 ID = 271614048x
   0.433138 1  10264040x       Rx   d 8 04 06 00 00 00 00 00 27  Length = 4224562 BitCount = 145 ID = 270942272x
   0.443224 1  10210040x       Rx   d 8 00 00 00 00 00 00 00 00  Length = 4288208 BitCount = 147 ID = 270598208x
   0.447307 1  10306099x       Rx   d 3 44 59 01  Length = 2758236 BitCount = 96 ID = 271605913x
   0.453219 1  10220040x       Rx   d 8 10 00 00 00 00 06 00 00  Length = 4288208 BitCount = 147 ID = 270663744x
   0.463213 1  1022E040x       Rx   d 8 00 00 00 00 00 00 00 00  Length = 4318208 BitCount = 148 ID = 270721088x
   0.473147 1  10230040x       Rx   d 8 10 00 00 00 10 00 00 00  Length = 4258208 BitCount = 146 ID = 270729280x
   0.493071 1  1022A040x       Rx   d 8 00 B0 00 12 42 00 00 22  Length = 4134566 BitCount = 142 ID = 270704704x
   0.497605 1  1022C040x       Rx   d 6 00 10 00 20 00 00  Length = 3688216 BitCount = 127 ID = 270712896x
   0.503101 1  10240040x       Rx   d 8 83 FE 88 01 01 13 0F FC  Length = 4168208 BitCount = 143 ID = 270794816x
   0.508264 1  106B8040x       Rx   d 8 00 00 00 00 00 00 00 00  Length = 4318208 BitCount = 148 ID = 275480640x
   0.512821 1  10248040x       Rx   d 7 00 00 6D D4 CC 06 00  Length = 3894574 BitCount = 134 ID = 270827584x
   0.517915 CAN 1 Status:chip status error active  - TxErr: 0 RxErr: 1
   0.517922 1  ErrorFrame	Flags = 0xfffe	CodeExt = 0x2072	Code = 0x81	ID = 0x902ca040	DLC = 8	Position = 120	Length = 3924375	Data = 0  0x40  0xc  0xac  0x2b  0  0xf1  0
   0.522324 CAN 1 Status:chip status error active
   0.522542 1  102CA040x       Rx   d 8 00 40 0C AC 2B 00 F1 00  Length = 4104581 BitCount = 141 ID = 271360064x
   0.528037 1  102CC040x       Rx   d 8 00 09 CF 6A 00 87 06 AB  Length = 4078212 BitCount = 140 ID = 271368256x
   0.533168 1  10264040x       Rx   d 8 04 06 00 00 00 00 00 3A  Length = 4194562 BitCount = 144 ID = 270942272x
   0.538063 1  102CE040x       Rx   d 8 90 00 68 7F 00 00 26 AA  Length = 4078227 BitCount = 140 ID = 271376448x
   0.543155 CAN 1 Status:chip status error active  - TxErr: 0 RxErr: 1
   0.543163 1  ErrorFrame	Flags = 0xfffe	CodeExt = 0x2072	Code = 0x81	ID = 0x90210040	DLC = 8	Position = 120	Length = 4104375	Data = 0  0  0  0  0  0  0  0
   0.547744 CAN 1 Status:chip status error active
   0.547962 1  10210040x       Rx   d 8 00 00 00 00 00 00 00 00  Length = 4284573 BitCount = 147 ID = 270598208x
   0.553271 1  10220040x       Rx   d 8 10 00 00 00 00 08 00 00  Length = 4314573 BitCount = 148 ID = 270663744x
   0.556216 1  106B0040x       Rx   d 1 00  Length = 2308248 BitCount = 81 ID = 275447872x
   0.559935 1  108E0080x       Rx   d 6 0E 01 17 02 07 B2  Length = 3594590 BitCount = 124 ID = 277741696x
   0.564349 1  1022E040x       Rx   d 8 20 00 00 00 20 00 00 00  Length = 4288208 BitCount = 147 ID = 270721088x
   0.572636 1  C800040x        Rx   d 6 08 CB 00 00 4D 9C  Length = 3628216 BitCount = 125 ID = 209715264x
   0.578189 1  10230040x       Rx   d 8 30 00 00 00 30 00 00 00  Length = 4258223 BitCount = 146 ID = 270729280x
   0.583292 1  10780040x       Rx   d 8 00 00 01 04 08 00 00 22  Length = 4288223 BitCount = 147 ID = 276299840x
   0.593166 1  10240040x       Rx   d 8 83 FF 88 01 01 13 0F FC  Length = 4198223 BitCount = 144 ID = 270794816x
   0.597879 1  10EC4040x       Rx   d 8 4C 41 5A 41 36 39 53 44  Length = 3958212 BitCount = 136 ID = 283918400x
   0.602803 1  10EC8040x       Rx   d 8 48 42 37 30 31 34 39 36  Length = 3898212 BitCount = 134 ID = 283934784x
   0.607486 1  621             Rx   d 8 00 52 00 00 00 00 00 00  Length = 3598216 BitCount = 124 ID = 1569
   0.609646 1  13FFE0BBx       Rx   d 0  Length = 2034718 BitCount = 72 ID = 335536315x
   0.613877 1  102CA040x       Rx   d 8 00 40 0C AE 2B 00 F1 00  Length = 4108212 BitCount = 141 ID = 271360064x
   0.633144 1  10264040x       Rx   d 8 04 06 00 00 00 00 00 3A  Length = 4198208 BitCount = 144 ID = 270942272x
   0.638247 1  1043A040x       Rx   d 8 00 00 35 00 00 00 00 00  Length = 4288208 BitCount = 147 ID = 272867392x
   0.643257 1  10210040x       Rx   d 8 00 00 00 00 00 00 00 00  Length = 4284573 BitCount = 147 ID = 270598208x
   0.653313 1  10220040x       Rx   d 8 10 00 00 00 00 06 00 00  Length = 4288208 BitCount = 147 ID = 270663744x
   0.663247 1  1022E040x       Rx   d 8 00 00 00 00 00 00 00 00  Length = 4318208 BitCount = 148 ID = 270721088x
   0.673302 1  10230040x       Rx   d 8 10 00 00 00 10 00 00 00  Length = 4258208 BitCount = 146 ID = 270729280x
   0.676245 1  106B0040x       Rx   d 1 00  Length = 2308248 BitCount = 81 ID = 275447872x
   0.693202 1  10240040x       Rx   d 8 83 FF 88 01 01 13 0F FC  Length = 4198223 BitCount = 144 ID = 270794816x
   0.698304 1  106B8040x       Rx   d 8 00 00 00 00 00 00 00 00  Length = 4318208 BitCount = 148 ID = 275480640x
   0.702267 1  102C0040x       Rx   d 5 AE EF 44 59 03  Length = 3298224 BitCount = 114 ID = 271319104x
   0.713191 1  102CA040x       Rx   d 8 00 40 0C B5 2B 00 F1 00  Length = 4138208 BitCount = 142 ID = 271360064x
   0.733178 1  10264040x       Rx   d 8 04 06 00 00 00 00 00 3A  Length = 4198208 BitCount = 144 ID = 270942272x
   0.736027 1  10304058x       Rx   d 3 44 59 01  Length = 2724642 BitCount = 95 ID = 271597656x
   0.739719 1  10734099x       Rx   d 6 24 42 00 7D 00 00  Length = 3564590 BitCount = 123 ID = 275988633x
   0.744127 1  10210040x       Rx   d 8 00 00 00 00 00 00 00 00  Length = 4284562 BitCount = 147 ID = 270598208x
   0.747042 1  10308060x       Rx   d 3 44 59 01  Length = 2788247 BitCount = 97 ID = 271614048x
   0.749926 1  10306099x       Rx   d 3 44 59 01  Length = 2758251 BitCount = 96 ID = 271605913x
   0.754335 1  10220040x       Rx   d 8 10 00 00 00 00 05 00 00  Length = 4284573 BitCount = 147 ID = 270663744x
   0.763221 1  1022A040x       Rx   d 8 00 B0 00 12 42 00 00 22  Length = 4138208 BitCount = 142 ID = 270704704x
   0.767726 1  1022C040x       Rx   d 6 00 10 00 20 00 00  Length = 3688216 BitCount = 127 ID = 270712896x
   0.773312 1  1022E040x       Rx   d 8 30 00 00 00 30 00 00 00  Length = 4288208 BitCount = 147 ID = 270721088x
   0.778265 1  10230040x       Rx   d 8 30 00 00 00 30 00 00 00  Length = 4258208 BitCount = 146 ID = 270729280x
   0.783098 1  102CC040x       Rx   d 8 00 09 CF 6A 00 87 06 AB  Length = 4078212 BitCount = 140 ID = 271368256x
   0.788111 1  102CE040x       Rx   d 8 90 00 68 7F 00 00 26 AA  Length = 4078212 BitCount = 140 ID = 271376448x
   0.793182 1  10240040x       Rx   d 8 83 FE 88 01 01 13 0F FC  Length = 4168208 BitCount = 143 ID = 270794816x
   0.798074 1  102D0040x       Rx   d 8 01 69 01 ED 7C 89 00 FF  Length = 4078212 BitCount = 140 ID = 271384640x
   0.801317 1  106B0040x       Rx   d 1 00  Length = 2308248 BitCount = 81 ID = 275447872x
   0.806150 1  10244060x       Rx   d 1 02  Length = 2308248 BitCount = 81 ID = 270811232x
   0.809689 1  10806040x       Rx   d 5 00 00 00 00 19  Length = 3414598 BitCount = 118 ID = 276848704x
   0.818154 1  102CA040x       Rx   d 8 00 40 0C B9 2B 00 F1 00  Length = 4078212 BitCount = 140 ID = 271360064x
   0.822682 1  C800040x        Rx   d 6 08 CB 00 00 4D A0  Length = 3624586 BitCount = 125 ID = 209715264x
   0.828357 1  10780040x       Rx   d 8 00 00 01 04 08 00 00 22  Length = 4288208 BitCount = 147 ID = 276299840x
   0.831480 1  10814099x       Rx   d 4 20 44 30 00  Length = 2998228 BitCount = 104 ID = 276906137x
   0.835829 1  10264040x       Rx   d 8 04 06 00 00 00 00 00 27  Length = 4224562 BitCount = 145 ID = 270942272x
   0.843362 1  10210040x       Rx   d 8 00 00 00 00 00 00 00 00  Length = 4288208 BitCount = 147 ID = 270598208x
   0.847772 1  10788040x       Rx   d 6 08 00 00 00 00 00  Length = 3774582 BitCount = 130 ID = 276332608x
   0.853327 1  10220040x       Rx   d 8 10 00 00 00 00 03 00 00  Length = 4318208 BitCount = 148 ID = 270663744x
   0.863321 1  1022E040x       Rx   d 8 00 00 00 00 00 00 00 00  Length = 4318208 BitCount = 148 ID = 270721088x
   0.873346 1  10230040x       Rx   d 8 10 00 00 00 10 00 00 00  Length = 4258208 BitCount = 146 ID = 270729280x
   0.883340 1  1043A040x       Rx   d 8 00 00 38 00 00 00 00 00  Length = 4348208 BitCount = 149 ID = 272867392x
   0.893185 1  10240040x       Rx   d 8 83 FE 88 01 01 13 0F FC  Length = 4168208 BitCount = 143 ID = 270794816x
   0.898346 1  106B8040x       Rx   d 8 00 00 00 00 00 00 00 00  Length = 4314558 BitCount = 148 ID = 275480640x
   0.913200 1  102CA040x       Rx   d 8 00 40 0C C1 2B 00 F1 00  Length = 4104581 BitCount = 141 ID = 271360064x
   0.916353 1  106B0040x       Rx   d 1 00  Length = 2308248 BitCount = 81 ID = 275447872x
   0.933218 1  10264040x       Rx   d 8 04 06 00 00 00 00 00 3A  Length = 4198208 BitCount = 144 ID = 270942272x
   0.943393 1  10210040x       Rx   d 8 00 00 00 00 00 00 00 00  Length = 4288223 BitCount = 147 ID = 270598208x
   0.953327 1  10220040x       Rx   d 8 10 00 00 00 00 06 00 00  Length = 4288223 BitCount = 147 ID = 270663744x
   0.955551 1  13FFE058x       Rx   d 0  Length = 2098256 BitCount = 74 ID = 335536216x
   0.963354 1  1022E040x       Rx   d 8 20 00 00 00 20 00 00 00  Length = 4288223 BitCount = 147 ID = 270721088x
   0.973256 1  10230040x       Rx   d 8 30 00 00 00 30 00 00 00  Length = 4258208 BitCount = 146 ID = 270729280x
   0.986906 1  10448060x       Rx   d 4 00 00 45 00  Length = 3054633 BitCount = 106 ID = 272924768x
   0.993211 1  1022A040x       Rx   d 8 00 B0 00 12 42 00 00 22  Length = 4138223 BitCount = 142 ID = 270704704x
   0.997710 1  1022C040x       Rx   d 6 00 10 00 20 00 00  Length = 3684586 BitCount = 127 ID = 270712896x
   0.999905 1  13FFE0AFx       Rx   d 0  Length = 2068260 BitCount = 73 ID = 335536303x
   1.000817 1  Statistic: D 3 R 0 XD 150 XR 0 E 2 O 0 B 61.33%
   1.000817 2  Statistic: D 0 R 0 XD 0 XR 0 E 0 O 0 B 0.00%
   1.000817 3  Statistic: D 0 R 0 XD 0 XR 0 E 0 O 0 B 0.00%
   1.004194 1  10240040x       Rx   d 8 83 FE 88 01 01 13 0F FC  Length = 4164566 BitCount = 143 ID = 270794816x
   1.006418 1  13FFE060x       Rx   d 0  Length = 2098271 BitCount = 74 ID = 335536224x
   1.008611 1  13FFE080x       Rx   d 0  Length = 2068275 BitCount = 73 ID = 335536256x
   1.011310 1  10242040x       Rx   d 1 02  Length = 2304686 BitCount = 81 ID = 270803008x
   1.017885 1  10248040x       Rx   d 7 00 00 6D D4 CC 05 00  Length = 3838227 BitCount = 132 ID = 270827584x
   1.022328 1  102C0040x       Rx   d 5 AE EF 44 59 03  Length = 3298239 BitCount = 114 ID = 271319104x
   1.028243 1  102CA040x       Rx   d 8 00 40 0C CD 2B 00 F1 00  Length = 4138208 BitCount = 142 ID = 271360064x
   1.030436 1  13FFE099x       Rx   d 0  Length = 2068260 BitCount = 73 ID = 335536281x
   1.034789 1  10264040x       Rx   d 8 04 06 00 00 00 00 00 3B  Length = 4228208 BitCount = 145 ID = 270942272x
   1.043371 1  10210040x       Rx   d 8 00 00 00 00 00 00 00 00  Length = 4284573 BitCount = 147 ID = 270598208x
   1.048206 1  102CC040x       Rx   d 8 00 09 CF 6A 00 87 06 A8  Length = 4108212 BitCount = 141 ID = 271368256x
   1.051084 1  10306099x       Rx   d 3 44 59 01  Length = 2754642 BitCount = 96 ID = 271605913x
   1.055527 1  10220040x       Rx   d 8 10 00 00 00 00 04 00 00  Length = 4318208 BitCount = 148 ID = 270663744x
   1.058374 1  10304058x       Rx   d 3 44 59 01  Length = 2724642 BitCount = 95 ID = 271597656x
   1.063358 1  1022E040x       Rx   d 8 00 00 00 00 00 00 00 00  Length = 4318208 BitCount = 148 ID = 270721088x
   1.066660 1  10308060x       Rx   d 3 44 59 01  Length = 2788236 BitCount = 97 ID = 271614048x
   1.070861 1  102CE040x       Rx   d 8 90 00 68 7F 00 00 26 A9  Length = 4078212 BitCount = 140 ID = 271376448x
   1.077733 1  C800040x        Rx   d 6 08 CB 00 00 4D A3  Length = 3598216 BitCount = 124 ID = 209715264x
   1.083286 1  10230040x       Rx   d 8 20 00 00 00 20 00 00 00  Length = 4258208 BitCount = 146 ID = 270729280x
   1.086350 1  106B0040x       Rx   d 1 00  Length = 2308248 BitCount = 81 ID = 275447872x
   1.093279 1  10240040x       Rx   d 8 83 FF 88 01 01 13 0F FC  Length = 4194562 BitCount = 144 ID = 270794816x
   1.098384 1  106B8040x       Rx   d 8 00 00 00 00 00 00 00 00  Length = 4318208 BitCount = 148 ID = 275480640x
   1.103425 1  10780040x       Rx   d 8 00 00 01 04 08 00 00 22  Length = 4288208 BitCount = 147 ID = 276299840x
   1.106099 1  13FFE040x       Rx   d 0  Length = 2068260 BitCount = 73 ID = 335536192x
   1.113214 1  102CA040x       Rx   d 8 00 40 0C C7 2B 00 F1 00  Length = 4078212 BitCount = 140 ID = 271360064x
   1.133292 1  10264040x       Rx   d 8 04 06 00 00 00 00 00 28  Length = 4198208 BitCount = 144 ID = 270942272x
   1.138394 1  1043A040x       Rx   d 8 00 00 37 00 00 00 00 00  Length = 4314558 BitCount = 148 ID = 272867392x
   1.143469 1  10210040x       Rx   d 8 00 00 00 00 00 00 00 00  Length = 4288208 BitCount = 147 ID = 270598208x
   1.148090 1  1080A040x       Rx   d 7 00 00 00 00 00 00 00  Length = 4018212 BitCount = 138 ID = 276865088x
   1.153375 1  10220040x       Rx   d 8 10 00 00 00 00 05 00 00  Length = 4288223 BitCount = 147 ID = 270663744x
   1.163372 1  1022E040x       Rx   d 8 20 00 00 00 20 00 00 00  Length = 4288208 BitCount = 147 ID = 270721088x
   1.173426 1  10230040x       Rx   d 8 30 00 00 00 30 00 00 00  Length = 4258208 BitCount = 146 ID = 270729280x
   1.193289 1  10240040x       Rx   d 8 83 FF 88 01 01 13 0F FC  Length = 4194562 BitCount = 144 ID = 270794816x
   1.201365 1  106B0040x       Rx   d 1 00  Length = 2308248 BitCount = 81 ID = 275447872x
   1.213252 1  102CA040x       Rx   d 8 00 40 0C C2 2B 00 F1 00  Length = 4078212 BitCount = 140 ID = 271360064x
   1.233323 1  10264040x       Rx   d 8 04 06 00 00 00 00 00 3D  Length = 4194562 BitCount = 144 ID = 270942272x
   1.238127 1  10734099x       Rx   d 6 24 42 00 7D 00 00  Length = 3568216 BitCount = 123 ID = 275988633x
   1.243469 1  10210040x       Rx   d 8 00 00 00 00 00 00 00 00  Length = 4288208 BitCount = 147 ID = 270598208x
   1.248270 1  1022A040x       Rx   d 8 00 B0 00 12 42 00 00 22  Length = 4138223 BitCount = 142 ID = 270704704x
   1.253433 1  10220040x       Rx   d 8 10 00 00 00 00 05 00 00  Length = 4288208 BitCount = 147 ID = 270663744x
   1.257785 1  1022C040x       Rx   d 6 00 10 00 20 00 00  Length = 3688216 BitCount = 127 ID = 270712896x
   1.263426 1  1022E040x       Rx   d 8 00 00 00 00 00 00 00 00  Length = 4318208 BitCount = 148 ID = 270721088x
   1.266699 1  10250040x       Rx   d 2 00 03  Length = 2608240 BitCount = 91 ID = 270860352x
   1.273332 1  10230040x       Rx   d 8 10 00 00 00 10 00 00 00  Length = 4258223 BitCount = 146 ID = 270729280x
   1.278285 1  102CC040x       Rx   d 8 00 09 CF 6A 00 87 06 A9  Length = 4048212 BitCount = 139 ID = 271368256x
   1.283237 1  102CE040x       Rx   d 8 90 00 68 7F 00 00 26 A9  Length = 4078212 BitCount = 140 ID = 271376448x
   1.288220 1  102D0040x       Rx   d 8 01 69 01 ED 7C 8A 00 FF  Length = 4078227 BitCount = 140 ID = 271384640x
   1.293319 1  10240040x       Rx   d 8 83 FE 88 01 01 13 0F FC  Length = 4164566 BitCount = 143 ID = 270794816x
   1.298304 1  102E0040x       Rx   d 8 00 33 CA 70 8A 00 62 81  Length = 4108212 BitCount = 141 ID = 271450176x
   1.302446 1  102C0040x       Rx   d 5 AE EF 44 59 03  Length = 3298239 BitCount = 114 ID = 271319104x
   1.308445 1  106B8040x       Rx   d 8 00 00 00 00 00 00 00 00  Length = 4314558 BitCount = 148 ID = 275480640x
   1.313310 1  102CA040x       Rx   d 8 00 40 0C C8 2B 00 F1 00  Length = 4138208 BitCount = 142 ID = 271360064x
   1.316403 1  106B0040x       Rx   d 1 00  Length = 2308248 BitCount = 81 ID = 275447872x
   1.322796 1  C800040x        Rx   d 6 08 CB 00 00 4D A6  Length = 3598216 BitCount = 124 ID = 209715264x
   1.327569 1  106C0040x       Rx   d 5 00 06 0F 07 00  Length = 3448235 BitCount = 119 ID = 275513408x
   1.333365 1  10264040x       Rx   d 8 04 06 00 00 00 00 00 3D  Length = 4198223 BitCount = 144 ID = 270942272x
   1.336212 1  10304058x       Rx   d 3 44 59 01  Length = 2724642 BitCount = 95 ID = 271597656x
   1.339483 1  1077C040x       Rx   d 4 30 30 01 F4  Length = 3144614 BitCount = 109 ID = 276283456x
   1.346624 1  10308060x       Rx   d 3 44 59 01  Length = 2784638 BitCount = 97 ID = 271614048x
   1.351041 1  10210040x       Rx   d 8 00 00 00 00 00 00 00 00  Length = 4291858 BitCount = 147 ID = 270598208x
   1.353919 1  10306099x       Rx   d 3 44 59 01  Length = 2754642 BitCount = 96 ID = 271605913x
   1.357728 1  10324058x       Rx   d 6 00 00 03 FF 00 00  Length = 3684586 BitCount = 127 ID = 271728728x
   1.362168 1  10220040x       Rx   d 8 10 00 00 00 00 08 00 00  Length = 4314558 BitCount = 148 ID = 270663744x
   1.368377 1  1022E040x       Rx   d 8 20 00 00 00 20 00 00 00  Length = 4284562 BitCount = 147 ID = 270721088x
   1.373362 1  10230040x       Rx   d 8 30 00 00 00 30 00 00 00  Length = 4258208 BitCount = 146 ID = 270729280x
   1.378522 1  10780040x       Rx   d 8 00 00 01 04 08 00 00 22  Length = 4284562 BitCount = 147 ID = 276299840x
   1.383417 1  1043A040x       Rx   d 8 00 00 35 00 00 00 00 00  Length = 4288208 BitCount = 147 ID = 272867392x
   1.385609 1  13FFE068x       Rx   d 0  Length = 2068275 BitCount = 73 ID = 335536232x
   1.388308 1  106D0080x       Rx   d 2 00 00  Length = 2574669 BitCount = 90 ID = 275579008x
   1.392211 1  10788040x       Rx   d 6 08 00 00 00 00 00  Length = 3778216 BitCount = 130 ID = 276332608x
   1.398336 1  10240040x       Rx   d 8 83 FE 88 01 01 13 0F FC  Length = 4168223 BitCount = 143 ID = 270794816x
   1.402568 1  10806040x       Rx   d 5 00 00 00 00 19  Length = 3414613 BitCount = 118 ID = 276848704x
   1.413314 1  102CA040x       Rx   d 8 00 40 0C D2 2B 00 F1 00  Length = 4108223 BitCount = 141 ID = 271360064x
   1.433327 1  10264040x       Rx   d 8 04 06 00 00 00 00 00 3C  Length = 4194562 BitCount = 144 ID = 270942272x
   1.436452 1  106B0040x       Rx   d 1 00  Length = 2308248 BitCount = 81 ID = 275447872x
   1.443502 1  10210040x       Rx   d 8 00 00 00 00 00 00 00 00  Length = 4284562 BitCount = 147 ID = 270598208x
   1.453498 1  10220040x       Rx   d 8 10 00 00 00 00 07 00 00  Length = 4318208 BitCount = 148 ID = 270663744x
   1.463492 1  1022E040x       Rx   d 8 00 00 00 00 00 00 00 00  Length = 4318208 BitCount = 148 ID = 270721088x
   1.473366 1  10230040x       Rx   d 8 10 00 00 00 10 00 00 00  Length = 4258208 BitCount = 146 ID = 270729280x
   1.493319 1  1022A040x       Rx   d 8 00 B0 00 12 42 00 00 22  Length = 4134566 BitCount = 142 ID = 270704704x
   1.497855 1  1022C040x       Rx   d 6 00 10 00 20 00 00  Length = 3688216 BitCount = 127 ID = 270712896x
   1.503380 1  10240040x       Rx   d 8 83 FE 88 01 01 13 0F FC  Length = 4168208 BitCount = 143 ID = 270794816x
   1.508483 1  106B8040x       Rx   d 8 00 00 00 00 00 00 00 00  Length = 4318223 BitCount = 148 ID = 275480640x
   1.513010 1  10248040x       Rx   d 7 00 00 6D D4 CC 07 00  Length = 3834578 BitCount = 132 ID = 270827584x
   1.518295 1  102CA040x       Rx   d 8 00 40 0C CA 2B 00 F1 00  Length = 4078212 BitCount = 140 ID = 271360064x
   1.523251 1  102CC040x       Rx   d 8 00 09 CF 6A 00 87 06 A9  Length = 4048227 BitCount = 139 ID = 271368256x
   1.533365 1  10264040x       Rx   d 8 04 06 00 00 00 00 00 28  Length = 4198208 BitCount = 144 ID = 270942272x
   1.538316 1  102CE040x       Rx   d 8 90 00 68 7F 00 00 26 A9  Length = 4078212 BitCount = 140 ID = 271376448x
   1.543566 1  10210040x       Rx   d 8 00 00 00 00 00 00 00 00  Length = 4284573 BitCount = 147 ID = 270598208x
   1.553472 1  10220040x       Rx   d 8 10 00 00 00 00 06 00 00  Length = 4288208 BitCount = 147 ID = 270663744x
   1.556445 1  106B0040x       Rx   d 1 00  Length = 2308263 BitCount = 81 ID = 275447872x
   1.560224 1  108E0080x       Rx   d 6 0E 01 17 02 07 B3  Length = 3654586 BitCount = 126 ID = 277741696x
   1.564638 1  1022E040x       Rx   d 8 20 00 00 00 20 00 00 00  Length = 4288208 BitCount = 147 ID = 270721088x
   1.572805 1  C800040x        Rx   d 6 08 CB 00 00 4D A9  Length = 3598216 BitCount = 124 ID = 209715264x
   1.578538 1  10230040x       Rx   d 8 30 00 00 00 30 00 00 00  Length = 4258208 BitCount = 146 ID = 270729280x
   1.583581 1  10780040x       Rx   d 8 00 00 01 04 08 00 00 22  Length = 4288208 BitCount = 147 ID = 276299840x
   1.593453 1  10240040x       Rx   d 8 83 FE 88 01 01 13 0F FC  Length = 4168208 BitCount = 143 ID = 270794816x
   1.602460 1  102C0040x       Rx   d 5 AE EF 44 59 03  Length = 3298224 BitCount = 114 ID = 271319104x
   1.613354 1  102CA040x       Rx   d 8 00 40 0C C3 2B 00 F1 00  Length = 4108212 BitCount = 141 ID = 271360064x
   1.617734 1  621             Rx   d 8 00 52 00 00 00 00 00 00  Length = 3594590 BitCount = 124 ID = 1569
   1.626615 1  10308060x       Rx   d 3 44 59 01  Length = 2784653 BitCount = 97 ID = 271614048x
   1.631778 1  10304058x       Rx   d 3 44 59 01  Length = 2728236 BitCount = 95 ID = 271597656x
   1.636100 1  10264040x       Rx   d 8 04 06 00 00 00 00 00 3C  Length = 4198208 BitCount = 144 ID = 270942272x
   1.643602 1  10210040x       Rx   d 8 00 00 00 00 00 00 00 00  Length = 4288223 BitCount = 147 ID = 270598208x
   1.648525 1  1043A040x       Rx   d 8 00 00 37 00 00 00 00 00  Length = 4318208 BitCount = 148 ID = 272867392x
   1.651407 1  10306099x       Rx   d 3 44 59 01  Length = 2758236 BitCount = 96 ID = 271605913x
   1.655850 1  10220040x       Rx   d 8 10 00 00 00 00 04 00 00  Length = 4318208 BitCount = 148 ID = 270663744x
   1.663562 1  1022E040x       Rx   d 8 00 00 00 00 00 00 00 00  Length = 4318223 BitCount = 148 ID = 270721088x
   1.673525 1  10230040x       Rx   d 8 10 00 00 00 10 00 00 00  Length = 4258208 BitCount = 146 ID = 270729280x
   1.676498 1  106B0040x       Rx   d 1 00  Length = 2308263 BitCount = 81 ID = 275447872x
   1.693396 1  10240040x       Rx   d 8 83 FE 88 01 01 13 0F FC  Length = 4168208 BitCount = 143 ID = 270794816x
   1.698555 1  106B8040x       Rx   d 8 00 00 00 00 00 00 00 00  Length = 4314558 BitCount = 148 ID = 275480640x
   1.713412 1  102CA040x       Rx   d 8 00 40 0C C3 2B 00 F1 00  Length = 4108223 BitCount = 141 ID = 271360064x
   1.733397 1  10264040x       Rx   d 8 04 06 00 00 00 00 00 3A  Length = 4194577 BitCount = 144 ID = 270942272x
   1.738137 1  10734099x       Rx   d 6 24 42 00 7D 00 00  Length = 3564590 BitCount = 123 ID = 275988633x
   1.743566 1  10210040x       Rx   d 8 00 00 00 00 00 00 00 00  Length = 4284562 BitCount = 147 ID = 270598208x
   1.748401 1  1022A040x       Rx   d 8 00 B0 00 12 42 00 00 22  Length = 4138208 BitCount = 142 ID = 270704704x
   1.753590 1  10220040x       Rx   d 8 10 00 00 00 00 04 00 00  Length = 4314558 BitCount = 148 ID = 270663744x
   1.757911 1  1022C040x       Rx   d 6 00 10 00 20 00 00  Length = 3684586 BitCount = 127 ID = 270712896x
   1.763526 1  1022E040x       Rx   d 8 20 00 00 00 20 00 00 00  Length = 4288223 BitCount = 147 ID = 270721088x
   1.773581 1  10230040x       Rx   d 8 30 00 00 00 30 00 00 00  Length = 4258223 BitCount = 146 ID = 270729280x
   1.778324 1  102CC040x       Rx   d 8 00 09 CF 6A 00 87 06 A9  Length = 4048212 BitCount = 139 ID = 271368256x
   1.783427 1  102CE040x       Rx   d 8 90 00 69 7F 00 00 26 A9  Length = 4138208 BitCount = 142 ID = 271376448x
   1.788318 1  102D0040x       Rx   d 8 01 69 01 ED 7C 8A 00 FF  Length = 4078212 BitCount = 140 ID = 271384640x
   1.793451 1  10240040x       Rx   d 8 83 FE 88 01 01 13 0F FC  Length = 4168208 BitCount = 143 ID = 270794816x
   1.796513 1  106B0040x       Rx   d 1 00  Length = 2308248 BitCount = 81 ID = 275447872x
   1.802722 1  10806040x       Rx   d 5 00 00 00 00 19  Length = 3414598 BitCount = 118 ID = 276848704x
   1.809410 1  13FFE0BBx       Rx   d 0  Length = 2034733 BitCount = 72 ID = 335536315x
   1.813675 1  102CA040x       Rx   d 8 00 40 0C C0 2B 00 F1 00  Length = 4138208 BitCount = 142 ID = 271360064x
   1.818596 1  10780040x       Rx   d 8 00 00 01 04 08 00 00 22  Length = 4288208 BitCount = 147 ID = 276299840x
   1.822855 1  C800040x        Rx   d 6 08 CB 00 00 4D AD  Length = 3594590 BitCount = 124 ID = 209715264x
   1.828016 1  10788040x       Rx   d 6 08 00 00 00 00 00  Length = 3774582 BitCount = 130 ID = 276332608x
   1.833451 1  10264040x       Rx   d 8 04 06 00 00 00 00 00 3A  Length = 4198208 BitCount = 144 ID = 270942272x
   1.843568 1  10210040x       Rx   d 8 00 00 00 00 00 00 00 00  Length = 4288223 BitCount = 147 ID = 270598208x
   1.853532 1  10220040x       Rx   d 8 10 00 00 00 00 06 00 00  Length = 4288208 BitCount = 147 ID = 270663744x
   1.863557 1  1022E040x       Rx   d 8 00 00 00 00 00 00 00 00  Length = 4318208 BitCount = 148 ID = 270721088x
   1.873491 1  10230040x       Rx   d 8 10 00 00 00 10 00 00 00  Length = 4258208 BitCount = 146 ID = 270729280x
   1.883575 1  1043A040x       Rx   d 8 00 00 36 00 00 00 00 00  Length = 4288208 BitCount = 147 ID = 272867392x
   1.893570 1  10240040x       Rx   d 8 83 FE 88 01 01 13 0F FC  Length = 4168208 BitCount = 143 ID = 270794816x
   1.898583 1  106B8040x       Rx   d 8 00 00 00 00 00 00 00 00  Length = 4318208 BitCount = 148 ID = 275480640x
   1.902544 1  102C0040x       Rx   d 5 AE EF 44 59 03  Length = 3298224 BitCount = 114 ID = 271319104x
   1.913439 1  102CA040x       Rx   d 8 00 40 0C B4 2B 00 F1 00  Length = 4138208 BitCount = 142 ID = 271360064x
   1.916532 1  106B0040x       Rx   d 1 00  Length = 2308248 BitCount = 81 ID = 275447872x
   1.931767 1  10304058x       Rx   d 3 44 59 01  Length = 2724642 BitCount = 95 ID = 271597656x
   1.936120 1  10264040x       Rx   d 8 04 06 00 00 00 00 00 26  Length = 4228208 BitCount = 145 ID = 270942272x
   1.943682 1  10210040x       Rx   d 8 00 00 00 00 00 00 00 00  Length = 4288208 BitCount = 147 ID = 270598208x
   1.946685 1  10308060x       Rx   d 3 44 59 01  Length = 2788247 BitCount = 97 ID = 271614048x
   1.949568 1  10306099x       Rx   d 3 44 59 01  Length = 2758236 BitCount = 96 ID = 271605913x
   1.954010 1  10220040x       Rx   d 8 10 00 00 00 00 04 00 00  Length = 4318208 BitCount = 148 ID = 270663744x
   1.963639 1  1022E040x       Rx   d 8 20 00 00 00 20 00 00 00  Length = 4284573 BitCount = 147 ID = 270721088x
   1.973515 1  10230040x       Rx   d 8 30 00 00 00 30 00 00 00  Length = 4258208 BitCount = 146 ID = 270729280x
   1.986895 1  10448060x       Rx   d 4 00 00 45 00  Length = 3054618 BitCount = 106 ID = 272924768x
   1.993440 1  1022A040x       Rx   d 8 00 B0 00 12 42 00 00 22  Length = 4138208 BitCount = 142 ID = 270704704x
   1.997973 1  1022C040x       Rx   d 6 00 10 00 20 00 00  Length = 3688216 BitCount = 127 ID = 270712896x
   2.000817 1  Statistic: D 1 R 0 XD 153 XR 0 E 0 O 0 B 60.05%
   2.000817 2  Statistic: D 0 R 0 XD 0 XR 0 E 0 O 0 B 0.00%
   2.000817 3  Statistic: D 0 R 0 XD 0 XR 0 E 0 O 0 B 0.00%
   2.003528 1  10240040x       Rx   d 8 83 FF 88 01 01 13 0F FC  Length = 4198208 BitCount = 144 ID = 270794816x
   2.013189 1  10248040x       Rx   d 7 00 00 6D D4 CC 06 00  Length = 3894589 BitCount = 134 ID = 270827584x
   2.018470 1  102CA040x       Rx   d 8 00 40 0C AD 2B 00 F1 00  Length = 4104566 BitCount = 141 ID = 271360064x
   2.023365 1  102CC040x       Rx   d 8 00 09 CF 6A 00 87 06 AA  Length = 4048227 BitCount = 139 ID = 271368256x
   2.033480 1  10264040x       Rx   d 8 04 06 00 00 00 00 00 3A  Length = 4198208 BitCount = 144 ID = 270942272x
   2.038431 1  102CE040x       Rx   d 8 90 00 68 7F 00 00 26 AA  Length = 4078212 BitCount = 140 ID = 271376448x
   2.043710 1  10210040x       Rx   d 8 00 00 00 00 00 00 00 00  Length = 4284573 BitCount = 147 ID = 270598208x
   2.046565 1  106B0040x       Rx   d 1 00  Length = 2308248 BitCount = 81 ID = 275447872x
   2.053584 1  10220040x       Rx   d 8 10 00 00 00 00 05 00 00  Length = 4284562 BitCount = 147 ID = 270663744x
   2.063641 1  1022E040x       Rx   d 8 00 00 00 00 00 00 00 00  Length = 4318208 BitCount = 148 ID = 270721088x
   2.068654 1  10780040x       Rx   d 8 00 00 01 04 08 00 00 22  Length = 4288208 BitCount = 147 ID = 276299840x
   2.073065 1  C800040x        Rx   d 6 08 CB 00 00 4D AF  Length = 3628216 BitCount = 125 ID = 209715264x
   2.078586 1  10230040x       Rx   d 8 10 00 00 00 10 00 00 00  Length = 4258208 BitCount = 146 ID = 270729280x
   2.093594 1  10240040x       Rx   d 8 83 FF 88 01 01 13 0F FC  Length = 4198223 BitCount = 144 ID = 270794816x
   2.098637 1  106B8040x       Rx   d 8 00 00 00 00 00 00 00 00  Length = 4318223 BitCount = 148 ID = 275480640x
   2.113271 CAN 1 Status:chip status error active  - TxErr: 0 RxErr: 1
   2.113279 1  ErrorFrame	Flags = 0xfffe	CodeExt = 0x2072	Code = 0x81	ID = 0x902ca040	DLC = 8	Position = 120	Length = 3924375	Data = 0  0x40  0xc  0xad  0x2b  0  0xf1  0
   2.117681 CAN 1 Status:chip status error active
   2.117898 1  102CA040x       Rx   d 8 00 40 0C AD 2B 00 F1 00  Length = 4104566 BitCount = 141 ID = 271360064x
   2.133532 1  10264040x       Rx   d 8 04 06 00 00 00 00 00 3A  Length = 4194562 BitCount = 144 ID = 270942272x
   2.138603 1  1043A040x       Rx   d 8 00 00 35 00 00 00 00 00  Length = 4284562 BitCount = 147 ID = 272867392x
   2.143678 1  10210040x       Rx   d 8 00 00 00 00 00 00 00 00  Length = 4288223 BitCount = 147 ID = 270598208x
   2.148329 1  1080A040x       Rx   d 7 00 00 00 00 00 00 00  Length = 4018212 BitCount = 138 ID = 276865088x
   2.150972 1  13FFE058x       Rx   d 0  Length = 2098256 BitCount = 74 ID = 335536216x
   2.155385 1  10220040x       Rx   d 8 10 00 00 00 00 06 00 00  Length = 4288208 BitCount = 147 ID = 270663744x
   2.163701 1  1022E040x       Rx   d 8 20 00 00 00 20 00 00 00  Length = 4288208 BitCount = 147 ID = 270721088x
   2.166614 1  106B0040x       Rx   d 1 00  Length = 2308248 BitCount = 81 ID = 275447872x
   2.173573 1  10230040x       Rx   d 8 30 00 00 00 30 00 00 00  Length = 4254562 BitCount = 146 ID = 270729280x
   2.193558 1  10240040x       Rx   d 8 83 FF 88 01 01 13 0F FC  Length = 4194562 BitCount = 144 ID = 270794816x
   2.196713 1  13FFE0AFx       Rx   d 0  Length = 2068275 BitCount = 73 ID = 335536303x
   2.202593 1  102C0040x       Rx   d 5 AE EF 44 59 03  Length = 3294606 BitCount = 114 ID = 271319104x
   2.205957 1  13FFE060x       Rx   d 0  Length = 2098271 BitCount = 74 ID = 335536224x
   2.208149 1  13FFE080x       Rx   d 0  Length = 2068275 BitCount = 73 ID = 335536256x
   2.213493 1  102CA040x       Rx   d 8 00 40 0C BE 2B 00 F1 00  Length = 4108212 BitCount = 141 ID = 271360064x
   2.226607 1  10308060x       Rx   d 3 44 59 01  Length = 2788236 BitCount = 97 ID = 271614048x
   2.228798 1  13FFE099x       Rx   d 0  Length = 2068260 BitCount = 73 ID = 335536281x
   2.231678 1  10304058x       Rx   d 3 44 59 01  Length = 2724642 BitCount = 95 ID = 271597656x
   2.236030 1  10264040x       Rx   d 8 04 06 00 00 00 00 00 27  Length = 4228208 BitCount = 145 ID = 270942272x
   2.239718 1  10734099x       Rx   d 6 24 42 00 7D 00 00  Length = 3564605 BitCount = 123 ID = 275988633x
   2.243941 CAN 1 Status:chip status error active  - TxErr: 0 RxErr: 1
   2.243948 1  ErrorFrame	Flags = 0xfffe	CodeExt = 0x2072	Code = 0x81	ID = 0x90210040	DLC = 8	Position = 120	Length = 4104375	Data = 0  0  0  0  0  0  0  0
   2.248530 CAN 1 Status:chip status error active
   2.248560 CAN 1 Status:chip status error active  - TxErr: 0 RxErr: 1
   2.248568 1  ErrorFrame	Flags = 0xfffe	CodeExt = 0x2072	Code = 0x81	ID = 0x90210040	DLC = 8	Position = 120	Length = 4104375	Data = 0  0  0  0  0  0  0  0
   2.253149 CAN 1 Status:chip status error active
   2.253367 1  10210040x       Rx   d 8 00 00 00 00 00 00 00 00  Length = 4284573 BitCount = 147 ID = 270598208x
   2.256247 1  10306099x       Rx   d 3 44 59 01  Length = 2754642 BitCount = 96 ID = 271605913x
   2.260690 1  10220040x       Rx   d 8 10 00 00 00 00 08 00 00  Length = 4318208 BitCount = 148 ID = 270663744x
   2.268522 1  1022A040x       Rx   d 8 00 B0 00 12 42 00 00 22  Length = 4134566 BitCount = 142 ID = 270704704x
   2.273057 1  1022C040x       Rx   d 6 00 10 00 20 00 00  Length = 3688216 BitCount = 127 ID = 270712896x
   2.278583 1  1022E040x       Rx   d 8 10 00 00 00 10 00 00 00  Length = 4258208 BitCount = 146 ID = 270721088x
   2.283596 1  10230040x       Rx   d 8 20 00 00 00 20 00 00 00  Length = 4258208 BitCount = 146 ID = 270729280x
   2.286925 1  10250040x       Rx   d 2 00 03  Length = 2604669 BitCount = 91 ID = 270860352x
   2.293590 1  10240040x       Rx   d 8 83 FF 88 01 01 13 0F FC  Length = 4198208 BitCount = 144 ID = 270794816x
   2.298453 1  102CC040x       Rx   d 8 00 09 CF 6A 00 87 06 AA  Length = 4048212 BitCount = 139 ID = 271368256x
   2.303523 1  102CE040x       Rx   d 8 90 00 68 7F 00 00 26 A9  Length = 4074566 BitCount = 140 ID = 271376448x
   2.308478 1  102D0040x       Rx   d 8 01 69 01 ED 7C 8A 00 FF  Length = 4078212 BitCount = 140 ID = 271384640x
   2.313547 1  102CA040x       Rx   d 8 00 40 0C BA 2B 00 F1 00  Length = 4104581 BitCount = 141 ID = 271360064x
   2.318532 1  102E0040x       Rx   d 8 00 33 CA 70 8A 00 62 81  Length = 4108212 BitCount = 141 ID = 271450176x
   2.322970 1  C800040x        Rx   d 6 08 CB 00 00 4D B2  Length = 3594590 BitCount = 124 ID = 209715264x
   2.327805 1  10466040x       Rx   d 5 00 00 00 00 00  Length = 3448220 BitCount = 119 ID = 273047616x
   2.333568 1  10264040x       Rx   d 8 04 06 00 00 00 00 00 3A  Length = 4198208 BitCount = 144 ID = 270942272x
   2.336631 1  106B0040x       Rx   d 1 00  Length = 2308248 BitCount = 81 ID = 275447872x
   2.343740 1  10210040x       Rx   d 8 00 00 00 00 00 00 00 00  Length = 4284562 BitCount = 147 ID = 270598208x
   2.348693 1  106B8040x       Rx   d 8 00 00 00 00 00 00 00 00  Length = 4318208 BitCount = 148 ID = 275480640x
   2.353707 1  10220040x       Rx   d 8 10 00 00 00 00 08 00 00  Length = 4318208 BitCount = 148 ID = 270663744x
   2.357790 1  106C0040x       Rx   d 5 00 06 0F 07 00  Length = 3448220 BitCount = 119 ID = 275513408x
   2.363641 1  1022E040x       Rx   d 8 20 00 00 00 20 00 00 00  Length = 4288208 BitCount = 147 ID = 270721088x
   2.367484 1  1077C040x       Rx   d 4 30 30 01 F4  Length = 3148224 BitCount = 109 ID = 276283456x
   2.373634 1  10230040x       Rx   d 8 30 00 00 00 30 00 00 00  Length = 4254562 BitCount = 146 ID = 270729280x
   2.378735 1  10780040x       Rx   d 8 00 00 01 04 08 00 00 22  Length = 4284562 BitCount = 147 ID = 276299840x
   2.383690 1  1043A040x       Rx   d 8 00 00 37 00 00 00 00 00  Length = 4318208 BitCount = 148 ID = 272867392x
   2.388163 1  10788040x       Rx   d 6 08 00 00 00 00 00  Length = 3778216 BitCount = 130 ID = 276332608x
   2.393628 1  10240040x       Rx   d 8 83 FF 88 01 01 13 0F FC  Length = 4198223 BitCount = 144 ID = 270794816x
   2.397801 1  10806040x       Rx   d 5 00 00 00 00 19  Length = 3418235 BitCount = 118 ID = 276848704x
   2.401435 1  13FFE040x       Rx   d 0  Length = 2068260 BitCount = 73 ID = 335536192x
   2.413557 1  102CA040x       Rx   d 8 00 40 0C 8E 2B 00 F1 00  Length = 4104566 BitCount = 141 ID = 271360064x
   2.433606 1  10264040x       Rx   d 8 04 06 00 00 00 00 00 3A  Length = 4198208 BitCount = 144 ID = 270942272x
   2.443782 1  10210040x       Rx   d 8 00 00 00 00 00 00 00 00  Length = 4288208 BitCount = 147 ID = 270598208x
   2.453715 1  10220040x       Rx   d 8 10 00 00 00 00 04 00 00  Length = 4318208 BitCount = 148 ID = 270663744x
   2.456660 1  106B0040x       Rx   d 1 00  Length = 2308248 BitCount = 81 ID = 275447872x
   2.463679 1  1022E040x       Rx   d 8 00 00 00 00 00 00 00 00  Length = 4314558 BitCount = 148 ID = 270721088x
   2.473706 1  10230040x       Rx   d 8 10 00 00 00 10 00 00 00  Length = 4258208 BitCount = 146 ID = 270729280x
   2.493569 1  1022A040x       Rx   d 8 00 B0 00 12 42 00 00 22  Length = 4134566 BitCount = 142 ID = 270704704x
   2.498074 1  1022C040x       Rx   d 6 00 10 00 20 00 00  Length = 3688216 BitCount = 127 ID = 270712896x
   2.503599 1  10240040x       Rx   d 8 83 FE 88 01 01 13 0F FC  Length = 4168208 BitCount = 143 ID = 270794816x
   2.507682 1  102C0040x       Rx   d 5 AE EF 44 59 03  Length = 3298224 BitCount = 114 ID = 271319104x
   2.513295 1  10248040x       Rx   d 7 00 00 6D D4 CC 06 00  Length = 3898212 BitCount = 134 ID = 270827584x
   2.518605 1  102CA040x       Rx   d 8 00 40 0C B5 2B 00 F1 00  Length = 4134566 BitCount = 142 ID = 271360064x
   2.523530 1  102CC040x       Rx   d 8 00 09 CF 6A 00 87 06 AB  Length = 4078212 BitCount = 140 ID = 271368256x
   2.528751 1  106B8040x       Rx   d 8 00 00 00 00 00 00 00 00  Length = 4318208 BitCount = 148 ID = 275480640x
   2.531628 1  10304058x       Rx   d 3 44 59 01  Length = 2724642 BitCount = 95 ID = 271597656x
   2.535950 1  10264040x       Rx   d 8 04 06 00 00 00 00 00 3A  Length = 4198208 BitCount = 144 ID = 270942272x
   2.543782 1  10210040x       Rx   d 8 00 00 00 00 00 00 00 00  Length = 4288208 BitCount = 147 ID = 270598208x
   2.546690 1  10308060x       Rx   d 3 44 59 01  Length = 2784653 BitCount = 97 ID = 271614048x
   2.550892 1  102CE040x       Rx   d 8 90 00 68 7F 00 00 26 AA  Length = 4078212 BitCount = 140 ID = 271376448x
   2.553770 1  10306099x       Rx   d 3 44 59 01  Length = 2754642 BitCount = 96 ID = 271605913x
   2.558754 1  10220040x       Rx   d 8 10 00 00 00 00 04 00 00  Length = 4318223 BitCount = 148 ID = 270663744x
   2.562345 CAN 1 Status:chip status error active  - TxErr: 0 RxErr: 1
   2.562353 1  ErrorFrame	Flags = 0xfffe	CodeExt = 0x2072	Code = 0x81	ID = 0x908e0080	DLC = 6	Position = 104	Length = 3474375	Data = 0xe  0x1  0x17  0x2  0x7  0xb4
   2.566937 CAN 1 Status:chip status error active
   2.567154 1  1022E040x       Rx   d 8 20 00 00 00 20 00 00 00  Length = 4288208 BitCount = 147 ID = 270721088x
   2.570940 1  108E0080x       Rx   d 6 0E 01 17 02 07 B4  Length = 3658216 BitCount = 126 ID = 277741696x
   2.574664 1  C800040x        Rx   d 6 08 CB 00 00 4D B5  Length = 3598216 BitCount = 124 ID = 209715264x
   2.583698 1  10230040x       Rx   d 8 00 00 00 00 00 00 00 00  Length = 4288208 BitCount = 147 ID = 270729280x
   2.585892 1  13FFE068x       Rx   d 0  Length = 2068260 BitCount = 73 ID = 335536232x
   2.588322 1  106B0040x       Rx   d 1 00  Length = 2304686 BitCount = 81 ID = 275447872x
   2.591022 1  106D0080x       Rx   d 2 00 00  Length = 2574658 BitCount = 90 ID = 275579008x
   2.595313 1  10240040x       Rx   d 8 83 FE 88 01 01 13 0F FC  Length = 4164566 BitCount = 143 ID = 270794816x
   2.603779 1  10780040x       Rx   d 8 00 00 01 04 08 00 00 22  Length = 4288223 BitCount = 147 ID = 276299840x
   2.613618 1  102CA040x       Rx   d 8 00 40 0C D6 2B 00 F1 00  Length = 4104566 BitCount = 141 ID = 271360064x
   2.622980 1  621             Rx   d 8 00 52 00 00 00 00 00 00  Length = 3594590 BitCount = 124 ID = 1569
   2.633666 1  10264040x       Rx   d 8 04 06 00 00 00 00 00 27  Length = 4228208 BitCount = 145 ID = 270942272x
   2.638799 1  1043A040x       Rx   d 8 00 00 38 00 00 00 00 00  Length = 4348223 BitCount = 149 ID = 272867392x
   2.643783 1  10210040x       Rx   d 8 00 00 00 00 00 00 00 00  Length = 4288208 BitCount = 147 ID = 270598208x
   2.653745 1  10220040x       Rx   d 8 10 00 00 00 00 05 00 00  Length = 4288208 BitCount = 147 ID = 270663744x
   2.663769 1  1022E040x       Rx   d 8 00 00 00 00 00 00 00 00  Length = 4318208 BitCount = 148 ID = 270721088x
   2.673674 1  10230040x       Rx   d 8 10 00 00 00 10 00 00 00  Length = 4258208 BitCount = 146 ID = 270729280x
   2.693693 1  10240040x       Rx   d 8 83 FE 88 01 01 13 00 00  Length = 4198208 BitCount = 144 ID = 270794816x
   2.698794 1  106B8040x       Rx   d 8 00 00 00 00 00 00 00 00  Length = 4314573 BitCount = 148 ID = 275480640x
   2.701739 1  106B0040x       Rx   d 1 00  Length = 2308248 BitCount = 81 ID = 275447872x
   2.713623 1  102CA040x       Rx   d 8 00 40 0C BE 2B 00 F1 00  Length = 4108212 BitCount = 141 ID = 271360064x
   2.733700 1  10264040x       Rx   d 8 04 06 00 00 00 00 00 3B  Length = 4228208 BitCount = 145 ID = 270942272x
   2.738111 1  10734099x       Rx   d 6 24 42 00 7D 00 00  Length = 3564590 BitCount = 123 ID = 275988633x
   2.743817 1  10210040x       Rx   d 8 00 00 00 00 00 00 00 00  Length = 4288223 BitCount = 147 ID = 270598208x
   2.748650 1  1022A040x       Rx   d 8 00 B0 00 12 42 00 00 22  Length = 4138208 BitCount = 142 ID = 270704704x
   2.753809 1  10220040x       Rx   d 8 10 00 00 00 00 06 00 00  Length = 4284562 BitCount = 147 ID = 270663744x
   2.758134 1  1022C040x       Rx   d 6 00 10 00 20 00 00  Length = 3688216 BitCount = 127 ID = 270712896x
   2.763779 1  1022E040x       Rx   d 8 20 00 00 00 20 00 00 00  Length = 4288208 BitCount = 147 ID = 270721088x
   2.773774 1  10230040x       Rx   d 8 30 00 00 00 30 00 00 00  Length = 4258208 BitCount = 146 ID = 270729280x
   2.778607 1  102CC040x       Rx   d 8 00 09 CF 6A 00 87 06 AB  Length = 4078212 BitCount = 140 ID = 271368256x
   2.783590 1  102CE040x       Rx   d 8 90 00 69 7F 00 00 26 AA  Length = 4078212 BitCount = 140 ID = 271376448x
   2.788574 1  102D0040x       Rx   d 8 01 69 01 ED 7C 8A 00 FF  Length = 4078212 BitCount = 140 ID = 271384640x
   2.793675 1  10240040x       Rx   d 8 83 FE 88 01 01 13 0F FC  Length = 4168208 BitCount = 143 ID = 270794816x
   2.802739 1  102C0040x       Rx   d 5 AE EF 44 59 03  Length = 3298224 BitCount = 114 ID = 271319104x
   2.807899 1  10806040x       Rx   d 5 00 00 00 00 19  Length = 3414598 BitCount = 118 ID = 276848704x
   2.813634 1  102CA040x       Rx   d 8 00 40 0C A5 2B 00 F1 00  Length = 4078227 BitCount = 140 ID = 271360064x
   2.816787 1  106B0040x       Rx   d 1 00  Length = 2308248 BitCount = 81 ID = 275447872x
   2.823120 1  C800040x        Rx   d 6 08 CB 00 00 4D B9  Length = 3598216 BitCount = 124 ID = 209715264x
   2.826601 1  10308060x       Rx   d 3 44 59 01  Length = 2784653 BitCount = 97 ID = 271614048x
   2.831010 1  10780040x       Rx   d 8 00 00 01 04 08 00 00 22  Length = 4284562 BitCount = 147 ID = 276299840x
   2.833861 1  10304058x       Rx   d 3 44 59 01  Length = 2724657 BitCount = 95 ID = 271597656x
   2.838693 1  10264040x       Rx   d 8 04 06 00 00 00 00 00 3A  Length = 4198208 BitCount = 144 ID = 270942272x
   2.843797 1  10210040x       Rx   d 8 00 00 00 00 00 00 00 00  Length = 4288208 BitCount = 147 ID = 270598208x
   2.848270 1  10788040x       Rx   d 6 08 00 00 00 00 00  Length = 3778231 BitCount = 130 ID = 276332608x
   2.851154 1  10306099x       Rx   d 3 44 59 01  Length = 2758236 BitCount = 96 ID = 271605913x
   2.855564 1  10220040x       Rx   d 8 10 00 00 00 00 05 00 00  Length = 4284562 BitCount = 147 ID = 270663744x
   2.863790 1  1022E040x       Rx   d 8 00 00 00 00 00 00 00 00  Length = 4318208 BitCount = 148 ID = 270721088x
   2.873814 1  10230040x       Rx   d 8 10 00 00 00 10 00 00 00  Length = 4258208 BitCount = 146 ID = 270729280x
   2.883778 1  1043A040x       Rx   d 8 00 00 35 00 00 00 00 00  Length = 4288208 BitCount = 147 ID = 272867392x
   2.893713 1  10240040x       Rx   d 8 83 FF 88 01 01 13 0F FC  Length = 4198208 BitCount = 144 ID = 270794816x
   2.898814 1  106B8040x       Rx   d 8 00 00 00 00 00 00 00 00  Length = 4314558 BitCount = 148 ID = 275480640x
   2.913450 CAN 1 Status:chip status error active  - TxErr: 0 RxErr: 1
   2.913458 1  ErrorFrame	Flags = 0xfffe	CodeExt = 0x2072	Code = 0x81	ID = 0x902ca040	DLC = 8	Position = 120	Length = 3894375	Data = 0  0x40  0xc  0xbc  0x2b  0  0xf1  0
   2.917830 CAN 1 Status:chip status error active
   2.918047 1  102CA040x       Rx   d 8 00 40 0C BC 2B 00 F1 00  Length = 4074581 BitCount = 140 ID = 271360064x
   2.933741 1  10264040x       Rx   d 8 04 06 00 00 00 00 00 27  Length = 4224562 BitCount = 145 ID = 270942272x
   2.936776 1  106B0040x       Rx   d 1 00  Length = 2308248 BitCount = 81 ID = 275447872x
   2.940524 1  624             Rx   d 8 00 20 00 00 00 00 00 00  Length = 3624586 BitCount = 125 ID = 1572
   2.944933 1  10210040x       Rx   d 8 00 00 00 00 00 00 00 00  Length = 4284562 BitCount = 147 ID = 270598208x
   2.953819 1  10220040x       Rx   d 8 10 00 00 00 00 06 00 00  Length = 4288208 BitCount = 147 ID = 270663744x
   2.963814 1  1022E040x       Rx   d 8 20 00 00 00 20 00 00 00  Length = 4288208 BitCount = 147 ID = 270721088x
   2.973810 1  10230040x       Rx   d 8 30 00 00 00 30 00 00 00  Length = 4258208 BitCount = 146 ID = 270729280x
   2.986892 1  10448060x       Rx   d 4 00 00 45 00  Length = 3058228 BitCount = 106 ID = 272924768x
   2.993735 1  1022A040x       Rx   d 8 00 B0 00 12 42 00 00 22  Length = 4138208 BitCount = 142 ID = 270704704x
   2.998202 1  1022C040x       Rx   d 6 00 10 00 20 00 00  Length = 3684586 BitCount = 127 ID = 270712896x
   3.000817 1  Statistic: D 2 R 0 XD 149 XR 0 E 5 O 0 B 61.30%
   3.000817 2  Statistic: D 0 R 0 XD 0 XR 0 E 0 O 0 B 0.00%
   3.000817 3  Statistic: D 0 R 0 XD 0 XR 0 E 0 O 0 B 0.00%
   3.003727 1  10240040x       Rx   d 8 83 FE 88 01 01 13 0F FC  Length = 4168208 BitCount = 143 ID = 270794816x
   3.013358 1  10248040x       Rx   d 7 00 00 6D D4 CC 07 00  Length = 3834593 BitCount = 132 ID = 270827584x
   3.015519 1  13FFE0BBx       Rx   d 0  Length = 2034718 BitCount = 72 ID = 335536315x
   3.019747 1  102CA040x       Rx   d 8 00 40 0C AD 2B 00 F1 00  Length = 4104566 BitCount = 141 ID = 271360064x
   3.028603 1  102CC040x       Rx   d 8 00 09 CF 6A 00 87 06 AA  Length = 4048212 BitCount = 139 ID = 271368256x
   3.033735 1  10264040x       Rx   d 8 04 06 00 00 00 00 00 3A  Length = 4194562 BitCount = 144 ID = 270942272x
   3.038660 1  102CE040x       Rx   d 8 90 00 68 7F 00 00 26 AA  Length = 4078212 BitCount = 140 ID = 271376448x
   3.043909 1  10210040x       Rx   d 8 00 00 00 00 00 00 00 00  Length = 4284573 BitCount = 147 ID = 270598208x
   3.053815 1  10220040x       Rx   d 8 10 00 00 00 00 06 00 00  Length = 4288208 BitCount = 147 ID = 270663744x
   3.056819 1  106B0040x       Rx   d 1 00  Length = 2308248 BitCount = 81 ID = 275447872x
   3.063838 1  1022E040x       Rx   d 8 00 00 00 00 00 00 00 00  Length = 4314573 BitCount = 148 ID = 270721088x
   3.068883 1  10780040x       Rx   d 8 00 00 01 04 08 00 00 22  Length = 4288208 BitCount = 147 ID = 276299840x
   3.073174 1  C800040x        Rx   d 6 08 CB 00 00 4D BB  Length = 3598216 BitCount = 124 ID = 209715264x
   3.078786 1  10230040x       Rx   d 8 10 00 00 00 10 00 00 00  Length = 4258208 BitCount = 146 ID = 270729280x
   3.093733 1  10240040x       Rx   d 8 83 FE 88 01 01 13 0F FC  Length = 4168208 BitCount = 143 ID = 270794816x
   3.098896 1  106B8040x       Rx   d 8 00 00 00 00 00 00 00 00  Length = 4318208 BitCount = 148 ID = 275480640x
   3.102827 1  102C0040x       Rx   d 5 AE EF 44 59 03  Length = 3298224 BitCount = 114 ID = 271319104x
   3.113724 1  102CA040x       Rx   d 8 00 40 0C A1 2B 00 F1 00  Length = 4108212 BitCount = 141 ID = 271360064x
   3.131481 1  10304058x       Rx   d 3 44 59 01  Length = 2728236 BitCount = 95 ID = 271597656x
   3.135803 1  10264040x       Rx   d 8 04 06 00 00 00 00 00 3A  Length = 4198208 BitCount = 144 ID = 270942272x
   3.139494 1  631             Rx   d 8 00 40 00 00 00 00 00 00  Length = 3564605 BitCount = 123 ID = 1585
   3.143903 1  10210040x       Rx   d 8 00 00 00 00 00 00 00 00  Length = 4284562 BitCount = 147 ID = 270598208x
   3.146814 1  10308060x       Rx   d 3 44 59 01  Length = 2784638 BitCount = 97 ID = 271614048x
   3.149693 1  10306099x       Rx   d 3 44 59 01  Length = 2754642 BitCount = 96 ID = 271605913x
   3.154102 1  1043A040x       Rx   d 8 00 00 35 00 00 00 00 00  Length = 4284562 BitCount = 147 ID = 272867392x
   3.158877 1  10220040x       Rx   d 8 10 00 00 00 00 07 00 00  Length = 4318208 BitCount = 148 ID = 270663744x
   3.163950 1  1022E040x       Rx   d 8 20 00 00 00 20 00 00 00  Length = 4288223 BitCount = 147 ID = 270721088x
   3.167698 1  62C             Rx   d 8 00 40 00 00 00 00 00 00  Length = 3624586 BitCount = 125 ID = 1580
   3.171842 1  1080A040x       Rx   d 7 00 00 00 00 00 00 00  Length = 4018212 BitCount = 138 ID = 276865088x
   3.178800 1  10230040x       Rx   d 8 30 00 00 00 30 00 00 00  Length = 4254562 BitCount = 146 ID = 270729280x
   3.181895 1  106B0040x       Rx   d 1 00  Length = 2308248 BitCount = 81 ID = 275447872x
   3.193839 1  10240040x       Rx   d 8 83 FF 88 01 01 13 0F FC  Length = 4198208 BitCount = 144 ID = 270794816x
   3.213766 1  102CA040x       Rx   d 8 00 40 0C BE 2B 00 F1 00  Length = 4108212 BitCount = 141 ID = 271360064x
   3.233815 1  10264040x       Rx   d 8 04 06 00 00 00 00 00 3B  Length = 4228208 BitCount = 145 ID = 270942272x
   3.238108 1  10734099x       Rx   d 6 24 42 00 7D 00 00  Length = 3568216 BitCount = 123 ID = 275988633x
   3.243931 1  10210040x       Rx   d 8 00 00 00 00 00 00 00 00  Length = 4288208 BitCount = 147 ID = 270598208x
   3.248762 1  1022A040x       Rx   d 8 00 B0 00 12 42 00 00 22  Length = 4138223 BitCount = 142 ID = 270704704x
   3.253956 1  10220040x       Rx   d 8 10 00 00 00 00 08 00 00  Length = 4318208 BitCount = 148 ID = 270663744x
   3.258277 1  1022C040x       Rx   d 6 00 10 00 20 00 00  Length = 3688216 BitCount = 127 ID = 270712896x
   3.263918 1  1022E040x       Rx   d 8 00 00 00 00 00 00 00 00  Length = 4318223 BitCount = 148 ID = 270721088x
   3.267159 1  10250040x       Rx   d 2 00 03  Length = 2604654 BitCount = 91 ID = 270860352x
   3.273944 1  10230040x       Rx   d 8 10 00 00 00 10 00 00 00  Length = 4258208 BitCount = 146 ID = 270729280x
   3.278748 1  102CC040x       Rx   d 8 00 09 CF 6A 00 87 06 AA  Length = 4048227 BitCount = 139 ID = 271368256x
   3.283761 1  102CE040x       Rx   d 8 90 00 68 7F 00 00 26 AA  Length = 4078212 BitCount = 140 ID = 271376448x
   3.288682 1  102D0040x       Rx   d 8 01 69 01 ED 7C 8A 00 FF  Length = 4078212 BitCount = 140 ID = 271384640x
   3.293812 1  10240040x       Rx   d 8 83 FE 88 01 01 13 0F FC  Length = 4164566 BitCount = 143 ID = 270794816x
   3.298797 1  102E0040x       Rx   d 8 00 33 CA 70 8A 00 62 81  Length = 4108223 BitCount = 141 ID = 271450176x
   3.301920 1  106B0040x       Rx   d 1 00  Length = 2308263 BitCount = 81 ID = 275447872x
   3.308943 1  106B8040x       Rx   d 8 00 00 00 00 00 00 00 00  Length = 4318223 BitCount = 148 ID = 275480640x
   3.313778 1  102CA040x       Rx   d 8 00 40 0C B7 2B 00 F1 00  Length = 4108212 BitCount = 141 ID = 271360064x
   3.318007 1  106C0040x       Rx   d 5 00 06 0F 07 00  Length = 3444598 BitCount = 119 ID = 275513408x
   3.323289 1  C800040x        Rx   d 6 08 CB 00 00 4D BE  Length = 3654586 BitCount = 126 ID = 209715264x
   3.327552 1  10814099x       Rx   d 4 20 44 30 00  Length = 2998243 BitCount = 104 ID = 276906137x
   3.330824 1  1077C040x       Rx   d 4 30 30 01 F4  Length = 3148224 BitCount = 109 ID = 276283456x
   3.338802 1  10264040x       Rx   d 8 04 06 00 00 00 00 00 28  Length = 4194577 BitCount = 144 ID = 270942272x
   3.343963 1  10210040x       Rx   d 8 00 00 00 00 00 00 00 00  Length = 4284562 BitCount = 147 ID = 270598208x
   3.348949 1  10780040x       Rx   d 8 00 00 01 04 08 00 00 22  Length = 4288208 BitCount = 147 ID = 276299840x
   3.352756 1  10324058x       Rx   d 6 00 00 03 FF 00 00  Length = 3684586 BitCount = 127 ID = 271728728x
   3.357195 1  10220040x       Rx   d 8 10 00 00 00 00 04 00 00  Length = 4314558 BitCount = 148 ID = 270663744x
   3.359419 1  13FFE058x       Rx   d 0  Length = 2098256 BitCount = 74 ID = 335536216x
   3.363922 1  1022E040x       Rx   d 8 20 00 00 00 20 00 00 00  Length = 4288208 BitCount = 147 ID = 270721088x
   3.368393 1  10788040x       Rx   d 6 08 00 00 00 00 00  Length = 3774582 BitCount = 130 ID = 276332608x
   3.373859 1  10230040x       Rx   d 8 30 00 00 00 30 00 00 00  Length = 4258208 BitCount = 146 ID = 270729280x
   3.378092 1  10806040x       Rx   d 5 00 00 00 00 19  Length = 3418235 BitCount = 118 ID = 276848704x
   3.383971 1  1043A040x       Rx   d 8 00 00 38 00 00 00 00 00  Length = 4344558 BitCount = 149 ID = 272867392x
   3.393787 1  10240040x       Rx   d 8 83 FE 88 01 01 13 0F FC  Length = 4168208 BitCount = 143 ID = 270794816x
   3.396457 1  13FFE0AFx       Rx   d 0  Length = 2064714 BitCount = 73 ID = 335536303x
   3.402912 1  102C0040x       Rx   d 5 AE EF 44 59 03  Length = 3298224 BitCount = 114 ID = 271319104x
   3.405945 1  13FFE060x       Rx   d 0  Length = 2098256 BitCount = 74 ID = 335536224x
   3.408139 1  13FFE080x       Rx   d 0  Length = 2068275 BitCount = 73 ID = 335536256x
   3.413782 1  102CA040x       Rx   d 8 00 40 0C C2 2B 00 F1 00  Length = 4078212 BitCount = 140 ID = 271360064x
   3.416935 1  106B0040x       Rx   d 1 00  Length = 2308263 BitCount = 81 ID = 275447872x
   3.426598 1  10308060x       Rx   d 3 44 59 01  Length = 2788236 BitCount = 97 ID = 271614048x
   3.428789 1  13FFE099x       Rx   d 0  Length = 2068260 BitCount = 73 ID = 335536281x
   3.431637 1  10304058x       Rx   d 3 44 59 01  Length = 2724642 BitCount = 95 ID = 271597656x
   3.435958 1  10264040x       Rx   d 8 04 06 00 00 00 00 00 3D  Length = 4194562 BitCount = 144 ID = 270942272x
   3.443943 1  10210040x       Rx   d 8 00 00 00 00 00 00 00 00  Length = 4288223 BitCount = 147 ID = 270598208x
   3.447278 1  10306099x       Rx   d 3 44 59 01  Length = 2758236 BitCount = 96 ID = 271605913x
   3.453940 1  10220040x       Rx   d 8 10 00 00 00 00 03 00 00  Length = 4318223 BitCount = 148 ID = 270663744x
   3.463934 1  1022E040x       Rx   d 8 00 00 00 00 00 00 00 00  Length = 4318208 BitCount = 148 ID = 270721088x
   3.473869 1  10230040x       Rx   d 8 10 00 00 00 10 00 00 00  Length = 4258208 BitCount = 146 ID = 270729280x
   3.493792 1  1022A040x       Rx   d 8 00 B0 00 12 42 00 00 22  Length = 4134566 BitCount = 142 ID = 270704704x
   3.498327 1  1022C040x       Rx   d 6 00 10 00 20 00 00  Length = 3688216 BitCount = 127 ID = 270712896x
   3.503852 1  10240040x       Rx   d 8 83 FE 88 01 01 13 0F FC  Length = 4168208 BitCount = 143 ID = 270794816x
   3.508985 1  106B8040x       Rx   d 8 00 00 00 00 00 00 00 00  Length = 4318208 BitCount = 148 ID = 275480640x
   3.513548 1  10248040x       Rx   d 7 00 00 6D D4 CC 06 00  Length = 3898212 BitCount = 134 ID = 270827584x
   3.518828 1  102CA040x       Rx   d 8 00 40 0C D6 2B 00 F1 00  Length = 4104581 BitCount = 141 ID = 271360064x
   3.523753 1  102CC040x       Rx   d 8 00 09 CF 6A 00 87 06 A9  Length = 4048227 BitCount = 139 ID = 271368256x
   3.526666 1  13FFE040x       Rx   d 0  Length = 2068260 BitCount = 73 ID = 335536192x
   3.533865 1  10264040x       Rx   d 8 04 06 00 00 00 00 00 3D  Length = 4194562 BitCount = 144 ID = 270942272x
   3.538788 1  102CE040x       Rx   d 8 90 00 68 7F 00 00 26 A8  Length = 4078212 BitCount = 140 ID = 271376448x
   3.544068 1  10210040x       Rx   d 8 00 00 00 00 00 00 00 00  Length = 4284562 BitCount = 147 ID = 270598208x
   3.546923 1  106B0040x       Rx   d 1 00  Length = 2308248 BitCount = 81 ID = 275447872x
   3.554098 1  10220040x       Rx   d 8 10 00 00 00 00 04 00 00  Length = 4318208 BitCount = 148 ID = 270663744x
   3.558633 1  108E0080x       Rx   d 6 0E 01 17 02 07 B5  Length = 3598216 BitCount = 124 ID = 277741696x
   3.563943 1  1022E040x       Rx   d 8 20 00 00 00 20 00 00 00  Length = 4284562 BitCount = 147 ID = 270721088x
   3.569018 1  10780040x       Rx   d 8 00 00 01 04 08 00 00 22  Length = 4288208 BitCount = 147 ID = 276299840x
   3.573339 1  C800040x        Rx   d 6 08 CB 00 00 4D C1  Length = 3628216 BitCount = 125 ID = 209715264x
   3.578920 1  10230040x       Rx   d 8 30 00 00 00 30 00 00 00  Length = 4258208 BitCount = 146 ID = 270729280x
   3.593867 1  10240040x       Rx   d 8 83 FE 88 01 01 13 0F FC  Length = 4168208 BitCount = 143 ID = 270794816x
   3.613821 1  102CA040x       Rx   d 8 00 40 0C C6 2B 00 F1 00  Length = 4104566 BitCount = 141 ID = 271360064x
   3.623217 1  621             Rx   d 8 00 52 00 00 00 00 00 00  Length = 3598216 BitCount = 124 ID = 1569
   3.633866 1  10264040x       Rx   d 8 04 06 00 00 00 00 00 28  Length = 4194562 BitCount = 144 ID = 270942272x
   3.639029 1  1043A040x       Rx   d 8 00 00 38 00 00 00 00 00  Length = 4348223 BitCount = 149 ID = 272867392x
   3.643982 1  10210040x       Rx   d 8 00 00 00 00 00 00 00 00  Length = 4288223 BitCount = 147 ID = 270598208x
   3.654004 1  10220040x       Rx   d 8 10 00 00 00 00 04 00 00  Length = 4318208 BitCount = 148 ID = 270663744x
   3.664029 1  1022E040x       Rx   d 8 00 00 00 00 00 00 00 00  Length = 4318208 BitCount = 148 ID = 270721088x
   3.666972 1  106B0040x       Rx   d 1 00  Length = 2308248 BitCount = 81 ID = 275447872x
   3.673937 1  10230040x       Rx   d 8 10 00 00 00 10 00 00 00  Length = 4258208 BitCount = 146 ID = 270729280x
   3.693862 1  10240040x       Rx   d 8 83 FE 88 01 01 13 0F FC  Length = 4164581 BitCount = 143 ID = 270794816x
   3.699023 1  106B8040x       Rx   d 8 00 00 00 00 00 00 00 00  Length = 4314558 BitCount = 148 ID = 275480640x
   3.702958 1  102C0040x       Rx   d 5 AE EF 44 59 03  Length = 3298239 BitCount = 114 ID = 271319104x
   3.713822 1  102CA040x       Rx   d 8 00 40 0C C2 2B 00 F1 00  Length = 4078212 BitCount = 140 ID = 271360064x
   3.731312 1  10304058x       Rx   d 3 44 59 01  Length = 2728236 BitCount = 95 ID = 271597656x
   3.735630 1  10264040x       Rx   d 8 04 06 00 00 00 00 00 3D  Length = 4194562 BitCount = 144 ID = 270942272x
   3.739321 1  10734099x       Rx   d 6 24 42 00 7D 00 00  Length = 3564590 BitCount = 123 ID = 275988633x
   3.744124 1  10210040x       Rx   d 8 00 00 00 00 00 00 00 00  Length = 4288208 BitCount = 147 ID = 270598208x
   3.747033 1  10308060x       Rx   d 3 44 59 01  Length = 2784638 BitCount = 97 ID = 271614048x
   3.751296 1  1022A040x       Rx   d 8 00 B0 00 12 42 00 00 22  Length = 4138208 BitCount = 142 ID = 270704704x
   3.754178 1  10306099x       Rx   d 3 44 59 01  Length = 2758251 BitCount = 96 ID = 271605913x
   3.759011 1  10220040x       Rx   d 8 10 00 00 00 00 05 00 00  Length = 4288223 BitCount = 147 ID = 270663744x
   3.763451 1  1022C040x       Rx   d 6 00 10 00 20 00 00  Length = 3684586 BitCount = 127 ID = 270712896x
   3.769006 1  1022E040x       Rx   d 8 20 00 00 00 20 00 00 00  Length = 4288208 BitCount = 147 ID = 270721088x
   3.773929 1  10230040x       Rx   d 8 30 00 00 00 30 00 00 00  Length = 4258208 BitCount = 146 ID = 270729280x
   3.778882 1  102CC040x       Rx   d 8 00 09 CF 6A 00 87 06 AA  Length = 4048212 BitCount = 139 ID = 271368256x
   3.783835 1  102CE040x       Rx   d 8 90 00 69 7F 00 00 26 AA  Length = 4078212 BitCount = 140 ID = 271376448x
   3.786027 1  13FFE068x       Rx   d 0  Length = 2068260 BitCount = 73 ID = 335536232x
   3.790229 1  102D0040x       Rx   d 8 01 69 01 ED 7C 8A 00 FF  Length = 4078212 BitCount = 140 ID = 271384640x
   3.792928 1  106D0080x       Rx   d 2 00 00  Length = 2574669 BitCount = 90 ID = 275579008x
   3.798931 1  10240040x       Rx   d 8 83 FF 88 01 01 13 0F FC  Length = 4198208 BitCount = 144 ID = 270794816x
   3.801994 1  106B0040x       Rx   d 1 00  Length = 2308248 BitCount = 81 ID = 275447872x
   3.808177 1  10806040x       Rx   d 5 00 00 00 00 19  Length = 3418220 BitCount = 118 ID = 276848704x
   3.813883 1  102CA040x       Rx   d 8 00 40 0C CC 2B 00 F1 00  Length = 4108212 BitCount = 141 ID = 271360064x
   3.819072 1  10780040x       Rx   d 8 00 00 01 04 08 00 00 22  Length = 4284562 BitCount = 147 ID = 276299840x
   3.823393 1  C800040x        Rx   d 6 08 CB 00 00 4D C5  Length = 3624601 BitCount = 125 ID = 209715264x
   3.828494 1  10788040x       Rx   d 6 08 00 00 00 00 00  Length = 3774582 BitCount = 130 ID = 276332608x
   3.834019 1  10264040x       Rx   d 8 04 06 00 00 00 00 00 3D  Length = 4198208 BitCount = 144 ID = 270942272x
   3.844014 1  10210040x       Rx   d 8 00 00 00 00 00 00 00 00  Length = 4288208 BitCount = 147 ID = 270598208x
   3.854038 1  10220040x       Rx   d 8 10 00 00 00 00 04 00 00  Length = 4318208 BitCount = 148 ID = 270663744x
   3.864003 1  1022E040x       Rx   d 8 00 00 00 00 00 00 00 00  Length = 4318223 BitCount = 148 ID = 270721088x
   3.874059 1  10230040x       Rx   d 8 10 00 00 00 10 00 00 00  Length = 4258208 BitCount = 146 ID = 270729280x
   3.884052 1  1043A040x       Rx   d 8 00 00 34 00 00 00 00 00  Length = 4288208 BitCount = 147 ID = 272867392x
   3.893928 1  10240040x       Rx   d 8 83 FE 88 01 01 13 0F FC  Length = 4168208 BitCount = 143 ID = 270794816x
   3.899057 1  106B8040x       Rx   d 8 00 00 00 00 00 00 00 00  Length = 4314558 BitCount = 148 ID = 275480640x
   3.913881 1  102CA040x       Rx   d 8 00 40 0C BC 2B 00 F1 00  Length = 4074566 BitCount = 140 ID = 271360064x
   3.917036 1  106B0040x       Rx   d 1 00  Length = 2308248 BitCount = 81 ID = 275447872x
   3.933992 1  10264040x       Rx   d 8 04 06 00 00 00 00 00 3B  Length = 4228208 BitCount = 145 ID = 270942272x
   3.944074 1  10210040x       Rx   d 8 00 00 00 00 00 00 00 00  Length = 4288208 BitCount = 147 ID = 270598208x
   3.954068 1  10220040x       Rx   d 8 10 00 00 00 00 07 00 00  Length = 4318208 BitCount = 148 ID = 270663744x
   3.964063 1  1022E040x       Rx   d 8 20 00 00 00 20 00 00 00  Length = 4288208 BitCount = 147 ID = 270721088x
   3.973967 1  10230040x       Rx   d 8 30 00 00 00 30 00 00 00  Length = 4258208 BitCount = 146 ID = 270729280x
   3.986871 1  10448060x       Rx   d 4 00 00 45 00  Length = 3058228 BitCount = 106 ID = 272924768x
   3.993924 1  1022A040x       Rx   d 8 00 B0 00 12 42 00 00 22  Length = 4138208 BitCount = 142 ID = 270704704x
   3.998451 1  1022C040x       Rx   d 6 00 10 00 20 00 00  Length = 3684586 BitCount = 127 ID = 270712896x
   4.000817 1  Statistic: D 3 R 0 XD 151 XR 0 E 0 O 0 B 60.00%
   4.000817 2  Statistic: D 0 R 0 XD 0 XR 0 E 0 O 0 B 0.00%
   4.000817 3  Statistic: D 0 R 0 XD 0 XR 0 E 0 O 0 B 0.00%
   4.002552 Li SleepModeEvent 0 entering sleep mode due to bus idle timeout
   4.003947 1  10240040x       Rx   d 8 83 FE 88 01 01 13 0F FC  Length = 4168223 BitCount = 143 ID = 270794816x
   4.008030 1  102C0040x       Rx   d 5 AE EF 44 59 03  Length = 3298239 BitCount = 114 ID = 271319104x
   4.013673 1  10248040x       Rx   d 7 00 00 6D D4 CC 06 00  Length = 3898212 BitCount = 134 ID = 270827584x
   4.018922 1  102CA040x       Rx   d 8 00 40 0C B3 2B 00 F1 00  Length = 4104566 BitCount = 141 ID = 271360064x
   4.023877 1  102CC040x       Rx   d 8 00 09 CF 6A 00 87 06 AB  Length = 4078212 BitCount = 140 ID = 271368256x
   4.026790 1  10308060x       Rx   d 3 44 59 01  Length = 2788236 BitCount = 97 ID = 271614048x
   4.031142 1  10304058x       Rx   d 3 44 59 01  Length = 2728236 BitCount = 95 ID = 271597656x
   4.035490 1  10264040x       Rx   d 8 04 06 00 00 00 00 00 26  Length = 4224562 BitCount = 145 ID = 270942272x
   4.044162 1  10210040x       Rx   d 8 00 00 00 00 00 00 00 00  Length = 4284562 BitCount = 147 ID = 270598208x
   4.047287 1  10306099x       Rx   d 3 44 59 01  Length = 2758236 BitCount = 96 ID = 271605913x
   4.051490 1  102CE040x       Rx   d 8 90 00 69 7F 00 00 26 AA  Length = 4078212 BitCount = 140 ID = 271376448x
   4.059112 1  10220040x       Rx   d 8 10 00 00 00 00 07 00 00  Length = 4318208 BitCount = 148 ID = 270663744x
   4.064155 1  1022E040x       Rx   d 8 00 00 00 00 00 00 00 00  Length = 4318208 BitCount = 148 ID = 270721088x
   4.067066 1  106B0040x       Rx   d 1 00  Length = 2308248 BitCount = 81 ID = 275447872x
   4.073521 1  C800040x        Rx   d 6 08 CB 00 00 4D C7  Length = 3628231 BitCount = 125 ID = 209715264x
   4.079015 1  10230040x       Rx   d 8 10 00 00 00 10 00 00 00  Length = 4258223 BitCount = 146 ID = 270729280x
   4.084116 1  10780040x       Rx   d 8 00 00 01 04 08 00 00 22  Length = 4284562 BitCount = 147 ID = 276299840x
   4.093962 1  10240040x       Rx   d 8 83 FE 88 01 01 13 0F FC  Length = 4168223 BitCount = 143 ID = 270794816x
   4.099125 1  106B8040x       Rx   d 8 00 00 00 00 00 00 00 00  Length = 4318223 BitCount = 148 ID = 275480640x
   4.113975 1  102CA040x       Rx   d 8 00 40 0C C1 2B 00 F1 00  Length = 4104566 BitCount = 141 ID = 271360064x
   4.133994 1  10264040x       Rx   d 8 04 06 00 00 00 00 00 3A  Length = 4198223 BitCount = 144 ID = 270942272x
   4.139095 1  1043A040x       Rx   d 8 00 00 35 00 00 00 00 00  Length = 4284562 BitCount = 147 ID = 272867392x
   4.144140 1  10210040x       Rx   d 8 00 00 00 00 00 00 00 00  Length = 4288208 BitCount = 147 ID = 270598208x
   4.148821 1  1080A040x       Rx   d 7 00 00 00 00 00 00 00  Length = 4018212 BitCount = 138 ID = 276865088x
   4.153975 CAN 1 Status:chip status error active  - TxErr: 0 RxErr: 1
   4.153983 1  ErrorFrame	Flags = 0xfffe	CodeExt = 0x2072	Code = 0x81	ID = 0x90220040	DLC = 8	Position = 120	Length = 4134375	Data = 0x10  0  0  0  0  0x4  0  0
   4.158598 CAN 1 Status:chip status error active
   4.158816 1  10220040x       Rx   d 8 10 00 00 00 00 04 00 00  Length = 4318208 BitCount = 148 ID = 270663744x
   4.164161 1  1022E040x       Rx   d 8 20 00 00 00 20 00 00 00  Length = 4288208 BitCount = 147 ID = 270721088x
   4.174127 1  10230040x       Rx   d 8 30 00 00 00 30 00 00 00  Length = 4258208 BitCount = 146 ID = 270729280x
   4.182082 1  106B0040x       Rx   d 1 00  Length = 2308248 BitCount = 81 ID = 275447872x
   4.193998 1  10240040x       Rx   d 8 83 FE 88 01 01 13 0F FC  Length = 4168208 BitCount = 143 ID = 270794816x
   4.213985 1  102CA040x       Rx   d 8 00 40 0C B8 2B 00 F1 00  Length = 4108223 BitCount = 141 ID = 271360064x
   4.216146 1  13FFE0BBx       Rx   d 0  Length = 2034718 BitCount = 72 ID = 335536315x
   4.234030 1  10264040x       Rx   d 8 04 06 00 00 00 00 00 3A  Length = 4198208 BitCount = 144 ID = 270942272x
   4.238113 1  10734099x       Rx   d 6 24 42 00 7D 00 00  Length = 3568216 BitCount = 123 ID = 275988633x
   4.244233 1  10210040x       Rx   d 8 00 00 00 00 00 00 00 00  Length = 4284562 BitCount = 147 ID = 270598208x
   4.249008 1  1022A040x       Rx   d 8 00 B0 00 12 42 00 00 22  Length = 4138208 BitCount = 142 ID = 270704704x
   4.254227 1  10220040x       Rx   d 8 10 00 00 00 00 04 00 00  Length = 4314558 BitCount = 148 ID = 270663744x
   4.258488 1  1022C040x       Rx   d 6 00 10 00 20 00 00  Length = 3684586 BitCount = 127 ID = 270712896x
   4.264133 1  1022E040x       Rx   d 8 00 00 00 00 00 00 00 00  Length = 4318208 BitCount = 148 ID = 270721088x
   4.267406 1  10250040x       Rx   d 2 00 03  Length = 2608240 BitCount = 91 ID = 270860352x
   4.274186 1  10230040x       Rx   d 8 10 00 00 00 10 00 00 00  Length = 4254577 BitCount = 146 ID = 270729280x
   4.278961 1  102CC040x       Rx   d 8 00 09 CF 6A 00 87 06 A9  Length = 4048212 BitCount = 139 ID = 271368256x
   4.283974 1  102CE040x       Rx   d 8 90 00 68 7F 00 00 26 A9  Length = 4078212 BitCount = 140 ID = 271376448x
   4.288927 1  102D0040x       Rx   d 8 01 69 01 ED 7C 8A 00 FF  Length = 4078212 BitCount = 140 ID = 271384640x
   4.294058 1  10240040x       Rx   d 8 83 FF 88 01 01 13 0F FC  Length = 4198208 BitCount = 144 ID = 270794816x
   4.299010 1  102E0040x       Rx   d 8 00 33 CA 70 8A 00 62 81  Length = 4108223 BitCount = 141 ID = 271450176x
   4.303123 1  102C0040x       Rx   d 5 AE EF 44 59 03  Length = 3298239 BitCount = 114 ID = 271319104x
   4.308282 1  10466040x       Rx   d 5 00 00 00 00 00  Length = 3444598 BitCount = 119 ID = 273047616x
   4.314047 1  102CA040x       Rx   d 8 00 40 0C B8 2B 00 F1 00  Length = 4108223 BitCount = 141 ID = 271360064x
   4.317110 1  106B0040x       Rx   d 1 00  Length = 2308248 BitCount = 81 ID = 275447872x
   4.323473 1  C800040x        Rx   d 6 08 CB 00 00 4D CB  Length = 3598231 BitCount = 124 ID = 209715264x
   4.329177 1  106B8040x       Rx   d 8 00 00 00 00 00 00 00 00  Length = 4318208 BitCount = 148 ID = 275480640x
   4.332031 1  10304058x       Rx   d 3 44 59 01  Length = 2728236 BitCount = 95 ID = 271597656x
   4.336383 1  10264040x       Rx   d 8 04 06 00 00 00 00 00 27  Length = 4228208 BitCount = 145 ID = 270942272x
   4.344213 1  10210040x       Rx   d 8 00 00 00 00 00 00 00 00  Length = 4284573 BitCount = 147 ID = 270598208x
   4.347123 1  10308060x       Rx   d 3 44 59 01  Length = 2784638 BitCount = 97 ID = 271614048x
   4.350002 1  10306099x       Rx   d 3 44 59 01  Length = 2754642 BitCount = 96 ID = 271605913x
   4.353571 1  106C0040x       Rx   d 5 00 06 0F 07 00  Length = 3444598 BitCount = 119 ID = 275513408x
   4.359156 1  10220040x       Rx   d 8 10 00 00 00 00 05 00 00  Length = 4288208 BitCount = 147 ID = 270663744x
   4.364169 1  1022E040x       Rx   d 8 20 00 00 00 20 00 00 00  Length = 4288208 BitCount = 147 ID = 270721088x
   4.367980 1  1077C040x       Rx   d 4 30 30 01 F4  Length = 3148239 BitCount = 109 ID = 276283456x
   4.374072 1  10230040x       Rx   d 8 30 00 00 00 30 00 00 00  Length = 4254562 BitCount = 146 ID = 270729280x
   4.379233 1  10780040x       Rx   d 8 00 00 01 04 08 00 00 22  Length = 4284562 BitCount = 147 ID = 276299840x
   4.384188 1  1043A040x       Rx   d 8 00 00 37 00 00 00 00 00  Length = 4318208 BitCount = 148 ID = 272867392x
   4.388625 1  10788040x       Rx   d 6 08 00 00 00 00 00  Length = 3774582 BitCount = 130 ID = 276332608x
   4.394061 1  10240040x       Rx   d 8 83 FE 88 01 01 13 0F FC  Length = 4168223 BitCount = 143 ID = 270794816x
   4.398292 1  10806040x       Rx   d 5 00 00 00 00 19  Length = 3414598 BitCount = 118 ID = 276848704x
   4.413986 1  102CA040x       Rx   d 8 00 40 0C A5 2B 00 F1 00  Length = 4074566 BitCount = 140 ID = 271360064x
   4.434064 1  10264040x       Rx   d 8 04 06 00 00 00 00 00 3A  Length = 4198208 BitCount = 144 ID = 270942272x
   4.437159 1  106B0040x       Rx   d 1 00  Length = 2308263 BitCount = 81 ID = 275447872x
   4.444213 1  10210040x       Rx   d 8 00 00 00 00 00 00 00 00  Length = 4288208 BitCount = 147 ID = 270598208x
   4.454149 1  10220040x       Rx   d 8 10 00 00 00 00 06 00 00  Length = 4288208 BitCount = 147 ID = 270663744x
   4.464203 1  1022E040x       Rx   d 8 00 00 00 00 00 00 00 00  Length = 4318208 BitCount = 148 ID = 270721088x
   4.474198 1  10230040x       Rx   d 8 10 00 00 00 10 00 00 00  Length = 4258208 BitCount = 146 ID = 270729280x
   4.494031 1  1022A040x       Rx   d 8 00 B0 00 12 42 00 00 22  Length = 4134566 BitCount = 142 ID = 270704704x
   4.498566 1  1022C040x       Rx   d 6 00 10 00 20 00 00  Length = 3688216 BitCount = 127 ID = 270712896x
   4.504121 1  10240040x       Rx   d 8 83 FF 88 01 01 13 0F FC  Length = 4198208 BitCount = 144 ID = 270794816x
   4.509224 1  106B8040x       Rx   d 8 00 00 00 00 00 00 00 00  Length = 4318223 BitCount = 148 ID = 275480640x
   4.513812 1  10248040x       Rx   d 7 00 00 6D D4 CC 06 00  Length = 3894574 BitCount = 134 ID = 270827584x
   4.519066 1  102CA040x       Rx   d 8 00 40 0C BB 2B 00 F1 00  Length = 4108212 BitCount = 141 ID = 271360064x
   4.523992 1  102CC040x       Rx   d 8 00 09 CF 6A 00 87 06 AC  Length = 4048212 BitCount = 139 ID = 271368256x
   4.534076 1  10264040x       Rx   d 8 04 06 00 00 00 00 00 3A  Length = 4198223 BitCount = 144 ID = 270942272x
   4.539027 1  102CE040x       Rx   d 8 90 00 68 7F 00 00 26 AA  Length = 4078212 BitCount = 140 ID = 271376448x
   4.544217 1  10210040x       Rx   d 8 00 00 00 00 00 00 00 00  Length = 4284562 BitCount = 147 ID = 270598208x
   4.550368 1  13FFE058x       Rx   d 0  Length = 2094725 BitCount = 74 ID = 335536216x
   4.554813 1  10220040x       Rx   d 8 10 00 00 00 00 04 00 00  Length = 4318223 BitCount = 148 ID = 270663744x
   4.558654 1  108E0080x       Rx   d 6 0E 01 17 02 07 B6  Length = 3594601 BitCount = 124 ID = 277741696x
   4.564268 1  1022E040x       Rx   d 8 20 00 00 00 20 00 00 00  Length = 4288208 BitCount = 147 ID = 270721088x
   4.567181 1  106B0040x       Rx   d 1 00  Length = 2308248 BitCount = 81 ID = 275447872x
   4.573576 1  C800040x        Rx   d 6 08 CB 00 00 4D CD  Length = 3658216 BitCount = 126 ID = 209715264x
   4.579159 1  10230040x       Rx   d 8 30 00 00 00 30 00 00 00  Length = 4258208 BitCount = 146 ID = 270729280x
   4.584262 1  10780040x       Rx   d 8 00 00 01 04 08 00 00 22  Length = 4288223 BitCount = 147 ID = 276299840x
   4.594107 1  10240040x       Rx   d 8 83 FF 88 01 01 13 0F FC  Length = 4198208 BitCount = 144 ID = 270794816x
   4.596301 1  13FFE0AFx       Rx   d 0  Length = 2068260 BitCount = 73 ID = 335536303x
   4.603173 1  102C0040x       Rx   d 5 AE EF 44 59 03  Length = 3298239 BitCount = 114 ID = 271319104x
   4.605930 1  13FFE060x       Rx   d 0  Length = 2094710 BitCount = 74 ID = 335536224x
   4.608125 1  13FFE080x       Rx   d 0  Length = 2068275 BitCount = 73 ID = 335536256x
   4.614068 1  102CA040x       Rx   d 8 00 40 0C B3 2B 00 F1 00  Length = 4108212 BitCount = 141 ID = 271360064x
   4.623490 1  621             Rx   d 8 00 52 00 00 00 00 00 00  Length = 3598216 BitCount = 124 ID = 1569
   4.626581 1  10308060x       Rx   d 3 44 59 01  Length = 2788236 BitCount = 97 ID = 271614048x
   4.628774 1  13FFE099x       Rx   d 0  Length = 2068260 BitCount = 73 ID = 335536281x
   4.631623 1  10304058x       Rx   d 3 44 59 01  Length = 2724642 BitCount = 95 ID = 271597656x
   4.635943 1  10264040x       Rx   d 8 04 06 00 00 00 00 00 3A  Length = 4194562 BitCount = 144 ID = 270942272x
   4.644229 1  10210040x       Rx   d 8 00 00 00 00 00 00 00 00  Length = 4288208 BitCount = 147 ID = 270598208x
   4.647292 1  10306099x       Rx   d 3 44 59 01  Length = 2758236 BitCount = 96 ID = 271605913x
   4.651731 1  1043A040x       Rx   d 8 00 00 37 00 00 00 00 00  Length = 4314558 BitCount = 148 ID = 272867392x
   4.659206 1  10220040x       Rx   d 8 10 00 00 00 00 05 00 00  Length = 4288208 BitCount = 147 ID = 270663744x
   4.664276 1  1022E040x       Rx   d 8 00 00 00 00 00 00 00 00  Length = 4314558 BitCount = 148 ID = 270721088x
   4.674152 1  10230040x       Rx   d 8 10 00 00 00 10 00 00 00  Length = 4258208 BitCount = 146 ID = 270729280x
   4.682196 1  106B0040x       Rx   d 1 00  Length = 2308248 BitCount = 81 ID = 275447872x
   4.694113 1  10240040x       Rx   d 8 83 FE 88 01 01 13 0F FC  Length = 4168223 BitCount = 143 ID = 270794816x
   4.699272 1  106B8040x       Rx   d 8 00 00 00 00 00 00 00 00  Length = 4314573 BitCount = 148 ID = 275480640x
   4.701947 1  13FFE040x       Rx   d 0  Length = 2068260 BitCount = 73 ID = 335536192x
   4.714130 1  102CA040x       Rx   d 8 00 40 0C C0 2B 00 F1 00  Length = 4134566 BitCount = 142 ID = 271360064x
   4.734148 1  10264040x       Rx   d 8 04 06 00 00 00 00 00 27  Length = 4228208 BitCount = 145 ID = 270942272x
   4.738108 1  10734099x       Rx   d 6 24 42 00 7D 00 00  Length = 3564590 BitCount = 123 ID = 275988633x
   4.744257 1  10210040x       Rx   d 8 00 00 00 00 00 00 00 00  Length = 4284562 BitCount = 147 ID = 270598208x
   4.749122 1  1022A040x       Rx   d 8 00 B0 00 12 42 00 00 22  Length = 4138208 BitCount = 142 ID = 270704704x
   4.754251 1  10220040x       Rx   d 8 10 00 00 00 00 06 00 00  Length = 4284562 BitCount = 147 ID = 270663744x
   4.758633 1  1022C040x       Rx   d 6 00 10 00 20 00 00  Length = 3684586 BitCount = 127 ID = 270712896x
   4.764218 1  1022E040x       Rx   d 8 20 00 00 00 20 00 00 00  Length = 4288208 BitCount = 147 ID = 270721088x
   4.774182 1  10230040x       Rx   d 8 30 00 00 00 30 00 00 00  Length = 4258223 BitCount = 146 ID = 270729280x
   4.779045 1  102CC040x       Rx   d 8 00 09 CF 6A 00 87 06 AA  Length = 4048212 BitCount = 139 ID = 271368256x
   4.784088 1  102CE040x       Rx   d 8 90 00 68 7F 00 00 26 AA  Length = 4078227 BitCount = 140 ID = 271376448x
   4.789098 1  102D0040x       Rx   d 8 01 69 01 ED 7C 8A 00 FF  Length = 4074581 BitCount = 140 ID = 271384640x
   4.794143 1  10240040x       Rx   d 8 83 FE 88 01 01 13 0F FC  Length = 4168208 BitCount = 143 ID = 270794816x
   4.797234 1  106B0040x       Rx   d 1 00  Length = 2308248 BitCount = 81 ID = 275447872x
   4.803387 1  10806040x       Rx   d 5 00 00 00 00 19  Length = 3418220 BitCount = 118 ID = 276848704x
   4.814160 1  102CA040x       Rx   d 8 00 40 0C B5 2B 00 F1 00  Length = 4138208 BitCount = 142 ID = 271360064x
   4.819353 1  10780040x       Rx   d 8 00 00 01 04 08 00 00 22  Length = 4288208 BitCount = 147 ID = 276299840x
   4.823584 1  C800040x        Rx   d 6 08 CB 00 00 4D D1  Length = 3598216 BitCount = 124 ID = 209715264x
   4.828774 1  10788040x       Rx   d 6 08 00 00 00 00 00  Length = 3774582 BitCount = 130 ID = 276332608x
   4.834179 1  10264040x       Rx   d 8 04 06 00 00 00 00 00 3A  Length = 4198208 BitCount = 144 ID = 270942272x
   4.844265 1  10210040x       Rx   d 8 00 00 00 00 00 00 00 00  Length = 4288223 BitCount = 147 ID = 270598208x
   4.854317 1  10220040x       Rx   d 8 10 00 00 00 00 08 00 00  Length = 4318208 BitCount = 148 ID = 270663744x
   4.864252 1  1022E040x       Rx   d 8 00 00 00 00 00 00 00 00  Length = 4318208 BitCount = 148 ID = 270721088x
   4.874186 1  10230040x       Rx   d 8 10 00 00 00 10 00 00 00  Length = 4258208 BitCount = 146 ID = 270729280x
   4.884273 1  1043A040x       Rx   d 8 00 00 35 00 00 00 00 00  Length = 4288208 BitCount = 147 ID = 272867392x
   4.894205 1  10240040x       Rx   d 8 83 FF 88 01 01 13 0F FC  Length = 4198208 BitCount = 144 ID = 270794816x
   4.899306 1  106B8040x       Rx   d 8 00 00 00 00 00 00 00 00  Length = 4314558 BitCount = 148 ID = 275480640x
   4.903241 1  102C0040x       Rx   d 5 AE EF 44 59 03  Length = 3298224 BitCount = 114 ID = 271319104x
   4.914136 1  102CA040x       Rx   d 8 00 40 0C A7 2B 00 F1 00  Length = 4108212 BitCount = 141 ID = 271360064x
   4.917289 1  106B0040x       Rx   d 1 00  Length = 2308248 BitCount = 81 ID = 275447872x
   4.930997 1  10304058x       Rx   d 3 44 59 01  Length = 2728236 BitCount = 95 ID = 271597656x
   4.935317 1  10264040x       Rx   d 8 04 06 00 00 00 00 00 3A  Length = 4194562 BitCount = 144 ID = 270942272x
   4.944323 1  10210040x       Rx   d 8 00 00 00 00 00 00 00 00  Length = 4288208 BitCount = 147 ID = 270598208x
   4.947232 1  10308060x       Rx   d 3 44 59 01  Length = 2784638 BitCount = 97 ID = 271614048x
   4.950111 1  10306099x       Rx   d 3 44 59 01  Length = 2754642 BitCount = 96 ID = 271605913x
   4.954550 1  10220040x       Rx   d 8 10 00 00 00 00 07 00 00  Length = 4314558 BitCount = 148 ID = 270663744x
   4.964276 1  1022E040x       Rx   d 8 20 00 00 00 20 00 00 00  Length = 4288208 BitCount = 147 ID = 270721088x
   4.974212 1  10230040x       Rx   d 8 30 00 00 00 30 00 00 00  Length = 4258208 BitCount = 146 ID = 270729280x
   4.983005 1  13FFE068x       Rx   d 0  Length = 2068260 BitCount = 73 ID = 335536232x
   4.986847 1  10448060x       Rx   d 4 00 00 45 00  Length = 3058228 BitCount = 106 ID = 272924768x
   4.989546 1  106D0080x       Rx   d 2 00 00  Length = 2574658 BitCount = 90 ID = 275579008x
   4.994171 1  1022A040x       Rx   d 8 00 B0 00 12 42 00 00 22  Length = 4138208 BitCount = 142 ID = 270704704x
   4.998704 1  1022C040x       Rx   d 6 00 10 00 20 00 00  Length = 3688216 BitCount = 127 ID = 270712896x
   5.000818 1  Statistic: D 1 R 0 XD 154 XR 0 E 1 O 0 B 60.60%
   5.000818 2  Statistic: D 0 R 0 XD 0 XR 0 E 0 O 0 B 0.00%
   5.000818 3  Statistic: D 0 R 0 XD 0 XR 0 E 0 O 0 B 0.00%
   5.004200 1  10240040x       Rx   d 8 83 FE 88 01 01 13 0F FC  Length = 4168223 BitCount = 143 ID = 270794816x
   5.013896 1  10248040x       Rx   d 7 00 00 6D D4 CC 06 00  Length = 3898212 BitCount = 134 ID = 270827584x
   5.019211 1  102CA040x       Rx   d 8 00 40 0C B6 2B 00 F1 00  Length = 4078227 BitCount = 140 ID = 271360064x
   5.024106 1  102CC040x       Rx   d 8 00 09 CF 6A 00 87 06 AA  Length = 4048212 BitCount = 139 ID = 271368256x
   5.034251 1  10264040x       Rx   d 8 04 06 00 00 00 00 00 27  Length = 4228208 BitCount = 145 ID = 270942272x
   5.039142 1  102CE040x       Rx   d 8 90 00 68 7F 00 00 26 AA  Length = 4078212 BitCount = 140 ID = 271376448x
   5.044331 1  10210040x       Rx   d 8 00 00 00 00 00 00 00 00  Length = 4284562 BitCount = 147 ID = 270598208x
   5.047306 1  106B0040x       Rx   d 1 00  Length = 2308248 BitCount = 81 ID = 275447872x
   5.054329 1  10220040x       Rx   d 8 10 00 00 00 00 06 00 00  Length = 4288208 BitCount = 147 ID = 270663744x
   5.064322 1  1022E040x       Rx   d 8 00 00 00 00 00 00 00 00  Length = 4318208 BitCount = 148 ID = 270721088x
   5.069425 1  10780040x       Rx   d 8 00 00 01 04 08 00 00 22  Length = 4288223 BitCount = 147 ID = 276299840x
   5.073686 1  C800040x        Rx   d 6 08 CB 00 00 4D D3  Length = 3628216 BitCount = 125 ID = 209715264x
   5.079330 1  10230040x       Rx   d 8 10 00 00 00 10 00 00 00  Length = 4258208 BitCount = 146 ID = 270729280x
   5.094215 1  10240040x       Rx   d 8 83 FE 88 01 01 13 0F FC  Length = 4168208 BitCount = 143 ID = 270794816x
   5.099407 1  106B8040x       Rx   d 8 00 00 00 00 00 00 00 00  Length = 4314558 BitCount = 148 ID = 275480640x
   5.114204 1  102CA040x       Rx   d 8 00 40 0C BA 2B 00 F1 00  Length = 4108212 BitCount = 141 ID = 271360064x
   5.134253 1  10264040x       Rx   d 8 04 06 00 00 00 00 00 3A  Length = 4198208 BitCount = 144 ID = 270942272x
   5.139414 1  1043A040x       Rx   d 8 00 00 37 00 00 00 00 00  Length = 4314558 BitCount = 148 ID = 272867392x
   5.144339 1  10210040x       Rx   d 8 00 00 00 00 00 00 00 00  Length = 4288208 BitCount = 147 ID = 270598208x
   5.149050 1  1080A040x       Rx   d 7 00 00 00 00 00 00 00  Length = 4018212 BitCount = 138 ID = 276865088x
   5.154396 1  10220040x       Rx   d 8 10 00 00 00 00 04 00 00  Length = 4318208 BitCount = 148 ID = 270663744x
   5.164302 1  1022E040x       Rx   d 8 20 00 00 00 20 00 00 00  Length = 4288208 BitCount = 147 ID = 270721088x
   5.167365 1  106B0040x       Rx   d 1 00  Length = 2308248 BitCount = 81 ID = 275447872x
   5.174269 1  10230040x       Rx   d 8 30 00 00 00 30 00 00 00  Length = 4258223 BitCount = 146 ID = 270729280x
   5.194219 1  10240040x       Rx   d 8 83 FE 88 01 01 13 0F FC  Length = 4164566 BitCount = 143 ID = 270794816x
   5.203316 1  102C0040x       Rx   d 5 AE EF 44 59 03  Length = 3298239 BitCount = 114 ID = 271319104x
   5.214240 1  102CA040x       Rx   d 8 00 40 0C AE 2B 00 F1 00  Length = 4108212 BitCount = 141 ID = 271360064x
   5.226544 1  10308060x       Rx   d 3 44 59 01  Length = 2788236 BitCount = 97 ID = 271614048x
   5.230835 1  10304058x       Rx   d 3 44 59 01  Length = 2728236 BitCount = 95 ID = 271597656x
   5.235157 1  10264040x       Rx   d 8 04 06 00 00 00 00 00 3A  Length = 4198223 BitCount = 144 ID = 270942272x
   5.238850 1  10734099x       Rx   d 6 24 42 00 7D 00 00  Length = 3568231 BitCount = 123 ID = 275988633x
   5.244401 1  10210040x       Rx   d 8 00 00 00 00 00 00 00 00  Length = 4288208 BitCount = 147 ID = 270598208x
   5.247316 1  10306099x       Rx   d 3 44 59 01  Length = 2758236 BitCount = 96 ID = 271605913x
   5.251579 1  1022A040x       Rx   d 8 00 B0 00 12 42 00 00 22  Length = 4138208 BitCount = 142 ID = 270704704x
   5.259381 1  10220040x       Rx   d 8 10 00 00 00 00 06 00 00  Length = 4288208 BitCount = 147 ID = 270663744x
   5.263759 1  1022C040x       Rx   d 6 00 10 00 20 00 00  Length = 3684597 BitCount = 127 ID = 270712896x
   5.269463 1  1022E040x       Rx   d 8 00 00 00 00 00 00 00 00  Length = 4318208 BitCount = 148 ID = 270721088x
   5.274297 1  10230040x       Rx   d 8 10 00 00 00 10 00 00 00  Length = 4258208 BitCount = 146 ID = 270729280x
   5.277836 1  10250040x       Rx   d 2 00 03  Length = 2604669 BitCount = 91 ID = 270860352x
   5.284201 1  102CC040x       Rx   d 8 00 09 CF 6A 00 87 06 AB  Length = 4078212 BitCount = 140 ID = 271368256x
   5.289302 1  102CE040x       Rx   d 8 90 00 68 7F 00 00 26 AA  Length = 4074566 BitCount = 140 ID = 271376448x
   5.294287 1  10240040x       Rx   d 8 83 FE 88 01 01 13 0F FC  Length = 4168208 BitCount = 143 ID = 270794816x
   5.299209 1  102D0040x       Rx   d 8 01 69 01 ED 7C 8A 00 FF  Length = 4078212 BitCount = 140 ID = 271384640x
   5.304282 1  102E0040x       Rx   d 8 00 33 CA 70 8A 00 62 81  Length = 4108223 BitCount = 141 ID = 271450176x
   5.307373 1  106B0040x       Rx   d 1 00  Length = 2308248 BitCount = 81 ID = 275447872x
   5.314336 1  102CA040x       Rx   d 8 00 40 0C A8 2B 00 F1 00  Length = 4198208 BitCount = 144 ID = 271360064x
   5.319527 1  106B8040x       Rx   d 8 00 00 00 00 00 00 00 00  Length = 4318208 BitCount = 148 ID = 275480640x
   5.323699 1  C800040x        Rx   d 6 08 CB 00 00 4D D7  Length = 3598216 BitCount = 124 ID = 209715264x
   5.328622 1  106C0040x       Rx   d 5 00 06 0F 07 00  Length = 3448220 BitCount = 119 ID = 275513408x
   5.334353 1  10264040x       Rx   d 8 04 06 00 00 00 00 00 3B  Length = 4228208 BitCount = 145 ID = 270942272x
   5.338226 1  1077C040x       Rx   d 4 30 30 01 F4  Length = 3148224 BitCount = 109 ID = 276283456x
   5.344411 1  10210040x       Rx   d 8 00 00 00 00 00 00 00 00  Length = 4288223 BitCount = 147 ID = 270598208x
   5.349423 1  10780040x       Rx   d 8 00 00 01 04 08 00 00 22  Length = 4284562 BitCount = 147 ID = 276299840x
   5.353234 1  10324058x       Rx   d 6 00 00 03 FF 00 00  Length = 3684586 BitCount = 127 ID = 271728728x
   5.357643 1  10220040x       Rx   d 8 10 00 00 00 00 05 00 00  Length = 4284573 BitCount = 147 ID = 270663744x
   5.364368 1  1022E040x       Rx   d 8 20 00 00 00 20 00 00 00  Length = 4288208 BitCount = 147 ID = 270721088x
   5.368926 1  10788040x       Rx   d 6 08 00 00 00 00 00  Length = 3774582 BitCount = 130 ID = 276332608x
   5.374331 1  10230040x       Rx   d 8 30 00 00 00 30 00 00 00  Length = 4258208 BitCount = 146 ID = 270729280x
   5.378592 1  10806040x       Rx   d 5 00 00 00 00 19  Length = 3414598 BitCount = 118 ID = 276848704x
   5.384387 1  1043A040x       Rx   d 8 00 00 36 00 00 00 00 00  Length = 4288208 BitCount = 147 ID = 272867392x
   5.394260 1  10240040x       Rx   d 8 83 FE 88 01 01 13 0F FC  Length = 4168208 BitCount = 143 ID = 270794816x
   5.414278 1  102CA040x       Rx   d 8 00 40 0C BF 2B 00 F1 00  Length = 4108212 BitCount = 141 ID = 271360064x
   5.418207 1  13FFE0BBx       Rx   d 0  Length = 2034718 BitCount = 72 ID = 335536315x
   5.422381 1  106B0040x       Rx   d 1 00  Length = 2308263 BitCount = 81 ID = 275447872x
   5.434441 1  10264040x       Rx   d 8 04 06 00 00 00 00 00 29  Length = 4224562 BitCount = 145 ID = 270942272x
   5.444438 1  10210040x       Rx   d 8 00 00 00 00 00 00 00 00  Length = 4288208 BitCount = 147 ID = 270598208x
   5.454402 1  10220040x       Rx   d 8 10 00 00 00 00 06 00 00  Length = 4288208 BitCount = 147 ID = 270663744x
   5.464396 1  1022E040x       Rx   d 8 00 00 00 00 00 00 00 00  Length = 4318208 BitCount = 148 ID = 270721088x
   5.474331 1  10230040x       Rx   d 8 10 00 00 00 10 00 00 00  Length = 4258223 BitCount = 146 ID = 270729280x
   5.494288 1  1022A040x       Rx   d 8 00 B0 00 12 42 00 00 22  Length = 4138223 BitCount = 142 ID = 270704704x
   5.498819 1  1022C040x       Rx   d 6 00 10 00 20 00 00  Length = 3688231 BitCount = 127 ID = 270712896x
   5.504314 1  10240040x       Rx   d 8 83 FE 88 01 01 13 0F FC  Length = 4168223 BitCount = 143 ID = 270794816x
   5.508399 1  102C0040x       Rx   d 5 AE EF 44 59 03  Length = 3298239 BitCount = 114 ID = 271319104x
   5.514041 1  10248040x       Rx   d 7 00 00 6D D4 CC 06 00  Length = 3898212 BitCount = 134 ID = 270827584x
   5.519326 1  102CA040x       Rx   d 8 00 40 0C C5 2B 00 F1 00  Length = 4078227 BitCount = 140 ID = 271360064x
   5.524221 1  102CC040x       Rx   d 8 00 09 CF 6A 00 87 06 AA  Length = 4048212 BitCount = 139 ID = 271368256x
   5.529474 1  106B8040x       Rx   d 8 00 00 00 00 00 00 00 00  Length = 4318208 BitCount = 148 ID = 275480640x
   5.532324 1  10304058x       Rx   d 3 44 59 01  Length = 2724642 BitCount = 95 ID = 271597656x
   5.536644 1  10264040x       Rx   d 8 04 06 00 00 00 00 00 3D  Length = 4194562 BitCount = 144 ID = 270942272x
   5.544536 1  10210040x       Rx   d 8 00 00 00 00 00 00 00 00  Length = 4284562 BitCount = 147 ID = 270598208x
   5.547420 1  10306099x       Rx   d 3 44 59 01  Length = 2758236 BitCount = 96 ID = 271605913x
   5.551623 1  102CE040x       Rx   d 8 90 00 68 7F 00 00 26 AA  Length = 4078227 BitCount = 140 ID = 271376448x
   5.554536 1  10308060x       Rx   d 3 44 59 01  Length = 2788247 BitCount = 97 ID = 271614048x
   5.558620 1  108E0080x       Rx   d 6 0E 01 17 02 07 B7  Length = 3598216 BitCount = 124 ID = 277741696x
   5.563059 1  10220040x       Rx   d 8 10 00 00 00 00 07 00 00  Length = 4314558 BitCount = 148 ID = 270663744x
   5.569394 1  1022E040x       Rx   d 8 20 00 00 00 20 00 00 00  Length = 4288208 BitCount = 147 ID = 270721088x
   5.573773 1  C800040x        Rx   d 6 08 CB 00 00 4D D9  Length = 3594590 BitCount = 124 ID = 209715264x
   5.579388 1  10230040x       Rx   d 8 30 00 00 00 30 00 00 00  Length = 4258208 BitCount = 146 ID = 270729280x
   5.582451 1  106B0040x       Rx   d 1 00  Length = 2308248 BitCount = 81 ID = 275447872x
   5.589501 1  10780040x       Rx   d 8 00 00 01 04 08 00 00 22  Length = 4284562 BitCount = 147 ID = 276299840x
   5.594366 1  10240040x       Rx   d 8 83 FE 88 01 01 13 0F FC  Length = 4168208 BitCount = 143 ID = 270794816x
   5.599079 1  10EC4040x       Rx   d 8 4C 41 5A 41 36 39 53 44  Length = 3958212 BitCount = 136 ID = 283918400x
   5.604032 1  10EC8040x       Rx   d 8 48 42 37 30 31 34 39 36  Length = 3898227 BitCount = 134 ID = 283934784x
   5.614297 1  102CA040x       Rx   d 8 00 40 0C CE 2B 00 F1 00  Length = 4078212 BitCount = 140 ID = 271360064x
   5.623719 1  621             Rx   d 8 00 52 00 00 00 00 00 00  Length = 3598216 BitCount = 124 ID = 1569
   5.634368 1  10264040x       Rx   d 8 04 06 00 00 00 00 00 3D  Length = 4194577 BitCount = 144 ID = 270942272x
   5.639439 1  1043A040x       Rx   d 8 00 00 35 00 00 00 00 00  Length = 4284573 BitCount = 147 ID = 272867392x
   5.644514 1  10210040x       Rx   d 8 00 00 00 00 00 00 00 00  Length = 4288208 BitCount = 147 ID = 270598208x
   5.654476 1  10220040x       Rx   d 8 10 00 00 00 00 07 00 00  Length = 4318208 BitCount = 148 ID = 270663744x
   5.664501 1  1022E040x       Rx   d 8 00 00 00 00 00 00 00 00  Length = 4318208 BitCount = 148 ID = 270721088x
   5.674375 1  10230040x       Rx   d 8 10 00 00 00 10 00 00 00  Length = 4258208 BitCount = 146 ID = 270729280x
   5.694364 1  10240040x       Rx   d 8 83 FF 88 01 01 13 0F FC  Length = 4198223 BitCount = 144 ID = 270794816x
   5.697459 1  106B0040x       Rx   d 1 00  Length = 2308248 BitCount = 81 ID = 275447872x
   5.704512 1  106B8040x       Rx   d 8 00 00 00 00 00 00 00 00  Length = 4318208 BitCount = 148 ID = 275480640x
   5.714329 1  102CA040x       Rx   d 8 00 40 0C D1 2B 00 F1 00  Length = 4108223 BitCount = 141 ID = 271360064x
   5.734378 1  10264040x       Rx   d 8 04 06 00 00 00 00 00 28  Length = 4198208 BitCount = 144 ID = 270942272x
   5.738127 1  10734099x       Rx   d 6 24 42 00 7D 00 00  Length = 3564590 BitCount = 123 ID = 275988633x
   5.744552 1  10210040x       Rx   d 8 00 00 00 00 00 00 00 00  Length = 4288208 BitCount = 147 ID = 270598208x
   5.749355 1  1022A040x       Rx   d 8 00 B0 00 12 42 00 00 22  Length = 4138208 BitCount = 142 ID = 270704704x
   5.751577 1  13FFE058x       Rx   d 0  Length = 2098256 BitCount = 74 ID = 335536216x
   5.756017 1  10220040x       Rx   d 8 10 00 00 00 00 08 00 00  Length = 4314558 BitCount = 148 ID = 270663744x
   5.763943 1  1022C040x       Rx   d 6 00 10 00 20 00 00  Length = 3688216 BitCount = 127 ID = 270712896x
   5.769438 1  1022E040x       Rx   d 8 20 00 00 00 20 00 00 00  Length = 4288208 BitCount = 147 ID = 270721088x
   5.774423 1  10230040x       Rx   d 8 30 00 00 00 30 00 00 00  Length = 4258208 BitCount = 146 ID = 270729280x
   5.779314 1  102CC040x       Rx   d 8 00 09 CF 6A 00 87 06 A9  Length = 4048212 BitCount = 139 ID = 271368256x
   5.784328 1  102CE040x       Rx   d 8 90 00 68 7F 00 00 26 A9  Length = 4078227 BitCount = 140 ID = 271376448x
   5.789279 1  102D0040x       Rx   d 8 01 69 01 ED 7C 8A 00 FF  Length = 4078212 BitCount = 140 ID = 271384640x
   5.794412 1  10240040x       Rx   d 8 83 FE 88 01 01 13 0F FC  Length = 4168208 BitCount = 143 ID = 270794816x
   5.796603 1  13FFE0AFx       Rx   d 0  Length = 2068260 BitCount = 73 ID = 335536303x
   5.803446 1  102C0040x       Rx   d 5 AE EF 44 59 03  Length = 3298224 BitCount = 114 ID = 271319104x
   5.806055 1  10244060x       Rx   d 1 02  Length = 2304686 BitCount = 81 ID = 270811232x
   5.809594 1  10806040x       Rx   d 5 00 00 00 00 19  Length = 3414613 BitCount = 118 ID = 276848704x
   5.811819 1  13FFE060x       Rx   d 0  Length = 2098256 BitCount = 74 ID = 335536224x
