date Tue Sep 20 04:20:03.301 pm 2016
base hex  timestamps absolute
internal events logged
// version 9.0.0
Begin Triggerblock Tue Sep 20 04:20:03.301 pm 2016
   0.000000 Start of measurement
   0.002172 Li SleepModeEvent 0 starting up in wake mode
   0.006147 1  13FFE068x       Rx   d 0  Length = 2068260 BitCount = 73 ID = 335536232x
   0.009655 1  C414040x        Rx   d 4 00 01 7A 00  Length = 3054618 BitCount = 106 ID = 205602880x
   0.015930 1  10210040x       Rx   d 8 00 00 00 00 00 00 00 00  Length = 4288208 BitCount = 147 ID = 270598208x
   0.018630 1  106D0080x       Rx   d 2 00 00  Length = 2574658 BitCount = 90 ID = 275579008x
   0.023046 1  10220040x       Rx   d 8 10 00 00 00 00 05 00 00  Length = 4288208 BitCount = 147 ID = 270663744x
   0.030757 1  1022E040x       Rx   d 8 30 00 00 00 70 01 0C D2  Length = 4164566 BitCount = 143 ID = 270721088x
   0.035892 1  10230040x       Rx   d 8 00 00 00 00 00 00 00 00  Length = 4288208 BitCount = 147 ID = 270729280x
   0.040694 1  1080A040x       Rx   d 7 00 00 00 00 00 00 00  Length = 4018212 BitCount = 138 ID = 276865088x
   0.043907 1  106B0040x       Rx   d 1 00  Length = 2308248 BitCount = 81 ID = 275447872x
   0.046786 CAN 1 Status:chip status error active
   0.046786 CAN 2 Status:chip status error active
   0.046786 CAN 3 Status:chip status error active
   0.049460 1  10758040x       Rx   d 3 02 00 00  Length = 2848232 BitCount = 99 ID = 276136000x
   0.055943 1  10240040x       Rx   d 8 83 FD 88 01 01 06 0F FC  Length = 4228208 BitCount = 145 ID = 270794816x
   0.064920 1  102C0040x       Rx   d 5 AE EF 44 59 03  Length = 3298224 BitCount = 114 ID = 271319104x
   0.075904 1  102CA040x       Rx   d 8 00 40 0C C8 2D 00 D0 00  Length = 4168208 BitCount = 143 ID = 271360064x
   0.085083 1  10308060x       Rx   d 3 44 59 01  Length = 2784653 BitCount = 97 ID = 271614048x
   0.089612 1  10304058x       Rx   d 3 44 59 01  Length = 2724642 BitCount = 95 ID = 271597656x
   0.095887 1  10264040x       Rx   d 8 04 06 00 00 00 00 00 3F  Length = 4258208 BitCount = 146 ID = 270942272x
   0.106002 1  10210040x       Rx   d 8 00 00 00 00 00 00 00 00  Length = 4288208 BitCount = 147 ID = 270598208x
   0.110805 1  1022A040x       Rx   d 8 00 B0 00 12 42 00 00 22  Length = 4138208 BitCount = 142 ID = 270704704x
   0.115968 1  10220040x       Rx   d 8 10 00 00 00 00 06 00 00  Length = 4288208 BitCount = 147 ID = 270663744x
   0.120315 1  1022C040x       Rx   d 6 00 10 00 20 00 00  Length = 3684586 BitCount = 127 ID = 270712896x
   0.125750 1  1022E040x       Rx   d 8 10 00 00 00 50 01 0C D2  Length = 4138223 BitCount = 142 ID = 270721088x
   0.128631 1  10306099x       Rx   d 3 44 59 01  Length = 2754642 BitCount = 96 ID = 271605913x
   0.131300 1  10250040x       Rx   d 2 06 4B  Length = 2544658 BitCount = 89 ID = 270860352x
   0.135865 1  10230040x       Rx   d 8 20 00 00 00 20 00 00 00  Length = 4258208 BitCount = 146 ID = 270729280x
   0.140760 1  102CC040x       Rx   d 8 00 09 CF 67 00 87 06 AC  Length = 4078212 BitCount = 140 ID = 271368256x
   0.145799 1  102CE040x       Rx   d 8 92 00 66 7F 00 00 26 AC  Length = 4104566 BitCount = 141 ID = 271376448x
   0.150754 1  102D0040x       Rx   d 8 01 6A 01 ED 7C 93 00 FF  Length = 4078212 BitCount = 140 ID = 271384640x
   0.155884 1  10240040x       Rx   d 8 83 FE 88 01 01 06 0F FC  Length = 4224562 BitCount = 145 ID = 270794816x
   0.160869 1  102E0040x       Rx   d 8 00 33 CA 72 8A 00 63 81  Length = 4138223 BitCount = 142 ID = 271450176x
   0.165130 1  10466040x       Rx   d 5 00 00 00 00 00  Length = 3448235 BitCount = 119 ID = 273047616x
   0.168788 1  10734099x       Rx   d 6 24 43 00 7D 00 00  Length = 3534605 BitCount = 122 ID = 275988633x
   0.171218 1  106B0040x       Rx   d 1 00  Length = 2304697 BitCount = 81 ID = 275447872x
   0.175842 1  102CA040x       Rx   d 8 00 40 0C A1 2D 00 E2 00  Length = 4108223 BitCount = 141 ID = 271360064x
   0.180977 1  106B8040x       Rx   d 8 00 00 00 00 00 00 00 00  Length = 4318208 BitCount = 148 ID = 275480640x
   0.185475 1  C800040x        Rx   d 6 08 CB 00 00 9D 62  Length = 3624601 BitCount = 125 ID = 209715264x
   0.190070 1  106C0040x       Rx   d 5 00 06 0F 07 00  Length = 3448220 BitCount = 119 ID = 275513408x
   0.195923 1  10264040x       Rx   d 8 04 06 00 00 00 00 00 3E  Length = 4228208 BitCount = 145 ID = 270942272x
   0.199466 1  10754040x       Rx   d 3 04 03 00  Length = 2818247 BitCount = 98 ID = 276119616x
   0.205982 1  10210040x       Rx   d 8 00 00 00 00 00 00 00 00  Length = 4288208 BitCount = 147 ID = 270598208x
   0.209795 1  1077C040x       Rx   d 4 30 30 01 F4  Length = 3148224 BitCount = 109 ID = 276283456x
   0.216070 1  10220040x       Rx   d 8 10 00 00 00 00 07 00 00  Length = 4318208 BitCount = 148 ID = 270663744x
   0.221023 1  10780040x       Rx   d 8 00 00 01 04 08 00 00 22  Length = 4288223 BitCount = 147 ID = 276299840x
   0.225826 1  1022E040x       Rx   d 8 30 00 00 00 70 01 0C D2  Length = 4168223 BitCount = 143 ID = 270721088x
   0.230450 1  10788040x       Rx   d 6 08 00 00 00 00 00  Length = 3778216 BitCount = 130 ID = 276332608x
   0.235975 1  10230040x       Rx   d 8 00 00 00 00 00 00 00 00  Length = 4288208 BitCount = 147 ID = 270729280x
   0.240148 1  10806040x       Rx   d 5 00 00 00 00 19  Length = 3418235 BitCount = 118 ID = 276848704x
   0.245971 1  1043A040x       Rx   d 8 00 00 39 00 00 00 00 00  Length = 4288208 BitCount = 147 ID = 272867392x
   0.248699 1  13FFE040x       Rx   d 0  Length = 2064729 BitCount = 73 ID = 335536192x
   0.255934 1  10240040x       Rx   d 8 83 FE 88 01 01 06 0F FC  Length = 4228208 BitCount = 145 ID = 270794816x
   0.275862 1  102CA040x       Rx   d 8 00 40 0C 99 31 00 E2 00  Length = 4138223 BitCount = 142 ID = 271360064x
   0.279552 1  10734099x       Rx   d 6 24 42 00 7D 00 00  Length = 3564590 BitCount = 123 ID = 275988633x
   0.285017 1  1020C040x       Rx   d 5 00 C4 06 C4 01  Length = 3298224 BitCount = 114 ID = 270581824x
   0.288952 1  106B0040x       Rx   d 1 00  Length = 2308248 BitCount = 81 ID = 275447872x
   0.295911 1  10264040x       Rx   d 8 04 06 00 00 00 00 00 3C  Length = 4194577 BitCount = 144 ID = 270942272x
   0.305968 1  10210040x       Rx   d 8 00 00 00 00 00 00 00 00  Length = 4288223 BitCount = 147 ID = 270598208x
   0.316052 1  10220040x       Rx   d 8 10 00 00 00 00 08 00 00  Length = 4318208 BitCount = 148 ID = 270663744x
   0.325836 1  1022E040x       Rx   d 8 10 00 00 00 50 01 0C D2  Length = 4138223 BitCount = 142 ID = 270721088x
   0.335981 1  10230040x       Rx   d 8 20 00 00 00 20 00 00 00  Length = 4258208 BitCount = 146 ID = 270729280x
   0.350377 1  10324058x       Rx   d 6 00 00 03 FF 00 00  Length = 3684597 BitCount = 127 ID = 271728728x
   0.352778 1  13FFE058x       Rx   d 0  Length = 2098256 BitCount = 74 ID = 335536216x
   0.357040 1  1022A040x       Rx   d 8 00 B0 00 12 42 00 00 22  Length = 4138208 BitCount = 142 ID = 270704704x
   0.365532 1  1022C040x       Rx   d 6 00 10 00 20 00 00  Length = 3688216 BitCount = 127 ID = 270712896x
   0.370965 1  10240040x       Rx   d 8 80 01 88 01 01 06 0F FC  Length = 4258208 BitCount = 146 ID = 270794816x
   0.375530 1  10248040x       Rx   d 7 00 00 6D D6 CC 0D 00  Length = 3838212 BitCount = 132 ID = 270827584x
   0.379970 1  102C0040x       Rx   d 5 AE EF 44 59 03  Length = 3294606 BitCount = 114 ID = 271319104x
   0.385945 1  102CA040x       Rx   d 8 00 40 0C 6D 38 00 E2 00  Length = 4138208 BitCount = 142 ID = 271360064x
   0.390836 1  102CC040x       Rx   d 8 00 09 CE 67 00 87 06 BB  Length = 4078212 BitCount = 140 ID = 271368256x
   0.395909 1  10264040x       Rx   d 8 04 06 00 00 00 00 00 28  Length = 4198223 BitCount = 144 ID = 270942272x
   0.400860 1  102CE040x       Rx   d 8 92 00 66 7F 00 00 26 AE  Length = 4108212 BitCount = 141 ID = 271376448x
   0.406080 1  10210040x       Rx   d 8 00 00 00 00 00 00 00 00  Length = 4284562 BitCount = 147 ID = 270598208x
   0.408990 1  10308060x       Rx   d 3 44 59 01  Length = 2784653 BitCount = 97 ID = 271614048x
   0.411840 1  10304058x       Rx   d 3 44 59 01  Length = 2724642 BitCount = 95 ID = 271597656x
   0.415022 1  10448060x       Rx   d 4 00 00 45 00  Length = 3058228 BitCount = 106 ID = 272924768x
   0.417455 1  106B0040x       Rx   d 1 00  Length = 2308248 BitCount = 81 ID = 275447872x
   0.426097 1  10220040x       Rx   d 8 10 00 00 00 00 04 00 00  Length = 4318208 BitCount = 148 ID = 270663744x
   0.428979 1  10306099x       Rx   d 3 44 59 01  Length = 2758236 BitCount = 96 ID = 271605913x
   0.433272 1  1022E040x       Rx   d 8 30 00 00 00 70 01 0C D2  Length = 4168208 BitCount = 143 ID = 270721088x
   0.440351 1  C800040x        Rx   d 6 08 CB 00 00 9D 66  Length = 3594590 BitCount = 124 ID = 209715264x
   0.445995 1  10230040x       Rx   d 8 10 00 00 00 10 00 00 00  Length = 4258208 BitCount = 146 ID = 270729280x
   0.451038 1  106B8040x       Rx   d 8 00 00 00 00 00 00 00 00  Length = 4318223 BitCount = 148 ID = 275480640x
   0.455990 1  10240040x       Rx   d 8 80 00 88 01 01 06 0F FC  Length = 4258208 BitCount = 146 ID = 270794816x
   0.461063 1  10780040x       Rx   d 8 00 00 01 04 08 00 00 22  Length = 4288208 BitCount = 147 ID = 276299840x
   0.475913 1  102CA040x       Rx   d 8 00 40 0C 79 39 00 E2 00  Length = 4104566 BitCount = 141 ID = 271360064x
   0.485658 1  103A80BBx       Rx   d 4 1F FF 00 00  Length = 3084618 BitCount = 107 ID = 272269499x
   0.488269 1  103A00BBx       Rx   d 1 40  Length = 2244690 BitCount = 79 ID = 272236731x
   0.495983 1  10264040x       Rx   d 8 04 06 00 00 00 00 00 3E  Length = 4228208 BitCount = 145 ID = 270942272x
   0.501053 1  1043A040x       Rx   d 8 00 00 3F 00 00 00 00 00  Length = 4314573 BitCount = 148 ID = 272867392x
   0.503247 1  13FFE0AFx       Rx   d 0  Length = 2068260 BitCount = 73 ID = 335536303x
   0.507657 1  10210040x       Rx   d 8 00 00 00 00 00 00 00 00  Length = 4284562 BitCount = 147 ID = 270598208x
   0.516032 1  10220040x       Rx   d 8 10 00 00 00 00 05 00 00  Length = 4288208 BitCount = 147 ID = 270663744x
   0.525847 1  1022E040x       Rx   d 8 10 00 00 00 50 01 0C D2  Length = 4138223 BitCount = 142 ID = 270721088x
   0.535961 1  10230040x       Rx   d 8 20 00 00 00 20 00 00 00  Length = 4258208 BitCount = 146 ID = 270729280x
   0.539024 1  106B0040x       Rx   d 1 00  Length = 2308248 BitCount = 81 ID = 275447872x
   0.556010 1  10240040x       Rx   d 8 80 00 88 01 01 06 0F FC  Length = 4258223 BitCount = 146 ID = 270794816x
   0.561083 1  106B8040x       Rx   d 8 00 00 00 00 00 00 00 00  Length = 4318208 BitCount = 148 ID = 275480640x
   0.565044 1  10708040x       Rx   d 5 02 24 02 24 3F  Length = 3328224 BitCount = 115 ID = 275808320x
   0.575939 1  102CA040x       Rx   d 8 00 40 0C 7A 3A 00 E2 00  Length = 4138208 BitCount = 142 ID = 271360064x
   0.585303 1  621             Rx   d 8 00 52 00 00 00 00 00 00  Length = 3598216 BitCount = 124 ID = 1569
   0.588962 1  10734099x       Rx   d 6 24 43 00 7D 00 00  Length = 3534605 BitCount = 122 ID = 275988633x
   0.595952 1  10264040x       Rx   d 8 04 06 00 00 00 00 00 46  Length = 4194562 BitCount = 144 ID = 270942272x
   0.606068 1  10210040x       Rx   d 8 00 00 00 00 00 00 00 00  Length = 4288208 BitCount = 147 ID = 270598208x
   0.610929 1  1022A040x       Rx   d 8 00 B0 00 12 42 00 00 22  Length = 4138208 BitCount = 142 ID = 270704704x
   0.616062 1  10220040x       Rx   d 8 10 00 00 00 00 06 00 00  Length = 4288208 BitCount = 147 ID = 270663744x
   0.620446 1  1022C040x       Rx   d 6 00 10 00 20 00 00  Length = 3688231 BitCount = 127 ID = 270712896x
   0.625941 1  1022E040x       Rx   d 8 30 00 00 00 70 01 0C D2  Length = 4168208 BitCount = 143 ID = 270721088x
   0.636025 1  10230040x       Rx   d 8 00 00 00 00 00 00 00 00  Length = 4288208 BitCount = 147 ID = 270729280x
   0.640888 1  102CC040x       Rx   d 8 00 09 CE 67 00 87 06 BB  Length = 4078212 BitCount = 140 ID = 271368256x
   0.645931 1  102CE040x       Rx   d 8 92 00 66 7F 00 00 26 B3  Length = 4108223 BitCount = 141 ID = 271376448x
   0.650855 1  102D0040x       Rx   d 8 01 6A 01 ED 7C 96 00 FF  Length = 4078212 BitCount = 140 ID = 271384640x
   0.656046 1  10240040x       Rx   d 8 83 FF 88 01 01 06 0F FC  Length = 4228208 BitCount = 145 ID = 270794816x
   0.659167 1  106B0040x       Rx   d 1 00  Length = 2308263 BitCount = 81 ID = 275447872x
   0.665050 1  102C0040x       Rx   d 5 AE EF 44 59 03  Length = 3298224 BitCount = 114 ID = 271319104x
   0.670210 1  10806040x       Rx   d 5 00 00 00 00 19  Length = 3414598 BitCount = 118 ID = 276848704x
   0.675975 1  102CA040x       Rx   d 8 00 40 0C 80 3B 00 E2 00  Length = 4138208 BitCount = 142 ID = 271360064x
   0.681164 1  10780040x       Rx   d 8 00 00 01 04 08 00 00 22  Length = 4284562 BitCount = 147 ID = 276299840x
   0.685425 1  C800040x        Rx   d 6 08 CB 00 00 9D 68  Length = 3624586 BitCount = 125 ID = 209715264x
   0.688335 1  10308060x       Rx   d 3 44 59 01  Length = 2784653 BitCount = 97 ID = 271614048x
   0.691185 1  10304058x       Rx   d 3 44 59 01  Length = 2724642 BitCount = 95 ID = 271597656x
   0.695087 1  10788040x       Rx   d 6 08 00 00 00 00 00  Length = 3778216 BitCount = 130 ID = 276332608x
   0.698746 1  10734099x       Rx   d 6 24 43 00 7D 00 00  Length = 3534590 BitCount = 122 ID = 275988633x
   0.703068 1  10264040x       Rx   d 8 04 06 00 00 00 00 00 31  Length = 4194562 BitCount = 144 ID = 270942272x
   0.707061 1  624             Rx   d 8 00 20 00 00 00 00 00 00  Length = 3628216 BitCount = 125 ID = 1572
   0.711475 1  10210040x       Rx   d 8 00 00 00 00 00 00 00 00  Length = 4288208 BitCount = 147 ID = 270598208x
   0.716130 1  10220040x       Rx   d 8 10 00 00 00 00 04 00 00  Length = 4318208 BitCount = 148 ID = 270663744x
   0.719284 1  10250040x       Rx   d 2 06 49  Length = 2518240 BitCount = 88 ID = 270860352x
   0.725917 1  1022E040x       Rx   d 8 10 00 00 00 50 01 0C D2  Length = 4138208 BitCount = 142 ID = 270721088x
   0.728796 1  10306099x       Rx   d 3 44 59 01  Length = 2754642 BitCount = 96 ID = 271605913x
   0.736029 1  10230040x       Rx   d 8 20 00 00 00 20 00 00 00  Length = 4258208 BitCount = 146 ID = 270729280x
   0.746116 1  1043A040x       Rx   d 8 00 00 43 00 00 00 00 00  Length = 4318208 BitCount = 148 ID = 272867392x
   0.756050 1  10240040x       Rx   d 8 83 FE 88 01 01 06 0F FC  Length = 4228208 BitCount = 145 ID = 270794816x
   0.761150 1  106B8040x       Rx   d 8 00 00 00 00 00 00 00 00  Length = 4314573 BitCount = 148 ID = 275480640x
   0.775943 1  102CA040x       Rx   d 8 00 40 0C 6F 3B 00 E2 00  Length = 4104566 BitCount = 141 ID = 271360064x
   0.779098 1  106B0040x       Rx   d 1 00  Length = 2308248 BitCount = 81 ID = 275447872x
   0.796024 1  10264040x       Rx   d 8 04 06 00 00 00 00 00 51  Length = 4198223 BitCount = 144 ID = 270942272x
   0.806138 1  10210040x       Rx   d 8 00 00 00 00 00 00 00 00  Length = 4288208 BitCount = 147 ID = 270598208x
   0.816100 1  10220040x       Rx   d 8 10 00 00 00 00 06 00 00  Length = 4288208 BitCount = 147 ID = 270663744x
   0.825945 1  1022E040x       Rx   d 8 30 00 00 00 70 01 0C D2  Length = 4168208 BitCount = 143 ID = 270721088x
   0.828170 1  13FFE060x       Rx   d 0  Length = 2098271 BitCount = 74 ID = 335536224x
   0.836063 1  10230040x       Rx   d 8 00 00 00 00 00 00 00 00  Length = 4288208 BitCount = 147 ID = 270729280x
   0.838066 CAN 1 Status:chip status error active  - TxErr: 0 RxErr: 1
   0.838074 1  ErrorFrame	Flags = 0xfffe	CodeExt = 0x2072	Code = 0x81	ID = 0x93ffe080	DLC = 0	Position = 56	Length = 1884390
   0.840919 CAN 1 Status:chip status error active
   0.841137 1  10250040x       Rx   d 2 06 3F  Length = 2548240 BitCount = 89 ID = 270860352x
   0.843331 1  13FFE080x       Rx   d 0  Length = 2068260 BitCount = 73 ID = 335536256x
   0.855966 1  1022A040x       Rx   d 8 00 B0 00 12 42 00 00 22  Length = 4138208 BitCount = 142 ID = 270704704x
   0.858158 1  13FFE099x       Rx   d 0  Length = 2068260 BitCount = 73 ID = 335536281x
   0.861972 1  1022C040x       Rx   d 6 00 10 00 20 00 00  Length = 3688216 BitCount = 127 ID = 270712896x
   0.871066 1  10240040x       Rx   d 8 83 FD 88 01 01 06 0F FC  Length = 4228223 BitCount = 145 ID = 270794816x
   0.875659 1  10248040x       Rx   d 7 00 00 6C D6 CC FF 00  Length = 3838212 BitCount = 132 ID = 270827584x
   0.880843 CAN 1 Status:chip status error active  - TxErr: 0 RxErr: 1
   0.880850 1  ErrorFrame	Flags = 0xfffe	CodeExt = 0x2072	Code = 0x81	ID = 0x902ca040	DLC = 8	Position = 120	Length = 3924375	Data = 0  0x40  0xc  0x6b  0x3c  0  0xe2  0
   0.885252 CAN 1 Status:chip status error active
   0.885470 1  102CA040x       Rx   d 8 00 40 0C 6B 3C 00 E2 00  Length = 4104581 BitCount = 141 ID = 271360064x
   0.891025 1  102CC040x       Rx   d 8 00 09 CE 67 00 87 06 CD  Length = 4078212 BitCount = 140 ID = 271368256x
   0.896068 1  10264040x       Rx   d 8 04 06 00 00 00 00 00 53  Length = 4228208 BitCount = 145 ID = 270942272x
   0.901051 1  102CE040x       Rx   d 8 92 00 66 7F 00 00 26 C7  Length = 4108212 BitCount = 141 ID = 271376448x
   0.906152 1  10210040x       Rx   d 8 00 00 00 00 00 00 00 00  Length = 4288208 BitCount = 147 ID = 270598208x
   0.909095 1  106B0040x       Rx   d 1 00  Length = 2308248 BitCount = 81 ID = 275447872x
   0.916175 1  10220040x       Rx   d 8 10 00 00 00 00 07 00 00  Length = 4314558 BitCount = 148 ID = 270663744x
   0.925931 1  1022E040x       Rx   d 8 10 00 00 00 50 01 0C D2  Length = 4138208 BitCount = 142 ID = 270721088x
   0.931241 1  10780040x       Rx   d 8 00 00 01 04 08 00 00 22  Length = 4284562 BitCount = 147 ID = 276299840x
   0.935445 1  C800040x        Rx   d 6 08 CB 00 00 9D 6D  Length = 3598231 BitCount = 124 ID = 209715264x
   0.941177 1  10230040x       Rx   d 8 20 00 00 00 20 00 00 00  Length = 4258223 BitCount = 146 ID = 270729280x
   0.956088 1  10240040x       Rx   d 8 83 FE 88 01 01 06 0F FC  Length = 4224562 BitCount = 145 ID = 270794816x
   0.959420 1  10250040x       Rx   d 2 02 2F  Length = 2574658 BitCount = 90 ID = 270860352x
   0.965125 1  102C0040x       Rx   d 5 AE EF 44 59 03  Length = 3298224 BitCount = 114 ID = 271319104x
   0.971184 1  106B8040x       Rx   d 8 00 00 00 00 00 00 00 00  Length = 4314558 BitCount = 148 ID = 275480640x
   0.976019 1  102CA040x       Rx   d 8 00 40 0C 82 3D 00 E2 00  Length = 4108212 BitCount = 141 ID = 271360064x
   0.989245 1  10304058x       Rx   d 3 44 59 01  Length = 2724642 BitCount = 95 ID = 271597656x
   0.996116 1  10264040x       Rx   d 8 04 06 00 00 00 00 00 38  Length = 4254562 BitCount = 146 ID = 270942272x
   0.999842 1  108E0080x       Rx   d 6 0E 01 17 02 0E E4  Length = 3598216 BitCount = 124 ID = 277741696x
   1.004280 1  1043A040x       Rx   d 8 00 00 4A 00 00 00 00 00  Length = 4314558 BitCount = 148 ID = 272867392x
   1.007191 1  10308060x       Rx   d 3 44 59 01  Length = 2784638 BitCount = 97 ID = 271614048x
   1.011600 1  10210040x       Rx   d 8 00 00 00 00 00 00 00 00  Length = 4284562 BitCount = 147 ID = 270598208x
   1.016165 1  10220040x       Rx   d 8 10 00 00 00 00 05 00 00  Length = 4288208 BitCount = 147 ID = 270663744x
   1.020880 1  1080A040x       Rx   d 7 00 00 00 00 00 00 00  Length = 4018212 BitCount = 138 ID = 276865088x
   1.026013 1  1022E040x       Rx   d 8 30 00 00 00 70 01 0C D2  Length = 4168208 BitCount = 143 ID = 270721088x
   1.028890 1  10306099x       Rx   d 3 44 59 01  Length = 2754642 BitCount = 96 ID = 271605913x
   1.031323 1  106B0040x       Rx   d 1 00  Length = 2308248 BitCount = 81 ID = 275447872x
   1.035071 1  62C             Rx   d 8 00 40 00 00 00 00 00 00  Length = 3624586 BitCount = 125 ID = 1580
   1.039483 1  10230040x       Rx   d 8 00 00 00 00 00 00 00 00  Length = 4288208 BitCount = 147 ID = 270729280x
   1.043171 1  631             Rx   d 8 00 40 00 00 00 00 00 00  Length = 3564605 BitCount = 123 ID = 1585
   1.046787 1  Statistic: D 4 R 0 XD 172 XR 0 E 2 O 0 B 65.48%
   1.046787 2  Statistic: D 0 R 0 XD 0 XR 0 E 0 O 0 B 0.00%
   1.046787 3  Statistic: D 0 R 0 XD 0 XR 0 E 0 O 0 B 0.00%
   1.056103 1  10240040x       Rx   d 8 83 FE 88 01 01 06 0F FC  Length = 4224562 BitCount = 145 ID = 270794816x
   1.074347 1  10250040x       Rx   d 2 02 23  Length = 2514662 BitCount = 88 ID = 270860352x
   1.081189 1  102CA040x       Rx   d 8 00 40 0C 5C 3D 00 E2 00  Length = 4134581 BitCount = 142 ID = 271360064x
   1.093632 1  13FFE0BBx       Rx   d 0  Length = 2034718 BitCount = 72 ID = 335536315x
   1.097951 1  10264040x       Rx   d 8 04 06 00 00 00 00 00 57  Length = 4194562 BitCount = 144 ID = 270942272x
   1.106176 1  10210040x       Rx   d 8 00 00 00 00 00 00 00 00  Length = 4288223 BitCount = 147 ID = 270598208x
   1.111070 1  1022A040x       Rx   d 8 00 B0 00 12 42 00 00 22  Length = 4138208 BitCount = 142 ID = 270704704x
   1.116199 1  10220040x       Rx   d 8 10 00 00 00 00 03 00 00  Length = 4314558 BitCount = 148 ID = 270663744x
   1.120550 1  1022C040x       Rx   d 6 00 10 00 20 00 00  Length = 3684597 BitCount = 127 ID = 270712896x
   1.125985 1  1022E040x       Rx   d 8 10 00 00 00 50 01 0C D2  Length = 4138208 BitCount = 142 ID = 270721088x
   1.130187 1  10708040x       Rx   d 5 02 24 02 24 41  Length = 3324602 BitCount = 115 ID = 275808320x
   1.136102 1  10230040x       Rx   d 8 20 00 00 00 20 00 00 00  Length = 4258208 BitCount = 146 ID = 270729280x
   1.141053 1  102CC040x       Rx   d 8 00 09 CE 67 00 87 06 D0  Length = 4138208 BitCount = 142 ID = 271368256x
   1.146006 1  102CE040x       Rx   d 8 92 00 66 7F 00 00 26 C8  Length = 4078227 BitCount = 140 ID = 271376448x
   1.151076 1  102D0040x       Rx   d 8 01 6A 01 ED 7C 98 00 FF  Length = 4104566 BitCount = 141 ID = 271384640x
   1.156150 1  10240040x       Rx   d 8 83 FD 88 01 01 06 0F FC  Length = 4228223 BitCount = 145 ID = 270794816x
   1.161132 1  102E0040x       Rx   d 8 00 33 CA 72 8A 00 62 81  Length = 4138208 BitCount = 142 ID = 271450176x
   1.164165 1  106B0040x       Rx   d 1 00  Length = 2308248 BitCount = 81 ID = 275447872x
   1.167824 1  10734099x       Rx   d 6 24 43 00 7D 00 00  Length = 3534590 BitCount = 122 ID = 275988633x
   1.172268 1  106B8040x       Rx   d 8 00 00 00 00 00 00 00 00  Length = 4318208 BitCount = 148 ID = 275480640x
   1.181184 1  102CA040x       Rx   d 8 00 40 0C 84 3E 00 E2 00  Length = 4168223 BitCount = 143 ID = 271360064x
   1.185538 1  C800040x        Rx   d 6 08 CB 00 00 9D 70  Length = 3628216 BitCount = 125 ID = 209715264x
   1.189649 1  10250040x       Rx   d 2 02 0F  Length = 2578240 BitCount = 90 ID = 270860352x
   1.196132 1  10264040x       Rx   d 8 04 06 00 00 00 00 00 58  Length = 4228208 BitCount = 145 ID = 270942272x
   1.200365 1  106C0040x       Rx   d 5 00 06 0F 07 00  Length = 3448220 BitCount = 119 ID = 275513408x
   1.202558 1  13FFE068x       Rx   d 0  Length = 2068275 BitCount = 73 ID = 335536232x
   1.206971 1  10210040x       Rx   d 8 00 00 00 00 00 00 00 00  Length = 4288208 BitCount = 147 ID = 270598208x
   1.216247 1  10220040x       Rx   d 8 10 00 00 00 00 04 00 00  Length = 4318208 BitCount = 148 ID = 270663744x
   1.218945 1  106D0080x       Rx   d 2 00 00  Length = 2574658 BitCount = 90 ID = 275579008x
   1.222219 1  1077C040x       Rx   d 4 30 30 01 F4  Length = 3148224 BitCount = 109 ID = 276283456x
   1.224647 1  10244060x       Rx   d 1 02  Length = 2304686 BitCount = 81 ID = 270811232x
   1.230263 1  1020C040x       Rx   d 5 00 44 06 C4 01  Length = 3298224 BitCount = 114 ID = 270581824x
   1.236056 1  1022E040x       Rx   d 8 00 00 00 00 40 01 0C D2  Length = 4168208 BitCount = 143 ID = 270721088x
   1.241335 1  10230040x       Rx   d 8 00 00 00 00 00 00 00 00  Length = 4284562 BitCount = 147 ID = 270729280x
   1.246200 1  1043A040x       Rx   d 8 00 00 4C 00 00 00 00 00  Length = 4288208 BitCount = 147 ID = 272867392x
   1.251270 1  10780040x       Rx   d 8 00 00 01 04 08 00 00 22  Length = 4284562 BitCount = 147 ID = 276299840x
   1.256164 1  10240040x       Rx   d 8 83 FD 88 01 01 06 0F FC  Length = 4228208 BitCount = 145 ID = 270794816x
   1.259347 1  10814099x       Rx   d 4 20 44 2E 00  Length = 3058228 BitCount = 106 ID = 276906137x
   1.263250 1  10788040x       Rx   d 6 08 00 00 00 00 00  Length = 3778216 BitCount = 130 ID = 276332608x
   1.270180 1  102C0040x       Rx   d 5 AE EF 44 59 03  Length = 3294606 BitCount = 114 ID = 271319104x
   1.276152 1  102CA040x       Rx   d 8 00 40 0C 9A 3E 00 E2 00  Length = 4164566 BitCount = 143 ID = 271360064x
   1.279217 1  106B0040x       Rx   d 1 00  Length = 2308248 BitCount = 81 ID = 275447872x
   1.285366 1  10806040x       Rx   d 5 00 00 00 00 19  Length = 3414598 BitCount = 118 ID = 276848704x
   1.288276 1  10308060x       Rx   d 3 44 59 01  Length = 2784638 BitCount = 97 ID = 271614048x
   1.296136 1  10264040x       Rx   d 8 04 06 00 00 00 00 00 3B  Length = 4224562 BitCount = 145 ID = 270942272x
   1.299290 1  10304058x       Rx   d 3 44 59 01  Length = 2728236 BitCount = 95 ID = 271597656x
   1.306223 1  10210040x       Rx   d 8 00 00 00 00 00 00 00 00  Length = 4288223 BitCount = 147 ID = 270598208x
   1.309524 1  10250040x       Rx   d 2 00 03  Length = 2608240 BitCount = 91 ID = 270860352x
   1.316217 1  10220040x       Rx   d 8 10 00 00 00 00 05 00 00  Length = 4288208 BitCount = 147 ID = 270663744x
   1.326031 1  1022E040x       Rx   d 8 10 00 00 00 50 01 0C D2  Length = 4138208 BitCount = 142 ID = 270721088x
   1.328915 1  10306099x       Rx   d 3 44 59 01  Length = 2758251 BitCount = 96 ID = 271605913x
   1.336174 1  10230040x       Rx   d 8 20 00 00 00 20 00 00 00  Length = 4254562 BitCount = 146 ID = 270729280x
   1.356103 1  1022A040x       Rx   d 8 00 B0 00 12 42 00 00 22  Length = 4138208 BitCount = 142 ID = 270704704x
   1.360608 1  1022C040x       Rx   d 6 00 10 00 20 00 00  Length = 3688216 BitCount = 127 ID = 270712896x
   1.366193 1  10240040x       Rx   d 8 83 FD 88 01 01 06 0F FC  Length = 4228208 BitCount = 145 ID = 270794816x
   1.371266 1  106B8040x       Rx   d 8 00 00 00 00 00 00 00 00  Length = 4318208 BitCount = 148 ID = 275480640x
   1.375829 1  10248040x       Rx   d 7 00 00 6C D6 CC 10 00  Length = 3898212 BitCount = 134 ID = 270827584x
   1.381199 1  102CA040x       Rx   d 8 00 40 0C A1 3E 00 E2 00  Length = 4164566 BitCount = 143 ID = 271360064x
   1.386034 1  102CC040x       Rx   d 8 00 09 CE 67 00 87 06 CA  Length = 4048227 BitCount = 139 ID = 271368256x
   1.388977 1  13FFE040x       Rx   d 0  Length = 2068275 BitCount = 73 ID = 335536192x
   1.396146 1  10264040x       Rx   d 8 04 06 00 00 00 00 00 59  Length = 4194562 BitCount = 144 ID = 270942272x
   1.401071 1  102CE040x       Rx   d 8 92 00 66 7F 00 00 26 C8  Length = 4078212 BitCount = 140 ID = 271376448x
   1.406293 1  10210040x       Rx   d 8 00 00 00 00 00 00 00 00  Length = 4288208 BitCount = 147 ID = 270598208x
   1.409475 1  10448060x       Rx   d 4 00 00 45 00  Length = 3058228 BitCount = 106 ID = 272924768x
   1.411906 1  106B0040x       Rx   d 1 00  Length = 2308248 BitCount = 81 ID = 275447872x
   1.421237 1  10220040x       Rx   d 8 10 00 00 00 00 06 00 00  Length = 4284562 BitCount = 147 ID = 270663744x
   1.426192 1  1022E040x       Rx   d 8 30 00 00 00 70 01 0C D2  Length = 4168208 BitCount = 143 ID = 270721088x
   1.431321 1  10780040x       Rx   d 8 00 00 01 04 08 00 00 22  Length = 4284562 BitCount = 147 ID = 276299840x
   1.435582 1  C800040x        Rx   d 6 08 CB 00 00 9D 75  Length = 3594590 BitCount = 124 ID = 209715264x
   1.441227 1  10230040x       Rx   d 8 00 00 00 00 00 00 00 00  Length = 4288223 BitCount = 147 ID = 270729280x
   1.456323 1  10240040x       Rx   d 8 83 FE 88 01 01 06 0F FC  Length = 4228208 BitCount = 145 ID = 270794816x
   1.460882 1  10EC4040x       Rx   d 8 4C 41 5A 41 36 39 53 44  Length = 3954574 BitCount = 136 ID = 283918400x
   1.465867 1  10EC8040x       Rx   d 8 48 42 37 30 31 34 39 36  Length = 3898212 BitCount = 134 ID = 283934784x
   1.476219 1  102CA040x       Rx   d 8 00 40 0C 98 3E 00 E2 00  Length = 4198208 BitCount = 144 ID = 271360064x
   1.496231 1  10264040x       Rx   d 8 04 06 00 00 00 00 00 5A  Length = 4194562 BitCount = 144 ID = 270942272x
   1.501305 1  1043A040x       Rx   d 8 00 00 4A 00 00 00 00 00  Length = 4318208 BitCount = 148 ID = 272867392x
   1.506287 1  10210040x       Rx   d 8 00 00 00 00 00 00 00 00  Length = 4288208 BitCount = 147 ID = 270598208x
   1.516341 1  10220040x       Rx   d 8 10 00 00 00 00 08 00 00  Length = 4318208 BitCount = 148 ID = 270663744x
   1.526096 1  1022E040x       Rx   d 8 10 00 00 00 50 01 0C D2  Length = 4138208 BitCount = 142 ID = 270721088x
   1.529249 1  106B0040x       Rx   d 1 00  Length = 2308248 BitCount = 81 ID = 275447872x
   1.536238 1  10230040x       Rx   d 8 20 00 00 00 20 00 00 00  Length = 4254562 BitCount = 146 ID = 270729280x
   1.548477 1  13FFE058x       Rx   d 0  Length = 2094710 BitCount = 74 ID = 335536216x
   1.556221 1  10240040x       Rx   d 8 83 FE 88 01 01 06 0F FC  Length = 4228208 BitCount = 145 ID = 270794816x
   1.561322 1  106B8040x       Rx   d 8 00 00 00 00 00 00 00 00  Length = 4318208 BitCount = 148 ID = 275480640x
   1.565313 1  102C0040x       Rx   d 5 AE EF 44 59 03  Length = 3298224 BitCount = 114 ID = 271319104x
   1.576207 1  102CA040x       Rx   d 8 00 40 0C A1 3E 00 E2 00  Length = 4168208 BitCount = 143 ID = 271360064x
   1.585572 1  621             Rx   d 8 00 52 00 00 00 00 00 00  Length = 3598216 BitCount = 124 ID = 1569
   1.589111 1  10304058x       Rx   d 3 44 59 01  Length = 2724642 BitCount = 95 ID = 271597656x
   1.596226 1  10264040x       Rx   d 8 04 06 00 00 00 00 00 3C  Length = 4198208 BitCount = 144 ID = 270942272x
   1.606281 1  10210040x       Rx   d 8 00 00 00 00 00 00 00 00  Length = 4288208 BitCount = 147 ID = 270598208x
   1.609195 1  10308060x       Rx   d 3 44 59 01  Length = 2788247 BitCount = 97 ID = 271614048x
   1.613455 1  1022A040x       Rx   d 8 00 B0 00 12 42 00 00 22  Length = 4134566 BitCount = 142 ID = 270704704x
   1.621287 1  10220040x       Rx   d 8 10 00 00 00 00 06 00 00  Length = 4284562 BitCount = 147 ID = 270663744x
   1.625698 1  1022C040x       Rx   d 6 00 10 00 20 00 00  Length = 3684597 BitCount = 127 ID = 270712896x
   1.628577 1  10306099x       Rx   d 3 44 59 01  Length = 2754642 BitCount = 96 ID = 271605913x
   1.632868 1  1022E040x       Rx   d 8 30 00 00 00 70 01 0C D2  Length = 4164581 BitCount = 143 ID = 270721088x
   1.641363 1  10230040x       Rx   d 8 00 00 00 00 00 00 00 00  Length = 4288223 BitCount = 147 ID = 270729280x
   1.646134 1  102CC040x       Rx   d 8 00 09 CE 67 00 87 06 CC  Length = 4078212 BitCount = 140 ID = 271368256x
   1.651148 1  102CE040x       Rx   d 8 92 00 66 7F 00 00 26 C9  Length = 4078212 BitCount = 140 ID = 271376448x
   1.656247 1  10240040x       Rx   d 8 83 FD 88 01 01 06 0F FC  Length = 4224577 BitCount = 145 ID = 270794816x
   1.661172 1  102D0040x       Rx   d 8 01 6A 01 ED 7C 99 00 FF  Length = 4138208 BitCount = 142 ID = 271384640x
   1.664355 1  106B0040x       Rx   d 1 00  Length = 2308248 BitCount = 81 ID = 275447872x
   1.668012 1  10734099x       Rx   d 6 24 43 00 7D 00 00  Length = 3534590 BitCount = 122 ID = 275988633x
   1.671553 1  10806040x       Rx   d 5 00 00 00 00 19  Length = 3414598 BitCount = 118 ID = 276848704x
   1.676238 1  102CA040x       Rx   d 8 00 40 0C 8A 3E 00 E2 00  Length = 4168223 BitCount = 143 ID = 271360064x
   1.681371 1  10780040x       Rx   d 8 00 00 01 04 08 00 00 22  Length = 4288208 BitCount = 147 ID = 276299840x
   1.685752 1  C800040x        Rx   d 6 08 CB 00 00 9D 7A  Length = 3598216 BitCount = 124 ID = 209715264x
   1.690793 1  10788040x       Rx   d 6 08 00 00 00 00 00  Length = 3778216 BitCount = 130 ID = 276332608x
   1.696256 1  10264040x       Rx   d 8 04 06 00 00 00 00 00 5A  Length = 4198208 BitCount = 144 ID = 270942272x
   1.701716 1  13FFE0AFx       Rx   d 0  Length = 2064714 BitCount = 73 ID = 335536303x
   1.706311 1  10210040x       Rx   d 8 00 00 00 00 00 00 00 00  Length = 4288208 BitCount = 147 ID = 270598208x
   1.716425 1  10220040x       Rx   d 8 10 00 00 00 00 04 00 00  Length = 4318208 BitCount = 148 ID = 270663744x
   1.726120 1  1022E040x       Rx   d 8 10 00 00 00 50 01 0C D2  Length = 4138223 BitCount = 142 ID = 270721088x
   1.736356 1  10230040x       Rx   d 8 20 00 00 00 20 00 00 00  Length = 4258208 BitCount = 146 ID = 270729280x
   1.746349 1  1043A040x       Rx   d 8 00 00 4A 00 00 00 00 00  Length = 4318208 BitCount = 148 ID = 272867392x
   1.756373 1  10240040x       Rx   d 8 83 FE 88 01 01 06 0F FC  Length = 4228208 BitCount = 145 ID = 270794816x
   1.761356 1  106B8040x       Rx   d 8 00 00 00 00 00 00 00 00  Length = 4318208 BitCount = 148 ID = 275480640x
   1.776272 1  102CA040x       Rx   d 8 00 40 0C 9D 3E 00 E2 00  Length = 4168223 BitCount = 143 ID = 271360064x
   1.779307 1  106B0040x       Rx   d 1 00  Length = 2308248 BitCount = 81 ID = 275447872x
   1.796262 1  10264040x       Rx   d 8 04 06 00 00 00 00 00 5A  Length = 4198208 BitCount = 144 ID = 270942272x
   1.806347 1  10210040x       Rx   d 8 00 00 00 00 00 00 00 00  Length = 4288208 BitCount = 147 ID = 270598208x
   1.816341 1  10220040x       Rx   d 8 10 00 00 00 00 06 00 00  Length = 4288208 BitCount = 147 ID = 270663744x
   1.826186 1  1022E040x       Rx   d 8 30 00 00 00 70 01 0C D2  Length = 4168208 BitCount = 143 ID = 270721088x
   1.836420 1  10230040x       Rx   d 8 00 00 00 00 00 00 00 00  Length = 4288223 BitCount = 147 ID = 270729280x
   1.856223 1  1022A040x       Rx   d 8 00 B0 00 12 42 00 00 22  Length = 4134566 BitCount = 142 ID = 270704704x
   1.860728 1  1022C040x       Rx   d 6 00 10 00 20 00 00  Length = 3688216 BitCount = 127 ID = 270712896x
   1.866344 1  10240040x       Rx   d 8 83 FD 88 01 01 06 0F FC  Length = 4228223 BitCount = 145 ID = 270794816x
   1.870337 1  102C0040x       Rx   d 5 AE EF 44 59 03  Length = 3298224 BitCount = 114 ID = 271319104x
   1.874330 1  10242040x       Rx   d 1 02  Length = 2308248 BitCount = 81 ID = 270803008x
   1.880903 1  10248040x       Rx   d 7 00 00 6C D6 CC 0F 00  Length = 3838212 BitCount = 132 ID = 270827584x
   1.886306 1  102CA040x       Rx   d 8 00 40 0C AF 3F 00 E2 00  Length = 4138208 BitCount = 142 ID = 271360064x
   1.889221 1  10308060x       Rx   d 3 44 59 01  Length = 2788236 BitCount = 97 ID = 271614048x
   1.893394 1  102CC040x       Rx   d 8 00 09 CE 67 00 87 06 CA  Length = 4048212 BitCount = 139 ID = 271368256x
   1.899031 1  10304058x       Rx   d 3 44 59 01  Length = 2724642 BitCount = 95 ID = 271597656x
   1.903354 1  10264040x       Rx   d 8 04 06 00 00 00 00 00 3C  Length = 4198223 BitCount = 144 ID = 270942272x
   1.911363 1  10210040x       Rx   d 8 00 00 00 00 00 00 00 00  Length = 4284573 BitCount = 147 ID = 270598208x
   1.916464 1  10220040x       Rx   d 8 10 00 00 00 00 04 00 00  Length = 4314558 BitCount = 148 ID = 270663744x
   1.921239 1  102CE040x       Rx   d 8 92 00 66 7F 01 00 26 C9  Length = 4108212 BitCount = 141 ID = 271376448x
   1.926192 1  1022E040x       Rx   d 8 10 00 00 00 50 01 0C D2  Length = 4138208 BitCount = 142 ID = 270721088x
   1.929070 1  10306099x       Rx   d 3 44 59 01  Length = 2754642 BitCount = 96 ID = 271605913x
   1.931500 1  106B0040x       Rx   d 1 00  Length = 2304697 BitCount = 81 ID = 275447872x
   1.935764 1  C800040x        Rx   d 6 08 CB 00 00 9D 7F  Length = 3628216 BitCount = 125 ID = 209715264x
   1.941346 1  10230040x       Rx   d 8 20 00 00 00 20 00 00 00  Length = 4258208 BitCount = 146 ID = 270729280x
   1.946447 1  10780040x       Rx   d 8 00 00 01 04 08 00 00 22  Length = 4284562 BitCount = 147 ID = 276299840x
   1.956323 1  10240040x       Rx   d 8 83 FE 88 01 01 06 0F FC  Length = 4228223 BitCount = 145 ID = 270794816x
   1.961426 1  106B8040x       Rx   d 8 00 00 00 00 00 00 00 00  Length = 4318223 BitCount = 148 ID = 275480640x
   1.976252 1  102CA040x       Rx   d 8 00 40 0C 9B 3F 00 E2 00  Length = 4108212 BitCount = 141 ID = 271360064x
   1.996391 1  10264040x       Rx   d 8 04 06 00 00 00 00 00 5B  Length = 4228208 BitCount = 145 ID = 270942272x
   2.000145 1  108E0080x       Rx   d 6 0E 01 17 02 0E E5  Length = 3628216 BitCount = 125 ID = 277741696x
   2.004585 1  1043A040x       Rx   d 8 00 00 4A 00 00 00 00 00  Length = 4314573 BitCount = 148 ID = 272867392x
   2.011397 1  10210040x       Rx   d 8 00 00 00 00 00 00 00 00  Length = 4284562 BitCount = 147 ID = 270598208x
   2.016502 1  10220040x       Rx   d 8 10 00 00 00 00 06 00 00  Length = 4288223 BitCount = 147 ID = 270663744x
   2.019653 1  10250040x       Rx   d 2 00 05  Length = 2578240 BitCount = 90 ID = 270860352x
   2.026316 1  1022E040x       Rx   d 8 30 00 00 00 70 01 0C D2  Length = 4168208 BitCount = 143 ID = 270721088x
   2.028539 1  13FFE060x       Rx   d 0  Length = 2098271 BitCount = 74 ID = 335536224x
   2.032682 1  1080A040x       Rx   d 7 00 00 00 00 00 00 00  Length = 4018227 BitCount = 138 ID = 276865088x
   2.035684 1  13FFE080x       Rx   d 0  Length = 2068275 BitCount = 73 ID = 335536256x
   2.041418 1  10230040x       Rx   d 8 00 00 00 00 00 00 00 00  Length = 4288208 BitCount = 147 ID = 270729280x
   2.044391 1  106B0040x       Rx   d 1 00  Length = 2308263 BitCount = 81 ID = 275447872x
   2.046787 1  Statistic: D 1 R 0 XD 158 XR 0 E 0 O 0 B 61.46%
   2.046787 2  Statistic: D 0 R 0 XD 0 XR 0 E 0 O 0 B 0.00%
   2.046787 3  Statistic: D 0 R 0 XD 0 XR 0 E 0 O 0 B 0.00%
   2.056395 1  10240040x       Rx   d 8 83 FE 88 01 01 06 0F FC  Length = 4228208 BitCount = 145 ID = 270794816x
   2.058586 1  13FFE099x       Rx   d 0  Length = 2068260 BitCount = 73 ID = 335536281x
   2.076352 1  102CA040x       Rx   d 8 00 40 0C 6F 3E 00 E2 00  Length = 4168208 BitCount = 143 ID = 271360064x
   2.096335 1  10264040x       Rx   d 8 04 06 00 00 00 00 00 56  Length = 4194577 BitCount = 144 ID = 270942272x
   2.106421 1  10210040x       Rx   d 8 00 00 00 00 00 00 00 00  Length = 4288208 BitCount = 147 ID = 270598208x
   2.111284 1  1022A040x       Rx   d 8 00 B0 00 12 42 00 00 22  Length = 4138208 BitCount = 142 ID = 270704704x
   2.116414 1  10220040x       Rx   d 8 10 00 00 00 00 06 00 00  Length = 4284562 BitCount = 147 ID = 270663744x
   2.120795 1  1022C040x       Rx   d 6 00 10 00 20 00 00  Length = 3684597 BitCount = 127 ID = 270712896x
   2.126260 1  1022E040x       Rx   d 8 10 00 00 00 50 01 0C D2  Length = 4138223 BitCount = 142 ID = 270721088x
   2.130553 1  10466040x       Rx   d 5 00 00 00 00 00  Length = 3448220 BitCount = 119 ID = 273047616x
   2.136376 1  10230040x       Rx   d 8 20 00 00 00 20 00 00 00  Length = 4258208 BitCount = 146 ID = 270729280x
   2.139708 1  10250040x       Rx   d 2 00 09  Length = 2578255 BitCount = 90 ID = 270860352x
   2.146221 1  102CC040x       Rx   d 8 00 09 CE 67 00 87 06 CF  Length = 4048227 BitCount = 139 ID = 271368256x
   2.151290 1  102CE040x       Rx   d 8 92 00 66 7F 01 00 26 C9  Length = 4104566 BitCount = 141 ID = 271376448x
   2.156365 1  10240040x       Rx   d 8 83 FD 88 01 01 06 0F FC  Length = 4228223 BitCount = 145 ID = 270794816x
   2.161256 1  102D0040x       Rx   d 8 01 6A 01 ED 7C 98 00 FF  Length = 4108212 BitCount = 141 ID = 271384640x
   2.165490 1  102C0040x       Rx   d 5 AE EF 44 59 03  Length = 3298224 BitCount = 114 ID = 271319104x
   2.169147 1  10734099x       Rx   d 6 24 43 00 7D 00 00  Length = 3534590 BitCount = 122 ID = 275988633x
   2.173378 1  102E0040x       Rx   d 8 00 32 CA 72 8A 00 63 81  Length = 4104566 BitCount = 141 ID = 271450176x
   2.181333 1  102CA040x       Rx   d 8 00 40 0C 78 3E 00 E2 00  Length = 4138223 BitCount = 142 ID = 271360064x
   2.185767 CAN 1 Status:chip status error active  - TxErr: 0 RxErr: 1
   2.185775 1  ErrorFrame	Flags = 0xfffe	CodeExt = 0x2072	Code = 0x81	ID = 0x8c800040	DLC = 6	Position = 104	Length = 3474390	Data = 0x8  0xcb  0  0  0x9d  0x83
   2.189730 CAN 1 Status:chip status error active
   2.189947 1  C800040x        Rx   d 6 08 CB 00 00 9D 83  Length = 3658216 BitCount = 126 ID = 209715264x
   2.192796 1  10304058x       Rx   d 3 44 59 01  Length = 2724642 BitCount = 95 ID = 271597656x
   2.197149 1  10264040x       Rx   d 8 04 06 00 00 00 00 00 39  Length = 4228208 BitCount = 145 ID = 270942272x
   2.206481 1  10210040x       Rx   d 8 00 00 00 00 00 00 00 00  Length = 4288223 BitCount = 147 ID = 270598208x
   2.209394 1  10308060x       Rx   d 3 44 59 01  Length = 2788236 BitCount = 97 ID = 271614048x
   2.211827 1  106B0040x       Rx   d 1 00  Length = 2308248 BitCount = 81 ID = 275447872x
   2.215550 1  1020C040x       Rx   d 5 00 C4 06 C4 01  Length = 3298224 BitCount = 114 ID = 270581824x
   2.221463 1  10220040x       Rx   d 8 10 00 00 00 00 07 00 00  Length = 4318208 BitCount = 148 ID = 270663744x
   2.226326 1  1022E040x       Rx   d 8 30 00 00 00 70 01 0C D2  Length = 4168208 BitCount = 143 ID = 270721088x
   2.229204 1  10306099x       Rx   d 3 44 59 01  Length = 2754657 BitCount = 96 ID = 271605913x
   2.233644 1  106B8040x       Rx   d 8 00 00 00 00 00 00 00 00  Length = 4314558 BitCount = 148 ID = 275480640x
   2.241450 1  10230040x       Rx   d 8 00 00 00 00 00 00 00 00  Length = 4288208 BitCount = 147 ID = 270729280x
   2.246495 1  1043A040x       Rx   d 8 00 00 4A 00 00 00 00 00  Length = 4318223 BitCount = 148 ID = 272867392x
   2.250576 1  106C0040x       Rx   d 5 00 06 0F 07 00  Length = 3448220 BitCount = 119 ID = 275513408x
   2.256400 1  10240040x       Rx   d 8 83 FD 88 01 01 06 0F FC  Length = 4228223 BitCount = 145 ID = 270794816x
   2.259643 1  10250040x       Rx   d 2 02 11  Length = 2518240 BitCount = 88 ID = 270860352x
   2.265464 1  10708040x       Rx   d 5 02 24 02 24 3F  Length = 3328235 BitCount = 115 ID = 275808320x
   2.270267 1  1077C040x       Rx   d 4 30 30 01 F4  Length = 3148224 BitCount = 109 ID = 276283456x
   2.276386 1  102CA040x       Rx   d 8 00 40 0C E5 3E 00 E2 00  Length = 4164566 BitCount = 143 ID = 271360064x
   2.281518 1  10780040x       Rx   d 8 00 00 01 04 08 00 00 22  Length = 4284562 BitCount = 147 ID = 276299840x
   2.285989 1  10788040x       Rx   d 6 08 00 00 00 00 00  Length = 3774593 BitCount = 130 ID = 276332608x
   2.290584 1  10806040x       Rx   d 5 00 00 00 00 19  Length = 3418220 BitCount = 118 ID = 276848704x
   2.296467 1  10264040x       Rx   d 8 04 06 00 00 00 00 00 58  Length = 4228208 BitCount = 145 ID = 270942272x
   2.298439 CAN 1 Status:chip status error active  - TxErr: 0 RxErr: 1
   2.298446 1  ErrorFrame	Flags = 0xfffe	CodeExt = 0x2072	Code = 0x81	ID = 0x93ffe0bb	DLC = 0	Position = 56	Length = 1854375
   2.301017 CAN 1 Status:chip status error active
   2.301234 1  13FFE0BBx       Rx   d 0  Length = 2034718 BitCount = 72 ID = 335536315x
   2.306458 1  10210040x       Rx   d 8 00 00 00 00 00 00 00 00  Length = 4288208 BitCount = 147 ID = 270598208x
   2.316600 1  10220040x       Rx   d 8 10 00 00 00 00 04 00 00  Length = 4318208 BitCount = 148 ID = 270663744x
   2.326264 1  1022E040x       Rx   d 8 10 00 00 00 50 01 0C D2  Length = 4138223 BitCount = 142 ID = 270721088x
   2.329450 1  106B0040x       Rx   d 1 00  Length = 2308248 BitCount = 81 ID = 275447872x
   2.336413 1  10230040x       Rx   d 8 20 00 00 00 20 00 00 00  Length = 4258208 BitCount = 146 ID = 270729280x
   2.349970 1  10324058x       Rx   d 6 00 00 03 FF 00 00  Length = 3684597 BitCount = 127 ID = 271728728x
   2.356423 1  1022A040x       Rx   d 8 00 B0 00 12 42 00 00 22  Length = 4138208 BitCount = 142 ID = 270704704x
   2.360863 1  1022C040x       Rx   d 6 00 10 00 20 00 00  Length = 3684586 BitCount = 127 ID = 270712896x
   2.366508 1  10240040x       Rx   d 8 83 FE 88 01 01 06 0F FC  Length = 4228223 BitCount = 145 ID = 270794816x
   2.371521 1  106B8040x       Rx   d 8 00 00 00 00 00 00 00 00  Length = 4318208 BitCount = 148 ID = 275480640x
   2.376049 1  10248040x       Rx   d 7 00 00 6C D6 CC 0E 00  Length = 3864578 BitCount = 133 ID = 270827584x
   2.379684 1  10250040x       Rx   d 2 02 21  Length = 2518255 BitCount = 88 ID = 270860352x
   2.386469 1  102CA040x       Rx   d 8 00 40 0C DD 3E 00 E2 00  Length = 4138208 BitCount = 142 ID = 271360064x
   2.391270 1  102CC040x       Rx   d 8 00 09 CE 67 00 87 06 C8  Length = 4048212 BitCount = 139 ID = 271368256x
   2.396433 1  10264040x       Rx   d 8 04 06 00 00 00 00 00 5B  Length = 4228223 BitCount = 145 ID = 270942272x
   2.401324 1  102CE040x       Rx   d 8 92 00 66 7F 01 00 26 C8  Length = 4078227 BitCount = 140 ID = 271376448x
   2.403518 1  13FFE068x       Rx   d 0  Length = 2068260 BitCount = 73 ID = 335536232x
   2.407926 1  10210040x       Rx   d 8 00 00 00 00 00 00 00 00  Length = 4284573 BitCount = 147 ID = 270598208x
   2.411111 1  10448060x       Rx   d 4 00 00 45 00  Length = 3058228 BitCount = 106 ID = 272924768x
   2.416604 1  10220040x       Rx   d 8 10 00 00 00 00 03 00 00  Length = 4318208 BitCount = 148 ID = 270663744x
   2.419304 1  106D0080x       Rx   d 2 00 00  Length = 2574669 BitCount = 90 ID = 275579008x
   2.426325 1  1022E040x       Rx   d 8 30 00 00 00 70 01 0C D2  Length = 4164566 BitCount = 143 ID = 270721088x
   2.431546 1  10780040x       Rx   d 8 00 00 01 04 08 00 00 22  Length = 4284562 BitCount = 147 ID = 276299840x
   2.435837 1  C800040x        Rx   d 6 08 CB 00 00 9D 88  Length = 3594590 BitCount = 124 ID = 209715264x
   2.441452 1  10230040x       Rx   d 8 00 00 00 00 00 00 00 00  Length = 4288208 BitCount = 147 ID = 270729280x
   2.444515 1  106B0040x       Rx   d 1 00  Length = 2308248 BitCount = 81 ID = 275447872x
   2.456520 1  10240040x       Rx   d 8 83 FE 88 01 01 06 0F FC  Length = 4228223 BitCount = 145 ID = 270794816x
   2.465492 1  102C0040x       Rx   d 5 AE EF 44 59 03  Length = 3298224 BitCount = 114 ID = 271319104x
   2.476388 1  102CA040x       Rx   d 8 00 40 0C B4 3E 00 E2 00  Length = 4138208 BitCount = 142 ID = 271360064x
   2.485061 1  10308060x       Rx   d 3 44 59 01  Length = 2788236 BitCount = 97 ID = 271614048x
   2.488989 1  10304058x       Rx   d 3 44 59 01  Length = 2724657 BitCount = 95 ID = 271597656x
   2.494751 1  10250040x       Rx   d 2 02 30  Length = 2518240 BitCount = 88 ID = 270860352x
   2.501445 1  10264040x       Rx   d 8 04 06 00 00 00 00 00 3B  Length = 4228208 BitCount = 145 ID = 270942272x
   2.506574 1  10210040x       Rx   d 8 00 00 00 00 00 00 00 00  Length = 4284573 BitCount = 147 ID = 270598208x
   2.511559 1  1043A040x       Rx   d 8 00 00 4B 00 00 00 00 00  Length = 4348208 BitCount = 149 ID = 272867392x
   2.516568 1  10220040x       Rx   d 8 10 00 00 00 00 06 00 00  Length = 4284562 BitCount = 147 ID = 270663744x
   2.526324 1  1022E040x       Rx   d 8 10 00 00 00 50 01 0C D2  Length = 4138223 BitCount = 142 ID = 270721088x
   2.529205 1  10306099x       Rx   d 3 44 59 01  Length = 2754642 BitCount = 96 ID = 271605913x
   2.536469 1  10230040x       Rx   d 8 20 00 00 00 20 00 00 00  Length = 4258208 BitCount = 146 ID = 270729280x
   2.556482 1  10240040x       Rx   d 8 83 FE 88 01 01 06 0F FC  Length = 4224562 BitCount = 145 ID = 270794816x
   2.559517 1  106B0040x       Rx   d 1 00  Length = 2308248 BitCount = 81 ID = 275447872x
   2.566596 1  106B8040x       Rx   d 8 00 00 00 00 00 00 00 00  Length = 4314558 BitCount = 148 ID = 275480640x
   2.569241 1  13FFE040x       Rx   d 0  Length = 2068275 BitCount = 73 ID = 335536192x
   2.576447 1  102CA040x       Rx   d 8 00 40 0C 9E 3D 00 E2 00  Length = 4138208 BitCount = 142 ID = 271360064x
   2.585809 1  621             Rx   d 8 00 52 00 00 00 00 00 00  Length = 3594590 BitCount = 124 ID = 1569
   2.596465 1  10264040x       Rx   d 8 04 06 00 00 00 00 00 59  Length = 4198208 BitCount = 144 ID = 270942272x
   2.606552 1  10210040x       Rx   d 8 00 00 00 00 00 00 00 00  Length = 4288208 BitCount = 147 ID = 270598208x
   2.611415 1  1022A040x       Rx   d 8 00 B0 00 12 42 00 00 22  Length = 4138208 BitCount = 142 ID = 270704704x
   2.616636 1  10220040x       Rx   d 8 10 00 00 00 00 02 00 00  Length = 4318208 BitCount = 148 ID = 270663744x
   2.620927 1  1022C040x       Rx   d 6 00 10 00 20 00 00  Length = 3688216 BitCount = 127 ID = 270712896x
   2.626385 1  1022E040x       Rx   d 8 30 00 00 00 70 01 0C D2  Length = 4164566 BitCount = 143 ID = 270721088x
   2.629776 1  10250040x       Rx   d 2 02 39  Length = 2544658 BitCount = 89 ID = 270860352x
   2.636617 1  10230040x       Rx   d 8 00 00 00 00 00 00 00 00  Length = 4284562 BitCount = 147 ID = 270729280x
   2.641392 1  102CC040x       Rx   d 8 00 09 CE 67 00 87 06 CC  Length = 4078212 BitCount = 140 ID = 271368256x
   2.646555 1  102CE040x       Rx   d 8 92 00 66 7F 01 00 26 CA  Length = 4108212 BitCount = 141 ID = 271376448x
   2.651357 1  102D0040x       Rx   d 8 01 6A 01 ED 7C 97 00 FF  Length = 4078212 BitCount = 140 ID = 271384640x
   2.656490 1  10240040x       Rx   d 8 83 FE 88 01 01 06 0F FC  Length = 4228208 BitCount = 145 ID = 270794816x
   2.665702 1  10806040x       Rx   d 5 00 00 00 00 19  Length = 3418220 BitCount = 118 ID = 276848704x
   2.669361 1  10734099x       Rx   d 6 24 43 00 7D 00 00  Length = 3534590 BitCount = 122 ID = 275988633x
   2.676477 1  102CA040x       Rx   d 8 00 40 0C C1 3D 00 E2 00  Length = 4138208 BitCount = 142 ID = 271360064x
   2.679542 1  106B0040x       Rx   d 1 00  Length = 2308248 BitCount = 81 ID = 275447872x
   2.686025 1  C800040x        Rx   d 6 08 CB 00 00 9D 8B  Length = 3598216 BitCount = 124 ID = 209715264x
   2.691608 1  10780040x       Rx   d 8 00 00 01 04 08 00 00 22  Length = 4288208 BitCount = 147 ID = 276299840x
   2.696561 1  10264040x       Rx   d 8 04 06 00 00 00 00 00 58  Length = 4228208 BitCount = 145 ID = 270942272x
   2.701035 1  10788040x       Rx   d 6 08 00 00 00 00 00  Length = 3778216 BitCount = 130 ID = 276332608x
   2.706560 1  10210040x       Rx   d 8 00 00 00 00 00 00 00 00  Length = 4288208 BitCount = 147 ID = 270598208x
   2.716614 1  10220040x       Rx   d 8 10 00 00 00 00 05 00 00  Length = 4288208 BitCount = 147 ID = 270663744x
   2.726365 1  1022E040x       Rx   d 8 10 00 00 00 50 01 0C D2  Length = 4134581 BitCount = 142 ID = 270721088x
   2.736597 1  10230040x       Rx   d 8 20 00 00 00 20 00 00 00  Length = 4254562 BitCount = 146 ID = 270729280x
   2.744794 1  10250040x       Rx   d 2 02 3B  Length = 2548255 BitCount = 89 ID = 270860352x
   2.748156 1  13FFE058x       Rx   d 0  Length = 2098256 BitCount = 74 ID = 335536216x
   2.752569 1  1043A040x       Rx   d 8 00 00 49 00 00 00 00 00  Length = 4288208 BitCount = 147 ID = 272867392x
   2.761515 1  10240040x       Rx   d 8 83 FD 88 01 01 06 0F FC  Length = 4228208 BitCount = 145 ID = 270794816x
   2.765568 1  102C0040x       Rx   d 5 AE EF 44 59 03  Length = 3298224 BitCount = 114 ID = 271319104x
   2.771601 1  106B8040x       Rx   d 8 00 00 00 00 00 00 00 00  Length = 4318208 BitCount = 148 ID = 275480640x
   2.776493 1  102CA040x       Rx   d 8 00 40 0C A4 3D 00 E2 00  Length = 4138208 BitCount = 142 ID = 271360064x
   2.780181 1  10734099x       Rx   d 6 24 42 00 7D 00 00  Length = 3564590 BitCount = 123 ID = 275988633x
   2.783635 1  10708040x       Rx   d 5 02 24 02 24 41  Length = 3328235 BitCount = 115 ID = 275808320x
   2.788826 1  10304058x       Rx   d 3 44 59 01  Length = 2728251 BitCount = 95 ID = 271597656x
   2.796568 1  10264040x       Rx   d 8 04 06 00 00 00 00 00 58  Length = 4228223 BitCount = 145 ID = 270942272x
   2.799569 1  106B0040x       Rx   d 1 00  Length = 2308248 BitCount = 81 ID = 275447872x
   2.804999 1  10308060x       Rx   d 3 44 59 01  Length = 2784638 BitCount = 97 ID = 271614048x
   2.809409 1  10210040x       Rx   d 8 00 00 00 00 00 00 00 00  Length = 4284562 BitCount = 147 ID = 270598208x
   2.816674 1  10220040x       Rx   d 8 10 00 00 00 00 07 00 00  Length = 4318208 BitCount = 148 ID = 270663744x
   2.826429 1  1022E040x       Rx   d 8 30 00 00 00 70 01 0C D2  Length = 4168208 BitCount = 143 ID = 270721088x
   2.829309 1  10306099x       Rx   d 3 44 59 01  Length = 2754642 BitCount = 96 ID = 271605913x
   2.836543 1  10230040x       Rx   d 8 00 00 00 00 00 00 00 00  Length = 4288208 BitCount = 147 ID = 270729280x
   2.856438 1  1022A040x       Rx   d 8 00 B0 00 12 42 00 00 22  Length = 4134566 BitCount = 142 ID = 270704704x
   2.860973 1  1022C040x       Rx   d 6 00 10 00 20 00 00  Length = 3688216 BitCount = 127 ID = 270712896x
   2.866586 1  10240040x       Rx   d 8 83 FE 88 01 01 06 0F FC  Length = 4228208 BitCount = 145 ID = 270794816x
   2.876163 1  10248040x       Rx   d 7 00 00 6C D6 CC 0D 00  Length = 3868212 BitCount = 133 ID = 270827584x
   2.881504 1  102CA040x       Rx   d 8 00 40 0C A4 3D 00 E2 00  Length = 4134581 BitCount = 142 ID = 271360064x
   2.886429 1  102CC040x       Rx   d 8 00 09 CE 67 00 87 06 CB  Length = 4048212 BitCount = 139 ID = 271368256x
   2.890087 1  10734099x       Rx   d 6 24 43 00 7D 00 00  Length = 3534590 BitCount = 122 ID = 275988633x
   2.896541 1  10264040x       Rx   d 8 04 06 00 00 00 00 00 3A  Length = 4198208 BitCount = 144 ID = 270942272x
   2.901465 1  102CE040x       Rx   d 8 92 00 66 7F 01 00 26 CA  Length = 4108223 BitCount = 141 ID = 271376448x
   2.903658 1  13FFE0AFx       Rx   d 0  Length = 2068260 BitCount = 73 ID = 335536303x
   2.908067 1  10210040x       Rx   d 8 00 00 00 00 00 00 00 00  Length = 4284573 BitCount = 147 ID = 270598208x
   2.916743 1  10220040x       Rx   d 8 10 00 00 00 00 08 00 00  Length = 4318208 BitCount = 148 ID = 270663744x
   2.919598 1  106B0040x       Rx   d 1 00  Length = 2308248 BitCount = 81 ID = 275447872x
   2.926409 1  1022E040x       Rx   d 8 10 00 00 00 50 01 0C D2  Length = 4134566 BitCount = 142 ID = 270721088x
   2.931660 1  10780040x       Rx   d 8 00 00 01 04 08 00 00 22  Length = 4284562 BitCount = 147 ID = 276299840x
   2.936012 1  C800040x        Rx   d 6 08 CB 00 00 9D 91  Length = 3654586 BitCount = 126 ID = 209715264x
   2.941596 1  10230040x       Rx   d 8 20 00 00 00 20 00 00 00  Length = 4258223 BitCount = 146 ID = 270729280x
   2.956381 CAN 1 Status:chip status error active  - TxErr: 0 RxErr: 1
   2.956388 1  ErrorFrame	Flags = 0xfffe	CodeExt = 0x2072	Code = 0x81	ID = 0x90240040	DLC = 8	Position = 120	Length = 4044375	Data = 0x83  0xfe  0x88  0x1  0x1  0x6  0xf  0xfc
   2.960910 CAN 1 Status:chip status error active
   2.961127 1  10240040x       Rx   d 8 83 FE 88 01 01 06 0F FC  Length = 4224562 BitCount = 145 ID = 270794816x
   2.966712 1  106B8040x       Rx   d 8 00 00 00 00 00 00 00 00  Length = 4318223 BitCount = 148 ID = 275480640x
   2.976497 1  102CA040x       Rx   d 8 00 40 0C BB 3D 00 E2 00  Length = 4108223 BitCount = 141 ID = 271360064x
   2.996576 1  10264040x       Rx   d 8 04 06 00 00 00 00 00 58  Length = 4228223 BitCount = 145 ID = 270942272x
   3.000330 1  108E0080x       Rx   d 6 0E 01 17 02 0E E6  Length = 3628216 BitCount = 125 ID = 277741696x
   3.004740 1  1043A040x       Rx   d 8 00 00 48 00 00 00 00 00  Length = 4284562 BitCount = 147 ID = 272867392x
   3.011642 1  10210040x       Rx   d 8 00 00 00 00 00 00 00 00  Length = 4284562 BitCount = 147 ID = 270598208x
   3.016803 1  10220040x       Rx   d 8 10 00 00 00 00 03 00 00  Length = 4314558 BitCount = 148 ID = 270663744x
   3.021368 1  1080A040x       Rx   d 7 00 00 00 00 00 00 00  Length = 4018212 BitCount = 138 ID = 276865088x
   3.026529 1  1022E040x       Rx   d 8 30 00 00 00 70 01 0C D2  Length = 4164581 BitCount = 143 ID = 270721088x
   3.036585 1  10230040x       Rx   d 8 00 00 00 00 00 00 00 00  Length = 4288208 BitCount = 147 ID = 270729280x
   3.039708 1  106B0040x       Rx   d 1 00  Length = 2308248 BitCount = 81 ID = 275447872x
   3.046787 1  Statistic: D 1 R 0 XD 159 XR 0 E 3 O 0 B 63.04%
   3.046787 2  Statistic: D 0 R 0 XD 0 XR 0 E 0 O 0 B 0.00%
   3.046787 3  Statistic: D 0 R 0 XD 0 XR 0 E 0 O 0 B 0.00%
   3.056664 1  10240040x       Rx   d 8 83 FD 88 01 01 06 0F FC  Length = 4228223 BitCount = 145 ID = 270794816x
   3.065667 1  102C0040x       Rx   d 5 AE EF 44 59 03  Length = 3298239 BitCount = 114 ID = 271319104x
   3.076503 1  102CA040x       Rx   d 8 00 40 0C C4 3D 00 F1 00  Length = 4078212 BitCount = 140 ID = 271360064x
   3.085026 1  10308060x       Rx   d 3 44 59 01  Length = 2788236 BitCount = 97 ID = 271614048x
   3.088805 1  10304058x       Rx   d 3 44 59 01  Length = 2724642 BitCount = 95 ID = 271597656x
   3.092614 1  103A80BBx       Rx   d 4 0F FF 00 00  Length = 3084618 BitCount = 107 ID = 272269499x
   3.096936 1  10264040x       Rx   d 8 04 06 00 00 00 00 00 57  Length = 4198208 BitCount = 144 ID = 270942272x
   3.099304 1  103A00BBx       Rx   d 1 00  Length = 2244690 BitCount = 79 ID = 272236731x
   3.105610 1  C414040x        Rx   d 4 00 00 FA 00  Length = 3118228 BitCount = 108 ID = 205602880x
   3.111672 1  10210040x       Rx   d 8 00 00 00 00 00 00 00 00  Length = 4284562 BitCount = 147 ID = 270598208x
   3.116717 1  10220040x       Rx   d 8 10 00 00 00 00 05 00 00  Length = 4288223 BitCount = 147 ID = 270663744x
   3.121518 1  1022A040x       Rx   d 8 00 B0 00 12 42 00 00 22  Length = 4138208 BitCount = 142 ID = 270704704x
   3.126051 1  1022C040x       Rx   d 6 00 10 00 20 00 00  Length = 3688216 BitCount = 127 ID = 270712896x
   3.128934 1  10306099x       Rx   d 3 44 59 01  Length = 2758251 BitCount = 96 ID = 271605913x
   3.133195 1  1022E040x       Rx   d 8 10 00 00 00 50 01 0C D2  Length = 4138208 BitCount = 142 ID = 270721088x
   3.141657 1  10230040x       Rx   d 8 20 00 00 00 20 00 00 00  Length = 4258223 BitCount = 146 ID = 270729280x
   3.145016 1  10250040x       Rx   d 2 02 3C  Length = 2544658 BitCount = 89 ID = 270860352x
   3.151471 1  102CC040x       Rx   d 8 00 09 CF 67 00 87 06 C9  Length = 4048212 BitCount = 139 ID = 271368256x
   3.155734 1  1020C040x       Rx   d 5 00 C4 04 C4 01  Length = 3328224 BitCount = 115 ID = 270581824x
   3.161614 1  10240040x       Rx   d 8 83 FE 88 01 01 06 0F FC  Length = 4224562 BitCount = 145 ID = 270794816x
   3.166599 1  102CE040x       Rx   d 8 90 00 66 7F 01 00 26 C9  Length = 4108212 BitCount = 141 ID = 271376448x
   3.170257 1  10734099x       Rx   d 6 24 43 00 7D 00 00  Length = 3534590 BitCount = 122 ID = 275988633x
   3.174521 1  102D0040x       Rx   d 8 01 69 01 ED 7C 98 00 FF  Length = 4138208 BitCount = 142 ID = 271384640x
   3.181569 1  102CA040x       Rx   d 8 00 40 0C B6 3C 00 F1 00  Length = 4134566 BitCount = 142 ID = 271360064x
   3.186104 1  C800040x        Rx   d 6 08 CB 00 00 9D 95  Length = 3598231 BitCount = 124 ID = 209715264x
   3.191599 1  102E0040x       Rx   d 8 00 33 CA 72 8A 00 63 81  Length = 4138223 BitCount = 142 ID = 271450176x
   3.196582 1  10264040x       Rx   d 8 04 06 00 00 00 00 00 3A  Length = 4198208 BitCount = 144 ID = 270942272x
   3.199675 1  106B0040x       Rx   d 1 00  Length = 2308263 BitCount = 81 ID = 275447872x
   3.206695 1  10210040x       Rx   d 8 00 00 00 00 00 00 00 00  Length = 4284562 BitCount = 147 ID = 270598208x
   3.211709 1  106B8040x       Rx   d 8 00 00 00 00 00 00 00 00  Length = 4318208 BitCount = 148 ID = 275480640x
   3.216751 1  10220040x       Rx   d 8 10 00 00 00 00 06 00 00  Length = 4288208 BitCount = 147 ID = 270663744x
   3.220804 1  106C0040x       Rx   d 5 00 06 0F 07 00  Length = 3448235 BitCount = 119 ID = 275513408x
   3.224371 1  13FFE060x       Rx   d 0  Length = 2094710 BitCount = 74 ID = 335536224x
   3.228662 1  1022E040x       Rx   d 8 30 00 00 00 70 01 0C D2  Length = 4164566 BitCount = 143 ID = 270721088x
   3.236678 1  10230040x       Rx   d 8 00 00 00 00 00 00 00 00  Length = 4288208 BitCount = 147 ID = 270729280x
   3.238680 CAN 1 Status:chip status error active  - TxErr: 0 RxErr: 1
   3.238687 1  ErrorFrame	Flags = 0xfffe	CodeExt = 0x2072	Code = 0x81	ID = 0x93ffe080	DLC = 0	Position = 56	Length = 1884375
   3.241867 CAN 1 Status:chip status error active
   3.242085 1  10754040x       Rx   d 3 04 00 00  Length = 2881830 BitCount = 100 ID = 276119616x
   3.244277 1  13FFE080x       Rx   d 0  Length = 2068260 BitCount = 73 ID = 335536256x
   3.248720 1  1043A040x       Rx   d 8 00 00 4A 00 00 00 00 00  Length = 4318208 BitCount = 148 ID = 272867392x
   3.256613 1  10240040x       Rx   d 8 83 FC 88 01 01 06 0F FC  Length = 4194562 BitCount = 144 ID = 270794816x
   3.258806 1  13FFE099x       Rx   d 0  Length = 2068260 BitCount = 73 ID = 335536281x
   3.261750 1  10758040x       Rx   d 3 22 00 00  Length = 2818232 BitCount = 98 ID = 276136000x
   3.265533 1  1077C040x       Rx   d 4 30 30 01 F4  Length = 3148224 BitCount = 109 ID = 276283456x
   3.271748 1  10780040x       Rx   d 8 00 00 01 04 08 00 00 22  Length = 4288208 BitCount = 147 ID = 276299840x
   3.276613 1  102CA040x       Rx   d 8 00 40 0C C1 3B 00 F1 00  Length = 4138208 BitCount = 142 ID = 271360064x
   3.281206 1  10788040x       Rx   d 6 08 00 00 00 00 00  Length = 3778216 BitCount = 130 ID = 276332608x
   3.285920 1  10806040x       Rx   d 5 00 00 00 00 19  Length = 3418220 BitCount = 118 ID = 276848704x
   3.289608 1  10734099x       Rx   d 6 24 42 00 7D 00 00  Length = 3564590 BitCount = 123 ID = 275988633x
   3.296630 1  10264040x       Rx   d 8 04 06 00 00 00 00 00 57  Length = 4194562 BitCount = 144 ID = 270942272x
   3.306716 1  10210040x       Rx   d 8 00 00 00 00 00 00 00 00  Length = 4288208 BitCount = 147 ID = 270598208x
   3.316801 1  10220040x       Rx   d 8 10 00 00 00 00 07 00 00  Length = 4318208 BitCount = 148 ID = 270663744x
   3.319682 1  106B0040x       Rx   d 1 00  Length = 2308248 BitCount = 81 ID = 275447872x
   3.326527 1  1022E040x       Rx   d 8 10 00 00 00 50 01 0C D2  Length = 4138208 BitCount = 142 ID = 270721088x
   3.336640 1  10230040x       Rx   d 8 20 00 00 00 20 00 00 00  Length = 4258208 BitCount = 146 ID = 270729280x
   3.356686 1  1022A040x       Rx   d 8 00 B0 00 12 42 00 00 22  Length = 4138208 BitCount = 142 ID = 270704704x
   3.361102 1  1022C040x       Rx   d 6 00 10 00 20 00 00  Length = 3688216 BitCount = 127 ID = 270712896x
   3.366717 1  10240040x       Rx   d 8 83 FE 88 01 01 06 0F FC  Length = 4228208 BitCount = 145 ID = 270794816x
   3.370680 1  102C0040x       Rx   d 5 AE EF 44 59 03  Length = 3298224 BitCount = 114 ID = 271319104x
   3.376293 1  10248040x       Rx   d 7 00 00 6C D6 CC 0E 00  Length = 3868212 BitCount = 133 ID = 270827584x
   3.381638 1  102CA040x       Rx   d 8 00 40 0C DA 39 00 F1 00  Length = 4138208 BitCount = 142 ID = 271360064x
   3.386594 1  102CC040x       Rx   d 8 00 09 CF 67 00 87 06 C4  Length = 4048227 BitCount = 139 ID = 271368256x
   3.391755 1  106B8040x       Rx   d 8 00 00 00 00 00 00 00 00  Length = 4318208 BitCount = 148 ID = 275480640x
   3.396676 1  10264040x       Rx   d 8 04 06 00 00 00 00 00 57  Length = 4198208 BitCount = 144 ID = 270942272x
   3.399525 1  10304058x       Rx   d 3 44 59 01  Length = 2724657 BitCount = 95 ID = 271597656x
   3.403758 1  102CE040x       Rx   d 8 90 00 66 7F 01 00 26 C7  Length = 4108212 BitCount = 141 ID = 271376448x
   3.406670 1  10308060x       Rx   d 3 44 59 01  Length = 2788247 BitCount = 97 ID = 271614048x
   3.409855 1  10448060x       Rx   d 4 00 00 45 00  Length = 3058228 BitCount = 106 ID = 272924768x
   3.414263 1  10210040x       Rx   d 8 00 00 00 00 00 00 00 00  Length = 4284562 BitCount = 147 ID = 270598208x
   3.421738 1  10220040x       Rx   d 8 10 00 00 00 00 05 00 00  Length = 4288223 BitCount = 147 ID = 270663744x
   3.426571 1  1022E040x       Rx   d 8 30 00 00 00 70 01 0C D2  Length = 4168208 BitCount = 143 ID = 270721088x
   3.429454 1  10306099x       Rx   d 3 44 59 01  Length = 2758236 BitCount = 96 ID = 271605913x
   3.433863 1  10780040x       Rx   d 8 00 00 01 04 08 00 00 22  Length = 4284562 BitCount = 147 ID = 276299840x
   3.441129 1  C800040x        Rx   d 6 08 CB 00 00 9D 9A  Length = 3628231 BitCount = 125 ID = 209715264x
   3.446682 1  10230040x       Rx   d 8 10 00 00 00 10 00 00 00  Length = 4258208 BitCount = 146 ID = 270729280x
   3.449717 1  106B0040x       Rx   d 1 00  Length = 2308263 BitCount = 81 ID = 275447872x
   3.456737 1  10240040x       Rx   d 8 83 FE 88 01 01 06 0F FC  Length = 4224577 BitCount = 145 ID = 270794816x
   3.476632 1  102CA040x       Rx   d 8 00 40 0C 9A 36 00 F1 00  Length = 4134566 BitCount = 142 ID = 271360064x
   3.496680 1  10264040x       Rx   d 8 04 06 00 00 00 00 00 56  Length = 4198208 BitCount = 144 ID = 270942272x
   3.501782 1  1043A040x       Rx   d 8 00 00 43 00 00 00 00 00  Length = 4314558 BitCount = 148 ID = 272867392x
   3.503942 1  13FFE0BBx       Rx   d 0  Length = 2034733 BitCount = 72 ID = 335536315x
   3.508355 1  10210040x       Rx   d 8 00 00 00 00 00 00 00 00  Length = 4288208 BitCount = 147 ID = 270598208x
   3.516761 1  10220040x       Rx   d 8 10 00 00 00 00 06 00 00  Length = 4288208 BitCount = 147 ID = 270663744x
   3.526569 1  1022E040x       Rx   d 8 10 00 00 00 50 01 0C D2  Length = 4134566 BitCount = 142 ID = 270721088x
   3.536686 1  10230040x       Rx   d 8 20 00 00 00 20 00 00 00  Length = 4258208 BitCount = 146 ID = 270729280x
   3.556629 CAN 1 Status:chip status error active  - TxErr: 0 RxErr: 1
   3.556637 1  ErrorFrame	Flags = 0xfffe	CodeExt = 0x2072	Code = 0x81	ID = 0x90240040	DLC = 8	Position = 120	Length = 4044375	Data = 0x83  0xfd  0x88  0x1  0x1  0x6  0xf  0xfc
   3.561164 CAN 1 Status:chip status error active
   3.561382 1  10240040x       Rx   d 8 83 FD 88 01 01 06 0F FC  Length = 4228223 BitCount = 145 ID = 270794816x
   3.564775 1  106B0040x       Rx   d 1 00  Length = 2308248 BitCount = 81 ID = 275447872x
   3.571796 1  106B8040x       Rx   d 8 00 00 00 00 00 00 00 00  Length = 4318208 BitCount = 148 ID = 275480640x
   3.576658 1  102CA040x       Rx   d 8 00 40 0C A3 32 00 F1 00  Length = 4108212 BitCount = 141 ID = 271360064x
   3.586082 1  621             Rx   d 8 00 52 00 00 00 00 00 00  Length = 3598216 BitCount = 124 ID = 1569
   3.589739 1  10734099x       Rx   d 6 24 43 00 7D 00 00  Length = 3534590 BitCount = 122 ID = 275988633x
   3.596764 1  10264040x       Rx   d 8 04 06 00 00 00 00 00 38  Length = 4258208 BitCount = 146 ID = 270942272x
   3.600545 1  13FFE068x       Rx   d 0  Length = 2064714 BitCount = 73 ID = 335536232x
   3.606819 1  10210040x       Rx   d 8 00 00 00 00 00 00 00 00  Length = 4288208 BitCount = 147 ID = 270598208x
   3.611654 1  1022A040x       Rx   d 8 00 B0 00 12 42 00 00 22  Length = 4138208 BitCount = 142 ID = 270704704x
   3.616873 1  10220040x       Rx   d 8 10 00 00 00 00 06 00 00  Length = 4284562 BitCount = 147 ID = 270663744x
   3.619578 1  106D0080x       Rx   d 2 00 00  Length = 2578240 BitCount = 90 ID = 275579008x
   3.623387 1  1022C040x       Rx   d 6 00 10 00 20 00 00  Length = 3684586 BitCount = 127 ID = 270712896x
   3.631613 1  1022E040x       Rx   d 8 30 00 00 00 70 01 0C D2  Length = 4168208 BitCount = 143 ID = 270721088x
   3.636742 1  10230040x       Rx   d 8 00 00 00 00 00 00 00 00  Length = 4284562 BitCount = 147 ID = 270729280x
   3.640017 1  10250040x       Rx   d 2 02 3E  Length = 2548255 BitCount = 89 ID = 270860352x
   3.646710 1  102CC040x       Rx   d 8 00 09 CF 67 00 87 06 B9  Length = 4048212 BitCount = 139 ID = 271368256x
   3.651632 1  102CE040x       Rx   d 8 90 00 66 7F 01 00 26 B9  Length = 4078227 BitCount = 140 ID = 271376448x
   3.656765 1  10240040x       Rx   d 8 83 FD 88 01 01 06 0F FC  Length = 4228223 BitCount = 145 ID = 270794816x
   3.661626 1  102D0040x       Rx   d 8 01 69 01 ED 7C 99 00 FF  Length = 4108223 BitCount = 141 ID = 271384640x
   3.665799 1  102C0040x       Rx   d 5 AE EF 44 59 03  Length = 3298224 BitCount = 114 ID = 271319104x
   3.670928 1  10806040x       Rx   d 5 00 00 00 00 19  Length = 3414613 BitCount = 118 ID = 276848704x
   3.676693 1  102CA040x       Rx   d 8 00 40 0C 76 30 00 F1 00  Length = 4138208 BitCount = 142 ID = 271360064x
   3.679785 1  106B0040x       Rx   d 1 00  Length = 2308248 BitCount = 81 ID = 275447872x
   3.685035 1  10308060x       Rx   d 3 44 59 01  Length = 2784638 BitCount = 97 ID = 271614048x
   3.688785 1  C800040x        Rx   d 6 08 CB 00 00 9D 9E  Length = 3624586 BitCount = 125 ID = 209715264x
   3.691635 1  10304058x       Rx   d 3 44 59 01  Length = 2724642 BitCount = 95 ID = 271597656x
   3.696825 1  10264040x       Rx   d 8 04 06 00 00 00 00 00 50  Length = 4194562 BitCount = 144 ID = 270942272x
   3.700485 1  10734099x       Rx   d 6 24 43 00 7D 00 00  Length = 3534590 BitCount = 122 ID = 275988633x
   3.704894 1  10780040x       Rx   d 8 00 00 01 04 08 00 00 22  Length = 4284562 BitCount = 147 ID = 276299840x
   3.708649 1  624             Rx   d 8 00 20 00 00 00 00 00 00  Length = 3628216 BitCount = 125 ID = 1572
   3.713062 1  10210040x       Rx   d 8 00 00 00 00 00 00 00 00  Length = 4288208 BitCount = 147 ID = 270598208x
   3.721791 1  10220040x       Rx   d 8 10 00 00 00 00 05 00 00  Length = 4284562 BitCount = 147 ID = 270663744x
   3.726626 1  1022E040x       Rx   d 8 10 00 00 00 50 01 0C D2  Length = 4138208 BitCount = 142 ID = 270721088x
   3.729509 1  10306099x       Rx   d 3 44 59 01  Length = 2758236 BitCount = 96 ID = 271605913x
   3.733411 1  10788040x       Rx   d 6 08 00 00 00 00 00  Length = 3778216 BitCount = 130 ID = 276332608x
   3.741757 1  10230040x       Rx   d 8 20 00 00 00 20 00 00 00  Length = 4258208 BitCount = 146 ID = 270729280x
   3.746797 1  1043A040x       Rx   d 8 00 00 3D 00 00 00 00 00  Length = 4284562 BitCount = 147 ID = 272867392x
   3.756853 1  10240040x       Rx   d 8 83 FD 88 01 01 06 0F FC  Length = 4228208 BitCount = 145 ID = 270794816x
   3.760035 1  10814099x       Rx   d 4 20 44 2E 00  Length = 3058243 BitCount = 106 ID = 276906137x
   3.764477 1  106B8040x       Rx   d 8 00 00 00 00 00 00 00 00  Length = 4318223 BitCount = 148 ID = 275480640x
   3.769548 1  13FFE040x       Rx   d 0  Length = 2068260 BitCount = 73 ID = 335536192x
   3.776722 1  102CA040x       Rx   d 8 00 40 0C 5C 30 00 F1 00  Length = 4108223 BitCount = 141 ID = 271360064x
   3.796765 1  10264040x       Rx   d 8 04 06 00 00 00 00 00 4C  Length = 4194562 BitCount = 144 ID = 270942272x
   3.799800 1  106B0040x       Rx   d 1 00  Length = 2308248 BitCount = 81 ID = 275447872x
   3.806849 1  10210040x       Rx   d 8 00 00 00 00 00 00 00 00  Length = 4284562 BitCount = 147 ID = 270598208x
   3.816905 1  10220040x       Rx   d 8 10 00 00 00 00 06 00 00  Length = 4288208 BitCount = 147 ID = 270663744x
   3.826690 1  1022E040x       Rx   d 8 30 00 00 00 70 01 0C D2  Length = 4168208 BitCount = 143 ID = 270721088x
   3.836804 1  10230040x       Rx   d 8 00 00 00 00 00 00 00 00  Length = 4288208 BitCount = 147 ID = 270729280x
   3.856757 1  1022A040x       Rx   d 8 00 B0 00 12 42 00 00 22  Length = 4134566 BitCount = 142 ID = 270704704x
   3.861232 1  1022C040x       Rx   d 6 00 10 00 20 00 00  Length = 3688216 BitCount = 127 ID = 270712896x
   3.866847 1  10240040x       Rx   d 8 83 FD 88 01 01 06 0F FC  Length = 4228208 BitCount = 145 ID = 270794816x
   3.870840 1  10708040x       Rx   d 5 02 24 02 24 3F  Length = 3328224 BitCount = 115 ID = 275808320x
   3.876394 1  10248040x       Rx   d 7 00 00 6C D6 CC 01 00  Length = 3838212 BitCount = 132 ID = 270827584x
   3.881733 1  102CA040x       Rx   d 8 00 40 0C 72 30 00 F1 00  Length = 4134566 BitCount = 142 ID = 271360064x
   3.886718 1  102CC040x       Rx   d 8 00 09 CF 67 00 87 06 B6  Length = 4078212 BitCount = 140 ID = 271368256x
   3.890406 1  10734099x       Rx   d 6 24 42 00 7D 00 00  Length = 3564590 BitCount = 123 ID = 275988633x
   3.896741 1  10264040x       Rx   d 8 04 06 00 00 00 00 00 31  Length = 4198208 BitCount = 144 ID = 270942272x
   3.901814 1  102CE040x       Rx   d 8 90 00 66 7F 01 00 26 B1  Length = 4078212 BitCount = 140 ID = 271376448x
   3.906857 1  10210040x       Rx   d 8 00 00 00 00 00 00 00 00  Length = 4288208 BitCount = 147 ID = 270598208x
   3.916939 1  10220040x       Rx   d 8 10 00 00 00 00 04 00 00  Length = 4318223 BitCount = 148 ID = 270663744x
   3.919822 1  106B0040x       Rx   d 1 00  Length = 2308248 BitCount = 81 ID = 275447872x
   3.926664 1  1022E040x       Rx   d 8 10 00 00 00 50 01 0C D2  Length = 4134566 BitCount = 142 ID = 270721088x
   3.931915 1  10780040x       Rx   d 8 00 00 01 04 08 00 00 22  Length = 4284562 BitCount = 147 ID = 276299840x
   3.936176 1  C800040x        Rx   d 6 08 CB 00 00 9D A3  Length = 3594590 BitCount = 124 ID = 209715264x
   3.941791 1  10230040x       Rx   d 8 20 00 00 00 20 00 00 00  Length = 4258223 BitCount = 146 ID = 270729280x
   3.947854 1  13FFE058x       Rx   d 0  Length = 2098256 BitCount = 74 ID = 335536216x
   3.956857 1  10240040x       Rx   d 8 83 FD 88 01 01 06 0F FC  Length = 4228208 BitCount = 145 ID = 270794816x
   3.961900 1  106B8040x       Rx   d 8 00 00 00 00 00 00 00 00  Length = 4318223 BitCount = 148 ID = 275480640x
   3.965893 1  102C0040x       Rx   d 5 AE EF 44 59 03  Length = 3298224 BitCount = 114 ID = 271319104x
   3.976788 1  102CA040x       Rx   d 8 00 40 0C CC 30 00 F1 00  Length = 4168208 BitCount = 143 ID = 271360064x
   3.988487 1  10304058x       Rx   d 3 44 59 01  Length = 2728236 BitCount = 95 ID = 271597656x
   3.996861 1  10264040x       Rx   d 8 04 06 00 00 00 00 00 48  Length = 4228208 BitCount = 145 ID = 270942272x
   4.000520 1  10734099x       Rx   d 6 24 43 00 7D 00 00  Length = 3534590 BitCount = 122 ID = 275988633x
   4.002536 Li SleepModeEvent 0 entering sleep mode due to bus idle timeout
   4.004937 1  1043A040x       Rx   d 8 00 00 3B 00 00 00 00 00  Length = 4291869 BitCount = 147 ID = 272867392x
   4.007845 1  10308060x       Rx   d 3 44 59 01  Length = 2784653 BitCount = 97 ID = 271614048x
   4.012254 1  10210040x       Rx   d 8 00 00 00 00 00 00 00 00  Length = 4284573 BitCount = 147 ID = 270598208x
   4.015979 1  108E0080x       Rx   d 6 0E 01 17 02 0E E7  Length = 3598231 BitCount = 124 ID = 277741696x
   4.020418 1  10220040x       Rx   d 8 10 00 00 00 00 08 00 00  Length = 4314558 BitCount = 148 ID = 270663744x
   4.026814 1  1022E040x       Rx   d 8 30 00 00 00 70 01 0C D2  Length = 4168223 BitCount = 143 ID = 270721088x
   4.029693 1  10306099x       Rx   d 3 44 59 01  Length = 2754642 BitCount = 96 ID = 271605913x
   4.033834 1  1080A040x       Rx   d 7 00 00 00 00 00 00 00  Length = 4014570 BitCount = 138 ID = 276865088x
   4.037585 1  62C             Rx   d 8 00 40 00 00 00 00 00 00  Length = 3624601 BitCount = 125 ID = 1580
   4.041994 1  10230040x       Rx   d 8 00 00 00 00 00 00 00 00  Length = 4284562 BitCount = 147 ID = 270729280x
   4.045684 1  631             Rx   d 8 00 40 00 00 00 00 00 00  Length = 3564605 BitCount = 123 ID = 1585
   4.046788 1  Statistic: D 4 R 0 XD 164 XR 0 E 2 O 0 B 65.38%
   4.046788 2  Statistic: D 0 R 0 XD 0 XR 0 E 0 O 0 B 0.00%
   4.046788 3  Statistic: D 0 R 0 XD 0 XR 0 E 0 O 0 B 0.00%
   4.048117 1  106B0040x       Rx   d 1 00  Length = 2308263 BitCount = 81 ID = 275447872x
   4.056851 1  10240040x       Rx   d 8 83 FD 88 01 01 06 0F FC  Length = 4228223 BitCount = 145 ID = 270794816x
   4.076776 1  102CA040x       Rx   d 8 00 40 0D 08 2F 00 F1 00  Length = 4134566 BitCount = 142 ID = 271360064x
   4.096945 1  10264040x       Rx   d 8 04 06 00 00 00 00 00 47  Length = 4228223 BitCount = 145 ID = 270942272x
   4.101267 1  13FFE0AFx       Rx   d 0  Length = 2068260 BitCount = 73 ID = 335536303x
   4.106909 1  10210040x       Rx   d 8 00 00 00 00 00 00 00 00  Length = 4288223 BitCount = 147 ID = 270598208x
   4.111774 1  1022A040x       Rx   d 8 00 B0 00 12 42 00 00 22  Length = 4138208 BitCount = 142 ID = 270704704x
   4.117025 1  10220040x       Rx   d 8 10 00 00 00 00 08 00 00  Length = 4318208 BitCount = 148 ID = 270663744x
   4.121287 1  1022C040x       Rx   d 6 00 10 00 20 00 00  Length = 3688216 BitCount = 127 ID = 270712896x
   4.126714 1  1022E040x       Rx   d 8 10 00 00 00 50 01 0C D2  Length = 4134566 BitCount = 142 ID = 270721088x
   4.130165 1  10250040x       Rx   d 2 02 3F  Length = 2574658 BitCount = 90 ID = 270860352x
   4.136860 1  10230040x       Rx   d 8 20 00 00 00 20 00 00 00  Length = 4258208 BitCount = 146 ID = 270729280x
   4.141752 1  102CC040x       Rx   d 8 00 09 CF 67 00 87 06 A9  Length = 4048212 BitCount = 139 ID = 271368256x
   4.146915 1  102CE040x       Rx   d 8 90 00 66 7F 01 00 26 AA  Length = 4078212 BitCount = 140 ID = 271376448x
   4.151746 1  102D0040x       Rx   d 8 01 69 01 ED 7C 99 00 FF  Length = 4108212 BitCount = 141 ID = 271384640x
   4.156879 1  10240040x       Rx   d 8 83 FE 88 01 01 06 0F FC  Length = 4228223 BitCount = 145 ID = 270794816x
   4.161830 1  102E0040x       Rx   d 8 00 33 CA 72 8A 00 62 81  Length = 4138223 BitCount = 142 ID = 271450176x
   4.166090 1  10466040x       Rx   d 5 00 00 00 00 00  Length = 3444598 BitCount = 119 ID = 273047616x
   4.169751 1  10734099x       Rx   d 6 24 43 00 7D 00 00  Length = 3534590 BitCount = 122 ID = 275988633x
   4.172181 1  106B0040x       Rx   d 1 00  Length = 2304686 BitCount = 81 ID = 275447872x
   4.176806 1  102CA040x       Rx   d 8 00 40 0C DF 2E 00 F1 00  Length = 4108212 BitCount = 141 ID = 271360064x
   4.181937 1  106B8040x       Rx   d 8 00 00 00 00 00 00 00 00  Length = 4314558 BitCount = 148 ID = 275480640x
   4.186412 1  C800040x        Rx   d 6 08 CB 00 00 9D A6  Length = 3628231 BitCount = 125 ID = 209715264x
   4.191038 1  106C0040x       Rx   d 5 00 06 0F 07 00  Length = 3448220 BitCount = 119 ID = 275513408x
   4.196951 1  10264040x       Rx   d 8 04 06 00 00 00 00 00 2E  Length = 4228208 BitCount = 145 ID = 270942272x
   4.200854 1  1077C040x       Rx   d 4 30 30 01 F4  Length = 3148224 BitCount = 109 ID = 276283456x
   4.206943 1  10210040x       Rx   d 8 00 00 00 00 00 00 00 00  Length = 4284562 BitCount = 147 ID = 270598208x
   4.211958 1  10780040x       Rx   d 8 00 00 01 04 08 00 00 22  Length = 4288208 BitCount = 147 ID = 276299840x
   4.216940 1  10220040x       Rx   d 8 10 00 00 00 00 06 00 00  Length = 4288223 BitCount = 147 ID = 270663744x
   4.221409 1  10788040x       Rx   d 6 08 00 00 00 00 00  Length = 3774582 BitCount = 130 ID = 276332608x
   4.226784 1  1022E040x       Rx   d 8 30 00 00 00 70 01 0C D2  Length = 4168208 BitCount = 143 ID = 270721088x
   4.231047 1  10806040x       Rx   d 5 00 00 00 00 19  Length = 3418220 BitCount = 118 ID = 276848704x
   4.236900 1  10230040x       Rx   d 8 00 00 00 00 00 00 00 00  Length = 4288223 BitCount = 147 ID = 270729280x
   4.246923 1  1043A040x       Rx   d 8 00 00 3B 00 00 00 00 00  Length = 4288208 BitCount = 147 ID = 272867392x
   4.256857 1  10240040x       Rx   d 8 83 FC 88 01 01 06 0F FC  Length = 4198208 BitCount = 144 ID = 270794816x
   4.265922 1  102C0040x       Rx   d 5 AE EF 44 59 03  Length = 3298239 BitCount = 114 ID = 271319104x
   4.276818 1  102CA040x       Rx   d 8 00 40 0C D9 2E 00 F1 00  Length = 4078212 BitCount = 140 ID = 271360064x
   4.285011 1  10308060x       Rx   d 3 44 59 01  Length = 2788236 BitCount = 97 ID = 271614048x
   4.287441 1  106B0040x       Rx   d 1 00  Length = 2304686 BitCount = 81 ID = 275447872x
   4.290293 1  10304058x       Rx   d 3 44 59 01  Length = 2724657 BitCount = 95 ID = 271597656x
   4.296927 1  10264040x       Rx   d 8 04 06 00 00 00 00 00 43  Length = 4228208 BitCount = 145 ID = 270942272x
   4.306949 1  10210040x       Rx   d 8 00 00 00 00 00 00 00 00  Length = 4288208 BitCount = 147 ID = 270598208x
   4.317004 1  10220040x       Rx   d 8 10 00 00 00 00 04 00 00  Length = 4318208 BitCount = 148 ID = 270663744x
   4.326758 1  1022E040x       Rx   d 8 10 00 00 00 50 01 0C D2  Length = 4138223 BitCount = 142 ID = 270721088x
   4.329638 1  10306099x       Rx   d 3 44 59 01  Length = 2754642 BitCount = 96 ID = 271605913x
   4.336873 1  10230040x       Rx   d 8 20 00 00 00 20 00 00 00  Length = 4258208 BitCount = 146 ID = 270729280x
   4.349319 1  10324058x       Rx   d 6 00 00 03 FF 00 00  Length = 3684586 BitCount = 127 ID = 271728728x
   4.356823 1  1022A040x       Rx   d 8 00 B0 00 12 42 00 00 22  Length = 4138223 BitCount = 142 ID = 270704704x
   4.361356 1  1022C040x       Rx   d 6 00 10 00 20 00 00  Length = 3688216 BitCount = 127 ID = 270712896x
   4.367032 1  10240040x       Rx   d 8 83 FD 88 01 01 06 0F FC  Length = 4228208 BitCount = 145 ID = 270794816x
   4.371985 1  106B8040x       Rx   d 8 00 00 00 00 00 00 00 00  Length = 4318208 BitCount = 148 ID = 275480640x
   4.376518 1  10248040x       Rx   d 7 00 00 6C D6 CC 0E 00  Length = 3868212 BitCount = 133 ID = 270827584x
   4.381833 1  102CA040x       Rx   d 8 00 40 0C E9 2E 00 F1 00  Length = 4108212 BitCount = 141 ID = 271360064x
   4.386789 1  102CC040x       Rx   d 8 00 09 CF 67 00 87 06 AE  Length = 4048212 BitCount = 139 ID = 271368256x
   4.396991 1  10264040x       Rx   d 8 04 06 00 00 00 00 00 3F  Length = 4258208 BitCount = 146 ID = 270942272x
   4.401824 1  102CE040x       Rx   d 8 90 00 66 7F 01 00 26 AD  Length = 4108212 BitCount = 141 ID = 271376448x
   4.405276 1  10448060x       Rx   d 4 00 00 45 00  Length = 3058228 BitCount = 106 ID = 272924768x
   4.409684 1  10210040x       Rx   d 8 00 00 00 00 00 00 00 00  Length = 4284562 BitCount = 147 ID = 270598208x
   4.417068 1  10220040x       Rx   d 8 10 00 00 00 00 07 00 00  Length = 4318208 BitCount = 148 ID = 270663744x
   4.419953 1  106B0040x       Rx   d 1 00  Length = 2308263 BitCount = 81 ID = 275447872x
   4.424332 1  13FFE060x       Rx   d 0  Length = 2094725 BitCount = 74 ID = 335536224x
   4.428627 1  1022E040x       Rx   d 8 30 00 00 00 70 01 0C D2  Length = 4168208 BitCount = 143 ID = 270721088x
   4.436308 1  C800040x        Rx   d 6 08 CB 00 00 9D AA  Length = 3598216 BitCount = 124 ID = 209715264x
   4.438500 1  13FFE080x       Rx   d 0  Length = 2068260 BitCount = 73 ID = 335536256x
   4.442914 1  10230040x       Rx   d 8 00 00 00 00 00 00 00 00  Length = 4288208 BitCount = 147 ID = 270729280x
   4.452040 1  10780040x       Rx   d 8 00 00 01 04 08 00 00 22  Length = 4288208 BitCount = 147 ID = 276299840x
   4.456933 1  10240040x       Rx   d 8 83 FE 88 01 01 06 0F FC  Length = 4228208 BitCount = 145 ID = 270794816x
   4.459126 1  13FFE099x       Rx   d 0  Length = 2068260 BitCount = 73 ID = 335536281x
   4.476892 1  102CA040x       Rx   d 8 00 40 0C E1 2D 00 F1 00  Length = 4138223 BitCount = 142 ID = 271360064x
   4.496969 1  10264040x       Rx   d 8 04 06 00 00 00 00 00 3E  Length = 4228223 BitCount = 145 ID = 270942272x
   4.502130 1  1043A040x       Rx   d 8 00 00 37 00 00 00 00 00  Length = 4314558 BitCount = 148 ID = 272867392x
   4.506995 1  10210040x       Rx   d 8 00 00 00 00 00 00 00 00  Length = 4288208 BitCount = 147 ID = 270598208x
   4.517080 1  10220040x       Rx   d 8 10 00 00 00 00 05 00 00  Length = 4288208 BitCount = 147 ID = 270663744x
   4.526804 1  1022E040x       Rx   d 8 10 00 00 00 50 01 0C D2  Length = 4138208 BitCount = 142 ID = 270721088x
   4.536918 1  10230040x       Rx   d 8 20 00 00 00 20 00 00 00  Length = 4258208 BitCount = 146 ID = 270729280x
   4.540042 1  106B0040x       Rx   d 1 00  Length = 2308263 BitCount = 81 ID = 275447872x
   4.557027 1  10240040x       Rx   d 8 83 FD 88 01 01 06 0F FC  Length = 4228208 BitCount = 145 ID = 270794816x
   4.562041 1  106B8040x       Rx   d 8 00 00 00 00 00 00 00 00  Length = 4318208 BitCount = 148 ID = 275480640x
   4.565972 1  102C0040x       Rx   d 5 AE EF 44 59 03  Length = 3298224 BitCount = 114 ID = 271319104x
   4.576898 1  102CA040x       Rx   d 8 00 40 0C E3 2D 00 F1 00  Length = 4108212 BitCount = 141 ID = 271360064x
   4.586321 1  621             Rx   d 8 00 52 00 00 00 00 00 00  Length = 3598216 BitCount = 124 ID = 1569
   4.589170 1  10304058x       Rx   d 3 44 59 01  Length = 2724642 BitCount = 95 ID = 271597656x
   4.596969 1  10264040x       Rx   d 8 04 06 00 00 00 00 00 29  Length = 4224562 BitCount = 145 ID = 270942272x
   4.604981 1  10308060x       Rx   d 3 44 59 01  Length = 2784638 BitCount = 97 ID = 271614048x
   4.609390 1  10210040x       Rx   d 8 00 00 00 00 00 00 00 00  Length = 4284562 BitCount = 147 ID = 270598208x
   4.617102 1  10220040x       Rx   d 8 10 00 00 00 00 05 00 00  Length = 4284573 BitCount = 147 ID = 270663744x
   4.621907 1  1022A040x       Rx   d 8 00 B0 00 12 42 00 00 22  Length = 4138208 BitCount = 142 ID = 270704704x
   4.626410 1  1022C040x       Rx   d 6 00 10 00 20 00 00  Length = 3688216 BitCount = 127 ID = 270712896x
   4.629291 1  10306099x       Rx   d 3 44 59 01  Length = 2754642 BitCount = 96 ID = 271605913x
   4.633584 1  1022E040x       Rx   d 8 30 00 00 00 70 01 0C D2  Length = 4168208 BitCount = 143 ID = 270721088x
   4.642016 1  10230040x       Rx   d 8 00 00 00 00 00 00 00 00  Length = 4288208 BitCount = 147 ID = 270729280x
   4.645289 1  10250040x       Rx   d 2 06 40  Length = 2578240 BitCount = 90 ID = 270860352x
   4.651830 1  102CC040x       Rx   d 8 00 09 CF 67 00 87 06 AD  Length = 4048212 BitCount = 139 ID = 271368256x
   4.657054 1  10240040x       Rx   d 8 83 FE 88 01 01 06 0F FC  Length = 4228208 BitCount = 145 ID = 270794816x
   4.661885 1  102CE040x       Rx   d 8 90 00 66 7F 01 00 26 AE  Length = 4108212 BitCount = 141 ID = 271376448x
   4.666928 1  102D0040x       Rx   d 8 01 69 01 ED 7C 96 00 FF  Length = 4108212 BitCount = 141 ID = 271384640x
   4.670586 1  10734099x       Rx   d 6 24 43 00 7D 00 00  Length = 3534590 BitCount = 122 ID = 275988633x
   4.673020 1  106B0040x       Rx   d 1 00  Length = 2308248 BitCount = 81 ID = 275447872x
   4.681873 1  102CA040x       Rx   d 8 00 40 0C EA 2D 00 F1 00  Length = 4078212 BitCount = 140 ID = 271360064x
   4.686529 1  C800040x        Rx   d 6 08 CB 00 00 9D AD  Length = 3628216 BitCount = 125 ID = 209715264x
   4.692082 1  10780040x       Rx   d 8 00 00 01 04 08 00 00 22  Length = 4288208 BitCount = 147 ID = 276299840x
   4.697035 1  10264040x       Rx   d 8 04 06 00 00 00 00 00 3E  Length = 4228208 BitCount = 145 ID = 270942272x
   4.701535 1  10788040x       Rx   d 6 08 00 00 00 00 00  Length = 3774582 BitCount = 130 ID = 276332608x
   4.703700 1  13FFE0BBx       Rx   d 0  Length = 2038275 BitCount = 72 ID = 335536315x
   4.708108 1  10210040x       Rx   d 8 00 00 00 00 00 00 00 00  Length = 4284562 BitCount = 147 ID = 270598208x
   4.717174 1  10220040x       Rx   d 8 10 00 00 00 00 08 00 00  Length = 4318223 BitCount = 148 ID = 270663744x
   4.721167 1  10806040x       Rx   d 5 00 00 00 00 19  Length = 3418235 BitCount = 118 ID = 276848704x
   4.726900 1  1022E040x       Rx   d 8 10 00 00 00 50 01 0C D2  Length = 4138208 BitCount = 142 ID = 270721088x
   4.736985 1  10230040x       Rx   d 8 20 00 00 00 20 00 00 00  Length = 4258223 BitCount = 146 ID = 270729280x
   4.747067 1  1043A040x       Rx   d 8 00 00 37 00 00 00 00 00  Length = 4318208 BitCount = 148 ID = 272867392x
   4.757002 1  10240040x       Rx   d 8 83 FE 88 01 01 06 0F FC  Length = 4228208 BitCount = 145 ID = 270794816x
   4.762073 1  106B8040x       Rx   d 8 00 00 00 00 00 00 00 00  Length = 4314558 BitCount = 148 ID = 275480640x
   4.776900 1  102CA040x       Rx   d 8 00 40 0C E2 2D 00 F1 00  Length = 4078212 BitCount = 140 ID = 271360064x
   4.785067 1  106B0040x       Rx   d 1 00  Length = 2308248 BitCount = 81 ID = 275447872x
   4.796951 1  10264040x       Rx   d 8 04 06 00 00 00 00 00 3D  Length = 4198208 BitCount = 144 ID = 270942272x
   4.800555 1  13FFE068x       Rx   d 0  Length = 2068275 BitCount = 73 ID = 335536232x
   4.807064 1  10210040x       Rx   d 8 00 00 00 00 00 00 00 00  Length = 4284562 BitCount = 147 ID = 270598208x
   4.817180 1  10220040x       Rx   d 8 10 00 00 00 00 08 00 00  Length = 4318208 BitCount = 148 ID = 270663744x
   4.819877 1  106D0080x       Rx   d 2 00 00  Length = 2574658 BitCount = 90 ID = 275579008x
   4.826903 1  1022E040x       Rx   d 8 30 00 00 00 70 01 0C D2  Length = 4168208 BitCount = 143 ID = 270721088x
   4.837019 1  10230040x       Rx   d 8 00 00 00 00 00 00 00 00  Length = 4288208 BitCount = 147 ID = 270729280x
   4.856972 1  1022A040x       Rx   d 8 00 B0 00 12 42 00 00 22  Length = 4134566 BitCount = 142 ID = 270704704x
   4.861447 1  1022C040x       Rx   d 6 00 10 00 20 00 00  Length = 3688216 BitCount = 127 ID = 270712896x
   4.867062 1  10240040x       Rx   d 8 83 FD 88 01 01 06 0F FC  Length = 4228208 BitCount = 145 ID = 270794816x
   4.871055 1  102C0040x       Rx   d 5 AE EF 44 59 03  Length = 3298224 BitCount = 114 ID = 271319104x
   4.876638 1  10248040x       Rx   d 7 00 00 6C D6 CC 0F 00  Length = 3838212 BitCount = 132 ID = 270827584x
   4.881918 1  102CA040x       Rx   d 8 00 40 0D 13 2D 00 F1 00  Length = 4074566 BitCount = 140 ID = 271360064x
   4.885043 1  10308060x       Rx   d 3 44 59 01  Length = 2788236 BitCount = 97 ID = 271614048x
   4.889216 1  102CC040x       Rx   d 8 00 09 CF 67 00 87 06 A9  Length = 4048227 BitCount = 139 ID = 271368256x
   4.897134 1  10264040x       Rx   d 8 04 06 00 00 00 00 00 3F  Length = 4254562 BitCount = 146 ID = 270942272x
   4.899984 1  10304058x       Rx   d 3 44 59 01  Length = 2724657 BitCount = 95 ID = 271597656x
   4.904187 1  102CE040x       Rx   d 8 90 00 66 7F 00 00 26 AA  Length = 4078212 BitCount = 140 ID = 271376448x
   4.912105 1  10210040x       Rx   d 8 00 00 00 00 00 00 00 00  Length = 4284562 BitCount = 147 ID = 270598208x
   4.917150 1  10220040x       Rx   d 8 10 00 00 00 00 05 00 00  Length = 4288208 BitCount = 147 ID = 270663744x
   4.920091 1  106B0040x       Rx   d 1 00  Length = 2308248 BitCount = 81 ID = 275447872x
   4.926907 1  1022E040x       Rx   d 8 10 00 00 00 50 01 0C D2  Length = 4138208 BitCount = 142 ID = 270721088x
   4.929783 1  10306099x       Rx   d 3 44 59 01  Length = 2754642 BitCount = 96 ID = 271605913x
   4.934193 1  10780040x       Rx   d 8 00 00 01 04 08 00 00 22  Length = 4284562 BitCount = 147 ID = 276299840x
   4.941428 1  C800040x        Rx   d 6 08 CB 00 00 9D B0  Length = 3598216 BitCount = 124 ID = 209715264x
   4.947043 1  10230040x       Rx   d 8 30 00 00 00 30 00 00 00  Length = 4258208 BitCount = 146 ID = 270729280x
   4.957068 1  10240040x       Rx   d 8 83 FE 88 01 01 06 0F FC  Length = 4228208 BitCount = 145 ID = 270794816x
   4.962141 1  106B8040x       Rx   d 8 00 00 00 00 00 00 00 00  Length = 4318208 BitCount = 148 ID = 275480640x
   4.964898 1  13FFE040x       Rx   d 0  Length = 2064714 BitCount = 73 ID = 335536192x
   4.976991 1  102CA040x       Rx   d 8 00 40 0D 05 2D 00 F1 00  Length = 4134566 BitCount = 142 ID = 271360064x
   4.997099 1  10264040x       Rx   d 8 04 06 00 00 00 00 00 29  Length = 4228208 BitCount = 145 ID = 270942272x
   5.000819 1  108E0080x       Rx   d 6 0E 01 17 02 0E E8  Length = 3594590 BitCount = 124 ID = 277741696x
   5.005293 1  1043A040x       Rx   d 8 00 00 38 00 00 00 00 00  Length = 4348208 BitCount = 149 ID = 272867392x
   5.012135 1  10210040x       Rx   d 8 00 00 00 00 00 00 00 00  Length = 4284562 BitCount = 147 ID = 270598208x
   5.017150 1  10220040x       Rx   d 8 10 00 00 00 00 04 00 00  Length = 4318223 BitCount = 148 ID = 270663744x
   5.021831 1  1080A040x       Rx   d 7 00 00 00 00 00 00 00  Length = 4018212 BitCount = 138 ID = 276865088x
   5.027023 1  1022E040x       Rx   d 8 30 00 00 00 70 01 0C D2  Length = 4164566 BitCount = 143 ID = 270721088x
   5.037079 1  10230040x       Rx   d 8 00 00 00 00 00 00 00 00  Length = 4288208 BitCount = 147 ID = 270729280x
   5.040112 1  106B0040x       Rx   d 1 00  Length = 2308263 BitCount = 81 ID = 275447872x
   5.046788 1  Statistic: D 1 R 0 XD 152 XR 0 E 0 O 0 B 59.46%
   5.046788 2  Statistic: D 0 R 0 XD 0 XR 0 E 0 O 0 B 0.00%
   5.046788 3  Statistic: D 0 R 0 XD 0 XR 0 E 0 O 0 B 0.00%
   5.057068 1  10240040x       Rx   d 8 83 FD 88 01 01 06 0F FC  Length = 4228208 BitCount = 145 ID = 270794816x
   5.077055 1  102CA040x       Rx   d 8 00 40 0D 04 2D 00 D0 00  Length = 4168223 BitCount = 143 ID = 271360064x
   5.097134 1  10264040x       Rx   d 8 04 06 00 00 00 00 00 3E  Length = 4228208 BitCount = 145 ID = 270942272x
   5.105896 1  C414040x        Rx   d 4 00 01 7A 00  Length = 3054618 BitCount = 106 ID = 205602880x
   5.112135 1  10210040x       Rx   d 8 00 00 00 00 00 00 00 00  Length = 4284562 BitCount = 147 ID = 270598208x
   5.117237 1  10220040x       Rx   d 8 10 00 00 00 00 05 00 00  Length = 4284562 BitCount = 147 ID = 270663744x
   5.122012 1  1022A040x       Rx   d 8 00 B0 00 12 42 00 00 22  Length = 4138223 BitCount = 142 ID = 270704704x
   5.126541 1  1022C040x       Rx   d 6 00 10 00 20 00 00  Length = 3684586 BitCount = 127 ID = 270712896x
   5.131946 1  1022E040x       Rx   d 8 10 00 00 00 50 01 0C D2  Length = 4138208 BitCount = 142 ID = 270721088x
   5.137077 1  10230040x       Rx   d 8 20 00 00 00 20 00 00 00  Length = 4254562 BitCount = 146 ID = 270729280x
   5.140409 1  10250040x       Rx   d 2 06 40  Length = 2574658 BitCount = 90 ID = 270860352x
   5.147013 1  102CC040x       Rx   d 8 00 09 CF 67 00 87 06 A9  Length = 4048212 BitCount = 139 ID = 271368256x
   5.149236 1  13FFE058x       Rx   d 0  Length = 2098256 BitCount = 74 ID = 335536216x
   5.153469 1  102CE040x       Rx   d 8 90 00 66 7F 00 00 26 A9  Length = 4108223 BitCount = 141 ID = 271376448x
   5.162111 1  10240040x       Rx   d 8 83 FE 88 01 01 06 0F FC  Length = 4228208 BitCount = 145 ID = 270794816x
   5.166222 1  102C0040x       Rx   d 5 AE EF 44 59 03  Length = 3298224 BitCount = 114 ID = 271319104x
   5.169880 1  10734099x       Rx   d 6 24 43 00 7D 00 00  Length = 3534590 BitCount = 122 ID = 275988633x
   5.174084 1  102D0040x       Rx   d 8 01 69 01 ED 7C 95 00 FF  Length = 4078227 BitCount = 140 ID = 271384640x
   5.182098 1  102CA040x       Rx   d 8 00 40 0C FF 2D 00 D0 00  Length = 4168208 BitCount = 143 ID = 271360064x
   5.186627 1  C800040x        Rx   d 6 08 CB 00 00 9D B3  Length = 3594601 BitCount = 124 ID = 209715264x
   5.189482 1  10304058x       Rx   d 3 44 59 01  Length = 2728236 BitCount = 95 ID = 271597656x
   5.193745 1  102E0040x       Rx   d 8 00 33 CA 72 8A 00 62 81  Length = 4138208 BitCount = 142 ID = 271450176x
   5.202089 1  10264040x       Rx   d 8 04 06 00 00 00 00 00 3E  Length = 4228208 BitCount = 145 ID = 270942272x
   5.205062 1  10308060x       Rx   d 3 44 59 01  Length = 2788236 BitCount = 97 ID = 271614048x
   5.209471 1  10210040x       Rx   d 8 00 00 00 00 00 00 00 00  Length = 4284562 BitCount = 147 ID = 270598208x
   5.217243 1  10220040x       Rx   d 8 10 00 00 00 00 06 00 00  Length = 4284562 BitCount = 147 ID = 270663744x
   5.220158 1  106B0040x       Rx   d 1 00  Length = 2308248 BitCount = 81 ID = 275447872x
   5.227001 1  1022E040x       Rx   d 8 30 00 00 00 70 01 0C D2  Length = 4168223 BitCount = 143 ID = 270721088x
   5.229883 1  10306099x       Rx   d 3 44 59 01  Length = 2758236 BitCount = 96 ID = 271605913x
   5.234323 1  106B8040x       Rx   d 8 00 00 00 00 00 00 00 00  Length = 4314573 BitCount = 148 ID = 275480640x
   5.242188 1  10230040x       Rx   d 8 00 00 00 00 00 00 00 00  Length = 4288223 BitCount = 147 ID = 270729280x
   5.247174 1  1043A040x       Rx   d 8 00 00 36 00 00 00 00 00  Length = 4288223 BitCount = 147 ID = 272867392x
   5.251285 1  106C0040x       Rx   d 5 00 06 0F 07 00  Length = 3448220 BitCount = 119 ID = 275513408x
   5.257138 1  10240040x       Rx   d 8 83 FE 88 01 01 06 0F FC  Length = 4228208 BitCount = 145 ID = 270794816x
   5.260681 1  10754040x       Rx   d 3 04 03 00  Length = 2818247 BitCount = 98 ID = 276119616x
   5.265726 1  10758040x       Rx   d 3 02 00 00  Length = 2848247 BitCount = 99 ID = 276136000x
   5.271004 1  1077C040x       Rx   d 4 30 30 01 F4  Length = 3144614 BitCount = 109 ID = 276283456x
   5.277095 1  102CA040x       Rx   d 8 00 40 0C FF 2C 00 E2 00  Length = 4134566 BitCount = 142 ID = 271360064x
   5.282226 1  10780040x       Rx   d 8 00 00 01 04 08 00 00 22  Length = 4284562 BitCount = 147 ID = 276299840x
   5.286668 1  10788040x       Rx   d 6 08 00 00 00 00 00  Length = 3774582 BitCount = 130 ID = 276332608x
   5.291322 1  10806040x       Rx   d 5 00 00 00 00 19  Length = 3418220 BitCount = 118 ID = 276848704x
   5.297116 1  10264040x       Rx   d 8 04 06 00 00 00 00 00 3E  Length = 4228208 BitCount = 145 ID = 270942272x
   5.301044 1  13FFE0AFx       Rx   d 0  Length = 2064714 BitCount = 73 ID = 335536303x
   5.307198 1  10210040x       Rx   d 8 00 00 00 00 00 00 00 00  Length = 4288223 BitCount = 147 ID = 270598208x
   5.317344 1  10220040x       Rx   d 8 10 00 00 00 00 07 00 00  Length = 4318208 BitCount = 148 ID = 270663744x
   5.327003 1  1022E040x       Rx   d 8 10 00 00 00 50 01 0C D2  Length = 4134566 BitCount = 142 ID = 270721088x
   5.337209 1  10230040x       Rx   d 8 20 00 00 00 20 00 00 00  Length = 4258223 BitCount = 146 ID = 270729280x
   5.340180 1  106B0040x       Rx   d 1 00  Length = 2308248 BitCount = 81 ID = 275447872x
   5.356208 1  1020C040x       Rx   d 5 00 C4 06 C4 01  Length = 3298224 BitCount = 114 ID = 270581824x
   5.362061 1  1022A040x       Rx   d 8 00 B0 00 12 42 00 00 22  Length = 4138208 BitCount = 142 ID = 270704704x
   5.366683 1  1022C040x       Rx   d 6 00 10 00 20 00 00  Length = 3688216 BitCount = 127 ID = 270712896x
   5.372148 1  10240040x       Rx   d 8 83 FE 88 01 01 06 0F FC  Length = 4228208 BitCount = 145 ID = 270794816x
   5.376773 1  10248040x       Rx   d 7 00 00 6C D6 CC 0E 00  Length = 3868212 BitCount = 133 ID = 270827584x
   5.382082 1  102CA040x       Rx   d 8 00 40 0C DA 30 00 E2 00  Length = 4104566 BitCount = 141 ID = 271360064x
   5.387067 1  102CC040x       Rx   d 8 00 09 CE 67 00 87 06 AF  Length = 4048212 BitCount = 139 ID = 271368256x
   5.390756 1  10734099x       Rx   d 6 24 42 00 7D 00 00  Length = 3564590 BitCount = 123 ID = 275988633x
   5.395199 1  106B8040x       Rx   d 8 00 00 00 00 00 00 00 00  Length = 4318223 BitCount = 148 ID = 275480640x
   5.402221 1  10264040x       Rx   d 8 04 06 00 00 00 00 00 3D  Length = 4194562 BitCount = 144 ID = 270942272x
   5.405406 1  10448060x       Rx   d 4 00 00 45 00  Length = 3058228 BitCount = 106 ID = 272924768x
   5.409817 1  10210040x       Rx   d 8 00 00 00 00 00 00 00 00  Length = 4288223 BitCount = 147 ID = 270598208x
   5.417319 1  10220040x       Rx   d 8 10 00 00 00 00 08 00 00  Length = 4318223 BitCount = 148 ID = 270663744x
   5.422032 1  102CE040x       Rx   d 8 92 00 66 7F 00 00 26 AD  Length = 4078212 BitCount = 140 ID = 271376448x
   5.427075 1  1022E040x       Rx   d 8 30 00 00 00 70 01 0C D2  Length = 4168208 BitCount = 143 ID = 270721088x
   5.432265 1  10780040x       Rx   d 8 00 00 01 04 08 00 00 22  Length = 4284562 BitCount = 147 ID = 276299840x
   5.436556 1  C800040x        Rx   d 6 08 CB 00 00 9D B7  Length = 3594590 BitCount = 124 ID = 209715264x
   5.442171 1  10230040x       Rx   d 8 00 00 00 00 00 00 00 00  Length = 4288208 BitCount = 147 ID = 270729280x
   5.457236 1  10240040x       Rx   d 8 80 01 88 01 01 06 0F FC  Length = 4258208 BitCount = 146 ID = 270794816x
   5.460209 1  106B0040x       Rx   d 1 00  Length = 2308263 BitCount = 81 ID = 275447872x
   5.466241 1  102C0040x       Rx   d 5 AE EF 44 59 03  Length = 3294606 BitCount = 114 ID = 271319104x
   5.477137 1  102CA040x       Rx   d 8 00 40 0C CB 38 00 E2 00  Length = 4138223 BitCount = 142 ID = 271360064x
   5.484999 1  10308060x       Rx   d 3 44 59 01  Length = 2788236 BitCount = 97 ID = 271614048x
   5.488061 1  10304058x       Rx   d 3 44 59 01  Length = 2728236 BitCount = 95 ID = 271597656x
   5.497276 1  10264040x       Rx   d 8 04 06 00 00 00 00 00 29  Length = 4228208 BitCount = 145 ID = 270942272x
   5.502257 1  1043A040x       Rx   d 8 00 00 3E 00 00 00 00 00  Length = 4318208 BitCount = 148 ID = 272867392x
   5.507270 1  10210040x       Rx   d 8 00 00 00 00 00 00 00 00  Length = 4288223 BitCount = 147 ID = 270598208x
   5.517325 1  10220040x       Rx   d 8 10 00 00 00 00 06 00 00  Length = 4288208 BitCount = 147 ID = 270663744x
   5.527043 1  1022E040x       Rx   d 8 10 00 00 00 50 01 0C D2  Length = 4134566 BitCount = 142 ID = 270721088x
   5.529928 1  10306099x       Rx   d 3 44 59 01  Length = 2758251 BitCount = 96 ID = 271605913x
   5.537161 1  10230040x       Rx   d 8 20 00 00 00 20 00 00 00  Length = 4258208 BitCount = 146 ID = 270729280x
   5.557019 CAN 1 Status:chip status error active  - TxErr: 0 RxErr: 1
   5.557026 1  ErrorFrame	Flags = 0xfffe	CodeExt = 0x2072	Code = 0x81	ID = 0x90240040	DLC = 8	Position = 120	Length = 4074375	Data = 0x80  0  0x88  0x1  0x1  0x6  0xf  0xfc
