date Tue Sep 20 04:15:01.519 pm 2016
base hex  timestamps absolute
internal events logged
// version 9.0.0
Begin Triggerblock Tue Sep 20 04:15:01.519 pm 2016
   0.000000 Start of measurement
   0.002229 Li SleepModeEvent 0 starting up in wake mode
   0.011424 1  10220040x       Rx   d 8 10 00 00 00 00 03 00 00  Length = 4318223 BitCount = 148 ID = 270663744x
   0.015197 CAN 1 Status:chip status error active
   0.015197 CAN 2 Status:chip status error active
   0.015197 CAN 3 Status:chip status error active
   0.021299 1  1022E040x       Rx   d 8 30 00 00 00 30 00 00 00  Length = 4288208 BitCount = 147 ID = 270721088x
   0.024810 1  10424040x       Rx   d 3 04 8A 91  Length = 2754642 BitCount = 96 ID = 272777280x
   0.031325 1  10230040x       Rx   d 8 00 00 00 00 00 00 00 00  Length = 4288208 BitCount = 147 ID = 270729280x
   0.051342 1  1022A040x       Rx   d 8 00 B0 00 12 42 00 00 22  Length = 4138223 BitCount = 142 ID = 270704704x
   0.055757 1  1022C040x       Rx   d 6 00 10 00 20 00 00  Length = 3688216 BitCount = 127 ID = 270712896x
   0.061403 1  10240040x       Rx   d 8 83 FF 88 01 01 2C 0F FC  Length = 4198223 BitCount = 144 ID = 270794816x
   0.066416 1  106B8040x       Rx   d 8 00 00 00 00 00 00 00 00  Length = 4318208 BitCount = 148 ID = 275480640x
   0.070949 1  10248040x       Rx   d 7 00 00 6C D2 CC 1D 00  Length = 3868212 BitCount = 133 ID = 270827584x
   0.076264 1  102CA040x       Rx   d 8 00 40 0C CE 2C 00 F1 00  Length = 4138208 BitCount = 142 ID = 271360064x
   0.081220 1  102CC040x       Rx   d 8 00 09 CF 67 00 87 06 AB  Length = 4048212 BitCount = 139 ID = 271368256x
   0.091302 1  10264040x       Rx   d 8 04 06 00 00 00 00 00 3E  Length = 4228208 BitCount = 145 ID = 270942272x
   0.096195 1  102CE040x       Rx   d 8 90 00 66 7F 00 00 26 AB  Length = 4078212 BitCount = 140 ID = 271376448x
   0.101445 1  10210040x       Rx   d 8 00 00 00 00 00 00 00 00  Length = 4284562 BitCount = 147 ID = 270598208x
   0.104360 1  106B0040x       Rx   d 1 00  Length = 2308248 BitCount = 81 ID = 275447872x
   0.111409 1  10220040x       Rx   d 8 10 00 00 00 00 04 00 00  Length = 4314558 BitCount = 148 ID = 270663744x
   0.121285 1  1022E040x       Rx   d 8 10 00 00 00 10 00 00 00  Length = 4258223 BitCount = 146 ID = 270721088x
   0.126448 1  10780040x       Rx   d 8 00 00 01 04 08 00 00 22  Length = 4288208 BitCount = 147 ID = 276299840x
   0.130800 1  C800040x        Rx   d 6 08 CB 00 00 8E 9D  Length = 3598216 BitCount = 124 ID = 209715264x
   0.136411 1  10230040x       Rx   d 8 20 00 00 00 20 00 00 00  Length = 4258223 BitCount = 146 ID = 270729280x
   0.151416 1  10240040x       Rx   d 8 83 FE 88 01 01 2C 0F FC  Length = 4258208 BitCount = 146 ID = 270794816x
   0.158849 CAN 1 Status:chip status error active  - TxErr: 0 RxErr: 1
   0.158857 1  ErrorFrame	Flags = 0xfffe	CodeExt = 0x2072	Code = 0x81	ID = 0x90734099	DLC = 6	Position = 104	Length = 3414375	Data = 0x24  0x44  0  0x7d  0  0
   0.162747 CAN 1 Status:chip status error active
   0.162965 1  10734099x       Rx   d 6 24 44 00 7D 00 00  Length = 3594590 BitCount = 124 ID = 275988633x
   0.171309 1  102CA040x       Rx   d 8 00 40 0C CC 2C 00 F1 00  Length = 4168208 BitCount = 143 ID = 271360064x
   0.178691 1  10448060x       Rx   d 4 00 00 45 00  Length = 3058228 BitCount = 106 ID = 272924768x
   0.191326 1  10264040x       Rx   d 8 04 06 00 00 00 00 00 3E  Length = 4228208 BitCount = 145 ID = 270942272x
   0.196399 1  1043A040x       Rx   d 8 00 00 35 00 00 00 00 00  Length = 4288208 BitCount = 147 ID = 272867392x
   0.200207 1  10324058x       Rx   d 6 00 00 03 FF 00 00  Length = 3684586 BitCount = 127 ID = 271728728x
   0.204621 1  10210040x       Rx   d 8 00 00 00 00 00 00 00 00  Length = 4288208 BitCount = 147 ID = 270598208x
   0.206846 1  13FFE060x       Rx   d 0  Length = 2098256 BitCount = 74 ID = 335536224x
   0.209039 1  13FFE080x       Rx   d 0  Length = 2068260 BitCount = 73 ID = 335536256x
   0.213448 1  10220040x       Rx   d 8 10 00 00 00 00 06 00 00  Length = 4284573 BitCount = 147 ID = 270663744x
   0.221434 1  1022E040x       Rx   d 8 30 00 00 00 30 00 00 00  Length = 4288208 BitCount = 147 ID = 270721088x
   0.224439 1  106B0040x       Rx   d 1 00  Length = 2308263 BitCount = 81 ID = 275447872x
   0.227501 1  13FFE099x       Rx   d 0  Length = 2068260 BitCount = 73 ID = 335536281x
   0.231910 1  10230040x       Rx   d 8 00 00 00 00 00 00 00 00  Length = 4284562 BitCount = 147 ID = 270729280x
   0.251419 1  10240040x       Rx   d 8 83 FE 88 01 01 2C 0F FC  Length = 4258223 BitCount = 146 ID = 270794816x
   0.256462 1  106B8040x       Rx   d 8 00 00 00 00 00 00 00 00  Length = 4318208 BitCount = 148 ID = 275480640x
   0.260393 1  102C0040x       Rx   d 5 AE EF 44 59 03  Length = 3298224 BitCount = 114 ID = 271319104x
   0.271348 1  102CA040x       Rx   d 8 00 40 0C D5 2C 00 F1 00  Length = 4168208 BitCount = 143 ID = 271360064x
   0.274917 1  10424040x       Rx   d 3 04 8A 90  Length = 2814638 BitCount = 98 ID = 272777280x
   0.287424 1  10304058x       Rx   d 3 44 59 01  Length = 2724642 BitCount = 95 ID = 271597656x
   0.291773 1  10264040x       Rx   d 8 04 06 00 00 00 00 00 3E  Length = 4224577 BitCount = 145 ID = 270942272x
   0.298163 1  10306099x       Rx   d 3 44 59 01  Length = 2754642 BitCount = 96 ID = 271605913x
   0.302573 1  10210040x       Rx   d 8 00 00 00 00 00 00 00 00  Length = 4284562 BitCount = 147 ID = 270598208x
   0.305488 1  10308060x       Rx   d 3 44 59 01  Length = 2788247 BitCount = 97 ID = 271614048x
   0.311432 1  10220040x       Rx   d 8 10 00 00 00 00 05 00 00  Length = 4288223 BitCount = 147 ID = 270663744x
   0.316295 1  1022A040x       Rx   d 8 00 B0 00 12 42 00 00 22  Length = 4138208 BitCount = 142 ID = 270704704x
   0.320822 1  1022C040x       Rx   d 6 00 10 00 20 00 00  Length = 3684586 BitCount = 127 ID = 270712896x
   0.326377 1  1022E040x       Rx   d 8 10 00 00 00 10 00 00 00  Length = 4258208 BitCount = 146 ID = 270721088x
   0.331450 1  10230040x       Rx   d 8 20 00 00 00 20 00 00 00  Length = 4258208 BitCount = 146 ID = 270729280x
   0.336253 1  102CC040x       Rx   d 8 00 09 CF 67 00 87 06 AB  Length = 4048212 BitCount = 139 ID = 271368256x
   0.341293 1  102CE040x       Rx   d 8 90 00 66 7F 00 00 26 AB  Length = 4074566 BitCount = 140 ID = 271376448x
   0.346308 1  102D0040x       Rx   d 8 01 69 01 ED 7C 98 00 FF  Length = 4138208 BitCount = 142 ID = 271384640x
   0.351499 1  10240040x       Rx   d 8 83 FE 88 01 01 2C 0F FC  Length = 4258208 BitCount = 146 ID = 270794816x
   0.354410 1  106B0040x       Rx   d 1 00  Length = 2308248 BitCount = 81 ID = 275447872x
   0.360465 CAN 1 Status:chip status error active  - TxErr: 0 RxErr: 1
   0.360472 1  ErrorFrame	Flags = 0xfffe	CodeExt = 0x2072	Code = 0x81	ID = 0x90806040	DLC = 5	Position = 96	Length = 3234390	Data = 0  0  0  0  0x19
   0.364183 CAN 1 Status:chip status error active
   0.364401 1  10806040x       Rx   d 5 00 00 00 00 19  Length = 3414598 BitCount = 118 ID = 276848704x
   0.371366 1  102CA040x       Rx   d 8 00 40 0C AE 2C 00 F1 00  Length = 4138208 BitCount = 142 ID = 271360064x
   0.376498 1  10780040x       Rx   d 8 00 00 01 04 08 00 00 22  Length = 4284562 BitCount = 147 ID = 276299840x
   0.380879 1  C800040x        Rx   d 6 08 CB 00 00 8E A0  Length = 3624586 BitCount = 125 ID = 209715264x
   0.385924 1  10788040x       Rx   d 6 08 00 00 00 00 00  Length = 3778216 BitCount = 130 ID = 276332608x
   0.391381 1  10264040x       Rx   d 8 04 06 00 00 00 00 00 29  Length = 4224577 BitCount = 145 ID = 270942272x
   0.401435 1  10210040x       Rx   d 8 00 00 00 00 00 00 00 00  Length = 4288208 BitCount = 147 ID = 270598208x
   0.411460 1  10220040x       Rx   d 8 10 00 00 00 00 04 00 00  Length = 4318208 BitCount = 148 ID = 270663744x
   0.421394 1  1022E040x       Rx   d 8 30 00 00 00 30 00 00 00  Length = 4288208 BitCount = 147 ID = 270721088x
   0.431421 1  10230040x       Rx   d 8 00 00 00 00 00 00 00 00  Length = 4288208 BitCount = 147 ID = 270729280x
   0.439042 1  10734099x       Rx   d 6 24 44 00 7D 00 00  Length = 3598231 BitCount = 124 ID = 275988633x
   0.443452 1  1043A040x       Rx   d 8 00 00 36 00 00 00 00 00  Length = 4284562 BitCount = 147 ID = 272867392x
   0.451408 1  10240040x       Rx   d 8 83 FF 88 01 01 2C 0F FC  Length = 4198223 BitCount = 144 ID = 270794816x
   0.456509 1  106B8040x       Rx   d 8 00 00 00 00 00 00 00 00  Length = 4314558 BitCount = 148 ID = 275480640x
   0.471175 CAN 1 Status:chip status error active  - TxErr: 0 RxErr: 1
   0.471183 1  ErrorFrame	Flags = 0xfffe	CodeExt = 0x2072	Code = 0x81	ID = 0x902ca040	DLC = 8	Position = 120	Length = 3954375	Data = 0  0x40  0xc  0xbd  0x2c  0  0xf1  0
   0.475614 CAN 1 Status:chip status error active
   0.475832 1  102CA040x       Rx   d 8 00 40 0C BD 2C 00 F1 00  Length = 4134581 BitCount = 142 ID = 271360064x
   0.479497 1  106B0040x       Rx   d 1 00  Length = 2308263 BitCount = 81 ID = 275447872x
   0.491413 1  10264040x       Rx   d 8 04 06 00 00 00 00 00 3B  Length = 4228208 BitCount = 145 ID = 270942272x
   0.501466 1  10210040x       Rx   d 8 00 00 00 00 00 00 00 00  Length = 4288208 BitCount = 147 ID = 270598208x
   0.511520 1  10220040x       Rx   d 8 10 00 00 00 00 07 00 00  Length = 4318208 BitCount = 148 ID = 270663744x
   0.521394 1  1022E040x       Rx   d 8 10 00 00 00 10 00 00 00  Length = 4258208 BitCount = 146 ID = 270721088x
   0.528474 1  10814099x       Rx   d 4 20 44 2E 00  Length = 3054618 BitCount = 106 ID = 276906137x
   0.532856 1  10230040x       Rx   d 8 20 00 00 00 20 00 00 00  Length = 4254562 BitCount = 146 ID = 270729280x
   0.548968 1  10734099x       Rx   d 6 24 43 00 7D 00 00  Length = 3538231 BitCount = 122 ID = 275988633x
   0.553230 1  1022A040x       Rx   d 8 00 B0 00 12 42 00 00 22  Length = 4138208 BitCount = 142 ID = 270704704x
   0.560972 1  1022C040x       Rx   d 6 00 10 00 20 00 00  Length = 3688216 BitCount = 127 ID = 270712896x
   0.566463 1  10240040x       Rx   d 8 83 FE 88 01 01 2C 0F FC  Length = 4258208 BitCount = 146 ID = 270794816x
   0.571179 1  10248040x       Rx   d 7 00 00 6C D2 CC 1D 00  Length = 3868212 BitCount = 133 ID = 270827584x
   0.574032 1  13FFE068x       Rx   d 0  Length = 2068260 BitCount = 73 ID = 335536232x
   0.577453 1  102C0040x       Rx   d 5 AE EF 44 59 03  Length = 3294617 BitCount = 114 ID = 271319104x
   0.586428 1  102CA040x       Rx   d 8 00 40 0C C8 2C 00 F1 00  Length = 4168208 BitCount = 143 ID = 271360064x
   0.589128 1  106D0080x       Rx   d 2 00 00  Length = 2574669 BitCount = 90 ID = 275579008x
   0.593482 1  10264040x       Rx   d 8 04 06 00 00 00 00 00 3B  Length = 4228208 BitCount = 145 ID = 270942272x
   0.597199 1  10304058x       Rx   d 3 44 59 01  Length = 2724642 BitCount = 95 ID = 271597656x
   0.601608 1  10210040x       Rx   d 8 00 00 00 00 00 00 00 00  Length = 4284562 BitCount = 147 ID = 270598208x
   0.604489 1  10306099x       Rx   d 3 44 59 01  Length = 2754642 BitCount = 96 ID = 271605913x
   0.608692 1  102CC040x       Rx   d 8 00 09 CF 67 00 87 06 AC  Length = 4078227 BitCount = 140 ID = 271368256x
   0.616526 1  10220040x       Rx   d 8 10 00 00 00 00 04 00 00  Length = 4318208 BitCount = 148 ID = 270663744x
   0.619436 1  10308060x       Rx   d 3 44 59 01  Length = 2784638 BitCount = 97 ID = 271614048x
   0.623846 1  1022E040x       Rx   d 8 30 00 00 00 30 00 00 00  Length = 4284562 BitCount = 147 ID = 270721088x
   0.630931 1  C800040x        Rx   d 6 08 CB 00 00 8E A3  Length = 3628216 BitCount = 125 ID = 209715264x
   0.636517 1  10230040x       Rx   d 8 00 00 00 00 00 00 00 00  Length = 4288208 BitCount = 147 ID = 270729280x
   0.641350 1  102CE040x       Rx   d 8 90 00 67 7F 00 00 26 AC  Length = 4078212 BitCount = 140 ID = 271376448x
   0.644503 1  106B0040x       Rx   d 1 00  Length = 2308263 BitCount = 81 ID = 275447872x
   0.651526 1  10240040x       Rx   d 8 83 FE 88 01 01 2C 0F FC  Length = 4258208 BitCount = 146 ID = 270794816x
   0.656541 1  106B8040x       Rx   d 8 00 00 00 00 00 00 00 00  Length = 4318208 BitCount = 148 ID = 275480640x
   0.661643 1  10780040x       Rx   d 8 00 00 01 04 08 00 00 22  Length = 4288208 BitCount = 147 ID = 276299840x
   0.664222 1  13FFE040x       Rx   d 0  Length = 2064714 BitCount = 73 ID = 335536192x
   0.671457 1  102CA040x       Rx   d 8 00 40 0C B0 2C 00 F1 00  Length = 4168208 BitCount = 143 ID = 271360064x
   0.680822 1  621             Rx   d 8 00 52 00 00 00 00 00 00  Length = 3598216 BitCount = 124 ID = 1569
   0.691446 1  10264040x       Rx   d 8 04 06 00 00 00 00 00 27  Length = 4228208 BitCount = 145 ID = 270942272x
   0.696579 1  1043A040x       Rx   d 8 00 00 38 00 00 00 00 00  Length = 4348208 BitCount = 149 ID = 272867392x
   0.701561 1  10210040x       Rx   d 8 00 00 00 00 00 00 00 00  Length = 4288208 BitCount = 147 ID = 270598208x
   0.706244 1  1080A040x       Rx   d 7 00 00 00 00 00 00 00  Length = 4018227 BitCount = 138 ID = 276865088x
   0.711559 1  10220040x       Rx   d 8 10 00 00 00 00 03 00 00  Length = 4318208 BitCount = 148 ID = 270663744x
   0.721435 1  1022E040x       Rx   d 8 10 00 00 00 10 00 00 00  Length = 4258208 BitCount = 146 ID = 270721088x
   0.731550 1  10230040x       Rx   d 8 20 00 00 00 20 00 00 00  Length = 4258208 BitCount = 146 ID = 270729280x
   0.751507 1  10240040x       Rx   d 8 83 FE 88 01 01 2C 0F FC  Length = 4258208 BitCount = 146 ID = 270794816x
   0.759523 1  106B0040x       Rx   d 1 00  Length = 2308248 BitCount = 81 ID = 275447872x
   0.768584 1  108E0080x       Rx   d 6 0E 01 17 02 0D A2  Length = 3594590 BitCount = 124 ID = 277741696x
   0.772906 1  102CA040x       Rx   d 8 00 40 0C BE 2C 00 F1 00  Length = 4198208 BitCount = 144 ID = 271360064x
   0.779984 1  10424040x       Rx   d 3 04 8A 91  Length = 2754657 BitCount = 96 ID = 272777280x
   0.791480 1  10264040x       Rx   d 8 04 06 00 00 00 00 00 3B  Length = 4228208 BitCount = 145 ID = 270942272x
   0.801537 1  10210040x       Rx   d 8 00 00 00 00 00 00 00 00  Length = 4288208 BitCount = 147 ID = 270598208x
   0.806430 1  1022A040x       Rx   d 8 00 B0 00 12 42 00 00 22  Length = 4138208 BitCount = 142 ID = 270704704x
   0.811561 1  10220040x       Rx   d 8 10 00 00 00 00 05 00 00  Length = 4288208 BitCount = 147 ID = 270663744x
   0.815942 1  1022C040x       Rx   d 6 00 10 00 20 00 00  Length = 3688231 BitCount = 127 ID = 270712896x
   0.821554 1  1022E040x       Rx   d 8 30 00 00 00 30 00 00 00  Length = 4288208 BitCount = 147 ID = 270721088x
   0.824855 1  10250040x       Rx   d 2 00 03  Length = 2604654 BitCount = 91 ID = 270860352x
   0.831580 1  10230040x       Rx   d 8 00 00 00 00 00 00 00 00  Length = 4288208 BitCount = 147 ID = 270729280x
   0.836381 1  102CC040x       Rx   d 8 00 09 CF 67 00 87 06 AD  Length = 4048212 BitCount = 139 ID = 271368256x
   0.841393 1  102CE040x       Rx   d 8 90 00 66 7F 00 00 26 AD  Length = 4074581 BitCount = 140 ID = 271376448x
   0.846408 1  102D0040x       Rx   d 8 01 69 01 ED 7C 97 00 FF  Length = 4138208 BitCount = 142 ID = 271384640x
   0.851631 1  10240040x       Rx   d 8 83 FE 88 01 01 2C 0F FC  Length = 4258208 BitCount = 146 ID = 270794816x
   0.856496 1  102E0040x       Rx   d 8 00 33 CA 72 8A 00 62 81  Length = 4138208 BitCount = 142 ID = 271450176x
   0.860639 1  102C0040x       Rx   d 5 AE EF 44 59 03  Length = 3298239 BitCount = 114 ID = 271319104x
   0.866611 1  106B8040x       Rx   d 8 00 00 00 00 00 00 00 00  Length = 4318208 BitCount = 148 ID = 275480640x
   0.871474 1  102CA040x       Rx   d 8 00 40 0C B2 2C 00 F1 00  Length = 4138208 BitCount = 142 ID = 271360064x
   0.874565 1  106B0040x       Rx   d 1 00  Length = 2308248 BitCount = 81 ID = 275447872x
   0.880990 1  C800040x        Rx   d 6 08 CB 00 00 8E A6  Length = 3628216 BitCount = 125 ID = 209715264x
   0.885673 1  106C0040x       Rx   d 5 00 06 0F 07 00  Length = 3448220 BitCount = 119 ID = 275513408x
   0.888522 1  10304058x       Rx   d 3 44 59 01  Length = 2724642 BitCount = 95 ID = 271597656x
   0.892877 1  10264040x       Rx   d 8 04 06 00 00 00 00 00 3B  Length = 4228223 BitCount = 145 ID = 270942272x
   0.898161 1  10306099x       Rx   d 3 44 59 01  Length = 2758236 BitCount = 96 ID = 271605913x
   0.902573 1  10210040x       Rx   d 8 00 00 00 00 00 00 00 00  Length = 4288208 BitCount = 147 ID = 270598208x
   0.905484 1  10308060x       Rx   d 3 44 59 01  Length = 2784638 BitCount = 97 ID = 271614048x
   0.911604 1  10220040x       Rx   d 8 10 00 00 00 00 04 00 00  Length = 4314558 BitCount = 148 ID = 270663744x
   0.915389 1  1077C040x       Rx   d 4 30 30 01 F4  Length = 3148239 BitCount = 109 ID = 276283456x
   0.918117 1  13FFE0BBx       Rx   d 0  Length = 2034718 BitCount = 72 ID = 335536315x
   0.922498 1  1022E040x       Rx   d 8 10 00 00 00 10 00 00 00  Length = 4254562 BitCount = 146 ID = 270721088x
   0.931534 1  10230040x       Rx   d 8 20 00 00 00 20 00 00 00  Length = 4258208 BitCount = 146 ID = 270729280x
   0.936694 1  10780040x       Rx   d 8 00 00 01 04 08 00 00 22  Length = 4284573 BitCount = 147 ID = 276299840x
   0.940355 1  10734099x       Rx   d 6 24 43 00 7D 00 00  Length = 3534605 BitCount = 122 ID = 275988633x
   0.944798 1  1043A040x       Rx   d 8 00 00 37 00 00 00 00 00  Length = 4318208 BitCount = 148 ID = 272867392x
   0.951519 1  10240040x       Rx   d 8 83 FF 88 01 01 2C 0F FC  Length = 4198208 BitCount = 144 ID = 270794816x
   0.956082 1  10788040x       Rx   d 6 08 00 00 00 00 00  Length = 3778216 BitCount = 130 ID = 276332608x
   0.960856 1  10806040x       Rx   d 5 00 00 00 00 19  Length = 3418235 BitCount = 118 ID = 276848704x
   0.971512 1  102CA040x       Rx   d 8 00 40 0C AB 2C 00 F1 00  Length = 4138208 BitCount = 142 ID = 271360064x
   0.991525 1  10264040x       Rx   d 8 04 06 00 00 00 00 00 3B  Length = 4224562 BitCount = 145 ID = 270942272x
   0.994590 1  106B0040x       Rx   d 1 00  Length = 2308248 BitCount = 81 ID = 275447872x
   0.996813 1  13FFE058x       Rx   d 0  Length = 2098256 BitCount = 74 ID = 335536216x
   1.001616 1  10210040x       Rx   d 8 00 00 00 00 00 00 00 00  Length = 4288208 BitCount = 147 ID = 270598208x
   1.011640 1  10220040x       Rx   d 8 10 00 00 00 00 06 00 00  Length = 4288208 BitCount = 147 ID = 270663744x
   1.015197 1  Statistic: D 1 R 0 XD 156 XR 0 E 3 O 0 B 61.77%
   1.015197 2  Statistic: D 0 R 0 XD 0 XR 0 E 0 O 0 B 0.00%
   1.015197 3  Statistic: D 0 R 0 XD 0 XR 0 E 0 O 0 B 0.00%
   1.021544 1  1022E040x       Rx   d 8 30 00 00 00 30 00 00 00  Length = 4288223 BitCount = 147 ID = 270721088x
   1.031599 1  10230040x       Rx   d 8 00 00 00 00 00 00 00 00  Length = 4288223 BitCount = 147 ID = 270729280x
   1.051466 1  1022A040x       Rx   d 8 00 B0 00 12 42 00 00 22  Length = 4138208 BitCount = 142 ID = 270704704x
   1.055997 1  1022C040x       Rx   d 6 00 10 00 20 00 00  Length = 3688216 BitCount = 127 ID = 270712896x
   1.061642 1  10240040x       Rx   d 8 83 FF 88 01 01 2C 0F FC  Length = 4198208 BitCount = 144 ID = 270794816x
   1.066655 1  106B8040x       Rx   d 8 00 00 00 00 00 00 00 00  Length = 4318208 BitCount = 148 ID = 275480640x
   1.071159 1  10248040x       Rx   d 7 00 00 6C D2 CC 1B 00  Length = 3838212 BitCount = 132 ID = 270827584x
   1.076534 1  102CA040x       Rx   d 8 00 40 0C B3 2C 00 F1 00  Length = 4168208 BitCount = 143 ID = 271360064x
   1.081459 1  102CC040x       Rx   d 8 00 09 CF 67 00 87 06 AE  Length = 4048212 BitCount = 139 ID = 271368256x
   1.091511 1  10264040x       Rx   d 8 04 06 00 00 00 00 00 28  Length = 4198208 BitCount = 144 ID = 270942272x
   1.096435 1  102CE040x       Rx   d 8 90 00 66 7F 00 00 26 AD  Length = 4078212 BitCount = 140 ID = 271376448x
   1.101654 1  10210040x       Rx   d 8 00 00 00 00 00 00 00 00  Length = 4284562 BitCount = 147 ID = 270598208x
   1.111620 1  10220040x       Rx   d 8 10 00 00 00 00 06 00 00  Length = 4288208 BitCount = 147 ID = 270663744x
   1.114594 1  106B0040x       Rx   d 1 00  Length = 2308248 BitCount = 81 ID = 275447872x
   1.121557 1  1022E040x       Rx   d 8 10 00 00 00 10 00 00 00  Length = 4258208 BitCount = 146 ID = 270721088x
   1.126688 1  10780040x       Rx   d 8 00 00 01 04 08 00 00 22  Length = 4288208 BitCount = 147 ID = 276299840x
   1.131036 1  C800040x        Rx   d 6 08 CB 00 00 8E A9  Length = 3624601 BitCount = 125 ID = 209715264x
   1.133230 1  13FFE0AFx       Rx   d 0  Length = 2068275 BitCount = 73 ID = 335536303x
   1.137613 1  10230040x       Rx   d 8 20 00 00 00 20 00 00 00  Length = 4258208 BitCount = 146 ID = 270729280x
   1.151652 1  10240040x       Rx   d 8 83 FF 88 01 01 2C 0F FC  Length = 4194562 BitCount = 144 ID = 270794816x
   1.160656 1  102C0040x       Rx   d 5 AE EF 44 59 03  Length = 3298224 BitCount = 114 ID = 271319104x
   1.171553 1  102CA040x       Rx   d 8 00 40 0C B0 2C 00 F1 00  Length = 4168208 BitCount = 143 ID = 271360064x
   1.178395 1  10308060x       Rx   d 3 44 59 01  Length = 2788236 BitCount = 97 ID = 271614048x
   1.181578 1  10448060x       Rx   d 4 00 00 45 00  Length = 3058228 BitCount = 106 ID = 272924768x
   1.187066 1  10304058x       Rx   d 3 44 59 01  Length = 2724642 BitCount = 95 ID = 271597656x
   1.191540 1  10264040x       Rx   d 8 04 06 00 00 00 00 00 3C  Length = 4198208 BitCount = 144 ID = 270942272x
   1.196645 1  1043A040x       Rx   d 8 00 00 36 00 00 00 00 00  Length = 4288208 BitCount = 147 ID = 272867392x
   1.199522 1  10306099x       Rx   d 3 44 59 01  Length = 2754642 BitCount = 96 ID = 271605913x
   1.203931 1  10210040x       Rx   d 8 00 00 00 00 00 00 00 00  Length = 4284562 BitCount = 147 ID = 270598208x
   1.211703 1  10220040x       Rx   d 8 10 00 00 00 00 08 00 00  Length = 4314558 BitCount = 148 ID = 270663744x
   1.221609 1  1022E040x       Rx   d 8 30 00 00 00 30 00 00 00  Length = 4288208 BitCount = 147 ID = 270721088x
   1.231604 1  10230040x       Rx   d 8 00 00 00 00 00 00 00 00  Length = 4288208 BitCount = 147 ID = 270729280x
   1.234637 1  106B0040x       Rx   d 1 00  Length = 2308263 BitCount = 81 ID = 275447872x
   1.251564 1  10240040x       Rx   d 8 83 FF 88 01 01 2C 0F FC  Length = 4198223 BitCount = 144 ID = 270794816x
   1.256694 1  106B8040x       Rx   d 8 00 00 00 00 00 00 00 00  Length = 4314558 BitCount = 148 ID = 275480640x
   1.271581 1  102CA040x       Rx   d 8 00 40 0C A8 2C 00 F1 00  Length = 4168208 BitCount = 143 ID = 271360064x
   1.291600 1  10264040x       Rx   d 8 04 06 00 00 00 00 00 3C  Length = 4198208 BitCount = 144 ID = 270942272x
   1.301656 1  10210040x       Rx   d 8 00 00 00 00 00 00 00 00  Length = 4288208 BitCount = 147 ID = 270598208x
   1.306548 1  1022A040x       Rx   d 8 00 B0 00 12 42 00 00 22  Length = 4138208 BitCount = 142 ID = 270704704x
   1.311711 1  10220040x       Rx   d 8 10 00 00 00 00 04 00 00  Length = 4318208 BitCount = 148 ID = 270663744x
   1.316062 1  1022C040x       Rx   d 6 00 10 00 20 00 00  Length = 3688216 BitCount = 127 ID = 270712896x
   1.321643 1  1022E040x       Rx   d 8 10 00 00 00 10 00 00 00  Length = 4258208 BitCount = 146 ID = 270721088x
   1.331640 1  10230040x       Rx   d 8 20 00 00 00 20 00 00 00  Length = 4258208 BitCount = 146 ID = 270729280x
   1.336473 1  102CC040x       Rx   d 8 00 09 CF 67 00 87 06 AE  Length = 4048227 BitCount = 139 ID = 271368256x
   1.341542 1  102CE040x       Rx   d 8 90 00 66 7F 00 00 26 AD  Length = 4074566 BitCount = 140 ID = 271376448x
   1.346527 1  102D0040x       Rx   d 8 01 69 01 ED 7C 98 00 FF  Length = 4138223 BitCount = 142 ID = 271384640x
   1.351721 1  10240040x       Rx   d 8 83 FE 88 01 01 2C 0F FC  Length = 4258208 BitCount = 146 ID = 270794816x
   1.354666 1  106B0040x       Rx   d 1 00  Length = 2308248 BitCount = 81 ID = 275447872x
   1.360905 1  10806040x       Rx   d 5 00 00 00 00 19  Length = 3414598 BitCount = 118 ID = 276848704x
   1.371621 1  102CA040x       Rx   d 8 00 40 0C BE 2C 00 F1 00  Length = 4198223 BitCount = 144 ID = 271360064x
   1.376755 1  10780040x       Rx   d 8 00 00 01 04 08 00 00 22  Length = 4288208 BitCount = 147 ID = 276299840x
   1.381076 1  C800040x        Rx   d 6 08 CB 00 00 8E AC  Length = 3628216 BitCount = 125 ID = 209715264x
   1.386177 1  10788040x       Rx   d 6 08 00 00 00 00 00  Length = 3778216 BitCount = 130 ID = 276332608x
   1.391610 1  10264040x       Rx   d 8 04 06 00 00 00 00 00 28  Length = 4198208 BitCount = 144 ID = 270942272x
   1.397761 1  13FFE060x       Rx   d 0  Length = 2094710 BitCount = 74 ID = 335536224x
   1.402171 1  10210040x       Rx   d 8 00 00 00 00 00 00 00 00  Length = 4284562 BitCount = 147 ID = 270598208x
   1.407095 1  13FFE080x       Rx   d 0  Length = 2068275 BitCount = 73 ID = 335536256x
   1.411749 1  10220040x       Rx   d 8 10 00 00 00 00 04 00 00  Length = 4318223 BitCount = 148 ID = 270663744x
   1.421714 1  1022E040x       Rx   d 8 30 00 00 00 30 00 00 00  Length = 4288208 BitCount = 147 ID = 270721088x
   1.427507 1  13FFE099x       Rx   d 0  Length = 2068260 BitCount = 73 ID = 335536281x
   1.431916 1  10230040x       Rx   d 8 00 00 00 00 00 00 00 00  Length = 4284562 BitCount = 147 ID = 270729280x
   1.438967 1  10734099x       Rx   d 6 24 43 00 7D 00 00  Length = 3534590 BitCount = 122 ID = 275988633x
   1.443437 1  1043A040x       Rx   d 8 00 00 38 00 00 00 00 00  Length = 4344558 BitCount = 149 ID = 272867392x
   1.451693 1  10240040x       Rx   d 8 83 FE 88 01 01 2C 0F FC  Length = 4258208 BitCount = 146 ID = 270794816x
   1.456736 1  106B8040x       Rx   d 8 00 00 00 00 00 00 00 00  Length = 4318208 BitCount = 148 ID = 275480640x
   1.460757 1  102C0040x       Rx   d 5 AE EF 44 59 03  Length = 3298239 BitCount = 114 ID = 271319104x
   1.471742 1  102CA040x       Rx   d 8 00 40 0C BF 2C 00 F1 00  Length = 4198208 BitCount = 144 ID = 271360064x
   1.474775 1  106B0040x       Rx   d 1 00  Length = 2308248 BitCount = 81 ID = 275447872x
   1.487102 1  10304058x       Rx   d 3 44 59 01  Length = 2724657 BitCount = 95 ID = 271597656x
   1.491635 1  10264040x       Rx   d 8 04 06 00 00 00 00 00 3C  Length = 4198208 BitCount = 144 ID = 270942272x
   1.498144 1  10306099x       Rx   d 3 44 59 01  Length = 2754642 BitCount = 96 ID = 271605913x
   1.502557 1  10210040x       Rx   d 8 00 00 00 00 00 00 00 00  Length = 4288208 BitCount = 147 ID = 270598208x
   1.505469 1  10308060x       Rx   d 3 44 59 01  Length = 2788247 BitCount = 97 ID = 271614048x
   1.511744 1  10220040x       Rx   d 8 10 00 00 00 00 03 00 00  Length = 4318208 BitCount = 148 ID = 270663744x
   1.521650 1  1022E040x       Rx   d 8 10 00 00 00 10 00 00 00  Length = 4258208 BitCount = 146 ID = 270721088x
   1.531734 1  10230040x       Rx   d 8 20 00 00 00 20 00 00 00  Length = 4258208 BitCount = 146 ID = 270729280x
   1.551598 1  1022A040x       Rx   d 8 00 B0 00 12 42 00 00 22  Length = 4134566 BitCount = 142 ID = 270704704x
   1.556103 1  1022C040x       Rx   d 6 00 10 00 20 00 00  Length = 3688231 BitCount = 127 ID = 270712896x
   1.561748 1  10240040x       Rx   d 8 83 FF 88 01 01 2C 0F FC  Length = 4198208 BitCount = 144 ID = 270794816x
   1.571288 1  10248040x       Rx   d 7 00 00 6C D2 CC 1D 00  Length = 3864589 BitCount = 133 ID = 270827584x
   1.576694 1  102CA040x       Rx   d 8 00 40 0C B5 2C 00 F1 00  Length = 4198223 BitCount = 144 ID = 271360064x
   1.581527 1  102CC040x       Rx   d 8 00 09 CF 67 00 87 06 AE  Length = 4048227 BitCount = 139 ID = 271368256x
   1.591641 1  10264040x       Rx   d 8 04 06 00 00 00 00 00 3C  Length = 4198208 BitCount = 144 ID = 270942272x
   1.596564 1  102CE040x       Rx   d 8 90 00 66 7F 00 00 26 AD  Length = 4078212 BitCount = 140 ID = 271376448x
   1.601814 1  10210040x       Rx   d 8 00 00 00 00 00 00 00 00  Length = 4284562 BitCount = 147 ID = 270598208x
   1.604729 1  106B0040x       Rx   d 1 00  Length = 2308248 BitCount = 81 ID = 275447872x
   1.611748 1  10220040x       Rx   d 8 10 00 00 00 00 06 00 00  Length = 4284562 BitCount = 147 ID = 270663744x
   1.621684 1  1022E040x       Rx   d 8 30 00 00 00 30 00 00 00  Length = 4288208 BitCount = 147 ID = 270721088x
   1.626788 1  10780040x       Rx   d 8 00 00 01 04 08 00 00 22  Length = 4288208 BitCount = 147 ID = 276299840x
   1.631079 1  C800040x        Rx   d 6 08 CB 00 00 8E B0  Length = 3598216 BitCount = 124 ID = 209715264x
   1.636750 1  10230040x       Rx   d 8 00 00 00 00 00 00 00 00  Length = 4288208 BitCount = 147 ID = 270729280x
   1.651816 1  10240040x       Rx   d 8 83 FE 88 01 01 2C 0F FC  Length = 4258208 BitCount = 146 ID = 270794816x
   1.656801 1  106B8040x       Rx   d 8 00 00 00 00 00 00 00 00  Length = 4318208 BitCount = 148 ID = 275480640x
   1.671651 1  102CA040x       Rx   d 8 00 40 0C B6 2C 00 F1 00  Length = 4134566 BitCount = 142 ID = 271360064x
   1.681073 1  621             Rx   d 8 00 52 00 00 00 00 00 00  Length = 3594590 BitCount = 124 ID = 1569
   1.691669 1  10264040x       Rx   d 8 04 06 00 00 00 00 00 3C  Length = 4198208 BitCount = 144 ID = 270942272x
   1.696801 1  1043A040x       Rx   d 8 00 00 37 00 00 00 00 00  Length = 4314558 BitCount = 148 ID = 272867392x
   1.701786 1  10210040x       Rx   d 8 00 00 00 00 00 00 00 00  Length = 4288223 BitCount = 147 ID = 270598208x
   1.706499 1  1080A040x       Rx   d 7 00 00 00 00 00 00 00  Length = 4018212 BitCount = 138 ID = 276865088x
   1.711779 1  10220040x       Rx   d 8 10 00 00 00 00 06 00 00  Length = 4284573 BitCount = 147 ID = 270663744x
   1.721715 1  1022E040x       Rx   d 8 10 00 00 00 10 00 00 00  Length = 4258208 BitCount = 146 ID = 270721088x
   1.724748 1  106B0040x       Rx   d 1 00  Length = 2308248 BitCount = 81 ID = 275447872x
   1.731831 1  10230040x       Rx   d 8 20 00 00 00 20 00 00 00  Length = 4258208 BitCount = 146 ID = 270729280x
   1.751850 1  10240040x       Rx   d 8 83 FE 88 01 01 2C 0F FC  Length = 4258208 BitCount = 146 ID = 270794816x
   1.760766 1  102C0040x       Rx   d 5 AE EF 44 59 03  Length = 3298224 BitCount = 114 ID = 271319104x
   1.768571 1  108E0080x       Rx   d 6 0E 01 17 02 0D A3  Length = 3598216 BitCount = 124 ID = 277741696x
   1.772860 1  102CA040x       Rx   d 8 00 40 0C CC 2C 00 F1 00  Length = 4164566 BitCount = 143 ID = 271360064x
   1.775053 1  13FFE068x       Rx   d 0  Length = 2068260 BitCount = 73 ID = 335536232x
   1.778387 1  10308060x       Rx   d 3 44 59 01  Length = 2788236 BitCount = 97 ID = 271614048x
   1.786997 1  10304058x       Rx   d 3 44 59 01  Length = 2728236 BitCount = 95 ID = 271597656x
   1.789698 1  106D0080x       Rx   d 2 00 00  Length = 2578240 BitCount = 90 ID = 275579008x
   1.794017 1  10264040x       Rx   d 8 04 06 00 00 00 00 00 28  Length = 4194562 BitCount = 144 ID = 270942272x
   1.798161 1  10306099x       Rx   d 3 44 59 01  Length = 2758251 BitCount = 96 ID = 271605913x
   1.802572 1  10210040x       Rx   d 8 00 00 00 00 00 00 00 00  Length = 4288208 BitCount = 147 ID = 270598208x
   1.811815 1  10220040x       Rx   d 8 10 00 00 00 00 06 00 00  Length = 4288208 BitCount = 147 ID = 270663744x
   1.816678 1  1022A040x       Rx   d 8 00 B0 00 12 42 00 00 22  Length = 4138223 BitCount = 142 ID = 270704704x
   1.821181 1  1022C040x       Rx   d 6 00 10 00 20 00 00  Length = 3688216 BitCount = 127 ID = 270712896x
   1.826766 1  1022E040x       Rx   d 8 30 00 00 00 30 00 00 00  Length = 4288208 BitCount = 147 ID = 270721088x
   1.831810 1  10230040x       Rx   d 8 00 00 00 00 00 00 00 00  Length = 4288223 BitCount = 147 ID = 270729280x
   1.835139 1  10250040x       Rx   d 2 00 03  Length = 2604654 BitCount = 91 ID = 270860352x
   1.841594 1  102CC040x       Rx   d 8 00 09 CF 67 00 87 06 AE  Length = 4048212 BitCount = 139 ID = 271368256x
   1.846637 1  102CE040x       Rx   d 8 90 00 66 7F 00 00 26 AD  Length = 4078212 BitCount = 140 ID = 271376448x
   1.851797 1  10240040x       Rx   d 8 83 FF 88 01 01 2C 0F FC  Length = 4194562 BitCount = 144 ID = 270794816x
   1.856662 1  102D0040x       Rx   d 8 01 69 01 ED 7C 98 00 FF  Length = 4138208 BitCount = 142 ID = 271384640x
   1.861821 1  102E0040x       Rx   d 8 00 33 CA 72 8A 00 62 81  Length = 4134566 BitCount = 142 ID = 271450176x
   1.865932 1  10466040x       Rx   d 5 00 00 00 00 00  Length = 3444598 BitCount = 119 ID = 273047616x
   1.871757 1  102CA040x       Rx   d 8 00 40 0C C8 2C 00 F1 00  Length = 4168208 BitCount = 143 ID = 271360064x
   1.874820 1  106B0040x       Rx   d 1 00  Length = 2308263 BitCount = 81 ID = 275447872x
   1.881154 1  C800040x        Rx   d 6 08 CB 00 00 8E B2  Length = 3598216 BitCount = 124 ID = 209715264x
   1.886859 1  106B8040x       Rx   d 8 00 00 00 00 00 00 00 00  Length = 4318208 BitCount = 148 ID = 275480640x
   1.891752 1  10264040x       Rx   d 8 04 06 00 00 00 00 00 3C  Length = 4198208 BitCount = 144 ID = 270942272x
   1.895923 1  106C0040x       Rx   d 5 00 06 0F 07 00  Length = 3448220 BitCount = 119 ID = 275513408x
   1.901836 1  10210040x       Rx   d 8 00 00 00 00 00 00 00 00  Length = 4288223 BitCount = 147 ID = 270598208x
   1.905648 1  1077C040x       Rx   d 4 30 30 01 F4  Length = 3148224 BitCount = 109 ID = 276283456x
   1.911863 1  10220040x       Rx   d 8 10 00 00 00 00 04 00 00  Length = 4318208 BitCount = 148 ID = 270663744x
   1.916878 1  10780040x       Rx   d 8 00 00 01 04 08 00 00 22  Length = 4288208 BitCount = 147 ID = 276299840x
   1.921770 1  1022E040x       Rx   d 8 10 00 00 00 10 00 00 00  Length = 4258223 BitCount = 146 ID = 270721088x
   1.926303 1  10788040x       Rx   d 6 08 00 00 00 00 00  Length = 3778216 BitCount = 130 ID = 276332608x
   1.931798 1  10230040x       Rx   d 8 20 00 00 00 20 00 00 00  Length = 4258208 BitCount = 146 ID = 270729280x
   1.935971 1  10806040x       Rx   d 5 00 00 00 00 19  Length = 3418235 BitCount = 118 ID = 276848704x
   1.939629 1  10734099x       Rx   d 6 24 43 00 7D 00 00  Length = 3534590 BitCount = 122 ID = 275988633x
   1.944039 1  1043A040x       Rx   d 8 00 00 36 00 00 00 00 00  Length = 4284562 BitCount = 147 ID = 272867392x
   1.951811 1  10240040x       Rx   d 8 83 FE 88 01 01 2C 0F FC  Length = 4254562 BitCount = 146 ID = 270794816x
   1.954546 1  13FFE040x       Rx   d 0  Length = 2068260 BitCount = 73 ID = 335536192x
   1.971770 1  102CA040x       Rx   d 8 00 40 0C C0 2C 00 F1 00  Length = 4194562 BitCount = 144 ID = 271360064x
   1.991785 1  10264040x       Rx   d 8 04 06 00 00 00 00 00 3E  Length = 4224577 BitCount = 145 ID = 270942272x
   1.994820 1  106B0040x       Rx   d 1 00  Length = 2308263 BitCount = 81 ID = 275447872x
   2.001839 1  10210040x       Rx   d 8 00 00 00 00 00 00 00 00  Length = 4284562 BitCount = 147 ID = 270598208x
   2.011865 1  10220040x       Rx   d 8 10 00 00 00 00 04 00 00  Length = 4318208 BitCount = 148 ID = 270663744x
   2.015197 1  Statistic: D 1 R 0 XD 148 XR 0 E 0 O 0 B 58.61%
   2.015197 2  Statistic: D 0 R 0 XD 0 XR 0 E 0 O 0 B 0.00%
   2.015197 3  Statistic: D 0 R 0 XD 0 XR 0 E 0 O 0 B 0.00%
   2.021800 1  1022E040x       Rx   d 8 30 00 00 00 30 00 00 00  Length = 4288223 BitCount = 147 ID = 270721088x
   2.025343 1  10424040x       Rx   d 3 04 8A 90  Length = 2818232 BitCount = 98 ID = 272777280x
   2.031798 1  10230040x       Rx   d 8 00 00 00 00 00 00 00 00  Length = 4288208 BitCount = 147 ID = 270729280x
   2.051721 1  1022A040x       Rx   d 8 00 B0 00 12 42 00 00 22  Length = 4134566 BitCount = 142 ID = 270704704x
   2.056226 1  1022C040x       Rx   d 6 00 10 00 20 00 00  Length = 3688216 BitCount = 127 ID = 270712896x
   2.061932 1  10240040x       Rx   d 8 83 FE 88 01 01 2C 0F FC  Length = 4258208 BitCount = 146 ID = 270794816x
   2.065835 1  102C0040x       Rx   d 5 AE EF 44 59 03  Length = 3298224 BitCount = 114 ID = 271319104x
   2.071448 1  10248040x       Rx   d 7 00 00 6C D2 CC 1E 00  Length = 3898212 BitCount = 134 ID = 270827584x
   2.076757 1  102CA040x       Rx   d 8 00 40 0C DA 2C 00 F1 00  Length = 4134566 BitCount = 142 ID = 271360064x
   2.081742 1  102CC040x       Rx   d 8 00 09 CF 67 00 87 06 AC  Length = 4078227 BitCount = 140 ID = 271368256x
   2.086902 1  106B8040x       Rx   d 8 00 00 00 00 00 00 00 00  Length = 4314558 BitCount = 148 ID = 275480640x
   2.089752 1  10304058x       Rx   d 3 44 59 01  Length = 2724642 BitCount = 95 ID = 271597656x
   2.094102 1  10264040x       Rx   d 8 04 06 00 00 00 00 00 29  Length = 4224562 BitCount = 145 ID = 270942272x
   2.098155 1  10306099x       Rx   d 3 44 59 01  Length = 2758251 BitCount = 96 ID = 271605913x
   2.102567 1  10210040x       Rx   d 8 00 00 00 00 00 00 00 00  Length = 4288208 BitCount = 147 ID = 270598208x
   2.105479 1  10308060x       Rx   d 3 44 59 01  Length = 2788236 BitCount = 97 ID = 271614048x
   2.111904 1  10220040x       Rx   d 8 10 00 00 00 00 04 00 00  Length = 4318208 BitCount = 148 ID = 270663744x
   2.116707 1  102CE040x       Rx   d 8 90 00 66 7F 00 00 26 AB  Length = 4078212 BitCount = 140 ID = 271376448x
   2.121810 1  1022E040x       Rx   d 8 10 00 00 00 10 00 00 00  Length = 4258208 BitCount = 146 ID = 270721088x
   2.123968 1  13FFE0BBx       Rx   d 0  Length = 2034733 BitCount = 72 ID = 335536315x
   2.126400 1  106B0040x       Rx   d 1 00  Length = 2308263 BitCount = 81 ID = 275447872x
   2.131263 1  C800040x        Rx   d 6 08 CB 00 00 8E B6  Length = 3598216 BitCount = 124 ID = 209715264x
   2.136876 1  10230040x       Rx   d 8 20 00 00 00 20 00 00 00  Length = 4258223 BitCount = 146 ID = 270729280x
   2.141949 1  10780040x       Rx   d 8 00 00 01 04 08 00 00 22  Length = 4288208 BitCount = 147 ID = 276299840x
   2.151791 1  10240040x       Rx   d 8 83 FF 88 01 01 2C 0F FC  Length = 4198208 BitCount = 144 ID = 270794816x
   2.171780 1  102CA040x       Rx   d 8 00 40 0C D7 2C 00 F1 00  Length = 4138208 BitCount = 142 ID = 271360064x
   2.178684 1  10448060x       Rx   d 4 00 00 45 00  Length = 3058228 BitCount = 106 ID = 272924768x
   2.191799 1  10264040x       Rx   d 8 04 06 00 00 00 00 00 3E  Length = 4228223 BitCount = 145 ID = 270942272x
   2.196874 1  1043A040x       Rx   d 8 00 00 39 00 00 00 00 00  Length = 4288223 BitCount = 147 ID = 272867392x
   2.200682 1  10324058x       Rx   d 6 00 00 03 FF 00 00  Length = 3684597 BitCount = 127 ID = 271728728x
   2.205091 1  10210040x       Rx   d 8 00 00 00 00 00 00 00 00  Length = 4284573 BitCount = 147 ID = 270598208x
   2.207315 1  13FFE058x       Rx   d 0  Length = 2098256 BitCount = 74 ID = 335536216x
   2.211938 1  10220040x       Rx   d 8 10 00 00 00 00 04 00 00  Length = 4318208 BitCount = 148 ID = 270663744x
   2.221964 1  1022E040x       Rx   d 8 30 00 00 00 30 00 00 00  Length = 4288208 BitCount = 147 ID = 270721088x
   2.231897 1  10230040x       Rx   d 8 00 00 00 00 00 00 00 00  Length = 4288208 BitCount = 147 ID = 270729280x
   2.239883 1  106B0040x       Rx   d 1 00  Length = 2308248 BitCount = 81 ID = 275447872x
   2.251886 1  10240040x       Rx   d 8 83 FF 88 01 01 2C 0F FC  Length = 4194562 BitCount = 144 ID = 270794816x
   2.256931 1  106B8040x       Rx   d 8 00 00 00 00 00 00 00 00  Length = 4318208 BitCount = 148 ID = 275480640x
   2.260648 1  10734099x       Rx   d 6 24 44 00 7D 00 00  Length = 3594590 BitCount = 124 ID = 275988633x
   2.271843 1  102CA040x       Rx   d 8 00 40 0C C6 2C 00 F1 00  Length = 4168208 BitCount = 143 ID = 271360064x
   2.275386 1  10424040x       Rx   d 3 04 8A 91  Length = 2758251 BitCount = 96 ID = 272777280x
   2.291864 1  10264040x       Rx   d 8 04 06 00 00 00 00 00 3E  Length = 4228208 BitCount = 145 ID = 270942272x
   2.301920 1  10210040x       Rx   d 8 00 00 00 00 00 00 00 00  Length = 4288223 BitCount = 147 ID = 270598208x
   2.306783 1  1022A040x       Rx   d 8 00 B0 00 12 42 00 00 22  Length = 4138208 BitCount = 142 ID = 270704704x
   2.311943 1  10220040x       Rx   d 8 10 00 00 00 00 04 00 00  Length = 4314558 BitCount = 148 ID = 270663744x
   2.316294 1  1022C040x       Rx   d 6 00 10 00 20 00 00  Length = 3684586 BitCount = 127 ID = 270712896x
   2.321849 1  1022E040x       Rx   d 8 10 00 00 00 10 00 00 00  Length = 4258208 BitCount = 146 ID = 270721088x
   2.331843 1  10230040x       Rx   d 8 20 00 00 00 20 00 00 00  Length = 4258208 BitCount = 146 ID = 270729280x
   2.334038 1  13FFE0AFx       Rx   d 0  Length = 2068260 BitCount = 73 ID = 335536303x
   2.338209 1  102CC040x       Rx   d 8 00 09 CF 67 00 87 06 AD  Length = 4048212 BitCount = 139 ID = 271368256x
   2.346819 1  102CE040x       Rx   d 8 90 00 66 7F 00 00 26 AC  Length = 4074566 BitCount = 140 ID = 271376448x
   2.351924 1  10240040x       Rx   d 8 83 FE 88 01 01 2C 0F FC  Length = 4258208 BitCount = 146 ID = 270794816x
   2.356815 1  102D0040x       Rx   d 8 01 69 01 ED 7C 98 00 FF  Length = 4138223 BitCount = 142 ID = 271384640x
   2.360899 1  102C0040x       Rx   d 5 AE EF 44 59 03  Length = 3298239 BitCount = 114 ID = 271319104x
   2.364922 1  106B0040x       Rx   d 1 00  Length = 2308248 BitCount = 81 ID = 275447872x
   2.368944 1  10734099x       Rx   d 6 24 43 00 7D 00 00  Length = 3538220 BitCount = 122 ID = 275988633x
   2.373265 1  102CA040x       Rx   d 8 00 40 0C DB 2C 00 F1 00  Length = 4198223 BitCount = 144 ID = 271360064x
   2.378367 1  10308060x       Rx   d 3 44 59 01  Length = 2788236 BitCount = 97 ID = 271614048x
   2.382118 1  C800040x        Rx   d 6 08 CB 00 00 8E B9  Length = 3628216 BitCount = 125 ID = 209715264x
   2.387193 1  10780040x       Rx   d 8 00 00 01 04 08 00 00 22  Length = 4288208 BitCount = 147 ID = 276299840x
   2.390041 1  10304058x       Rx   d 3 44 59 01  Length = 2724642 BitCount = 95 ID = 271597656x
   2.394394 1  10264040x       Rx   d 8 04 06 00 00 00 00 00 3E  Length = 4228208 BitCount = 145 ID = 270942272x
   2.398147 1  10306099x       Rx   d 3 44 59 01  Length = 2758236 BitCount = 96 ID = 271605913x
   2.402555 1  10210040x       Rx   d 8 00 00 00 00 00 00 00 00  Length = 4284562 BitCount = 147 ID = 270598208x
   2.411951 1  10220040x       Rx   d 8 10 00 00 00 00 06 00 00  Length = 4288208 BitCount = 147 ID = 270663744x
   2.416418 1  10788040x       Rx   d 6 08 00 00 00 00 00  Length = 3774582 BitCount = 130 ID = 276332608x
   2.420169 1  624             Rx   d 8 00 20 00 00 00 00 00 00  Length = 3624586 BitCount = 125 ID = 1572
   2.424578 1  1022E040x       Rx   d 8 30 00 00 00 30 00 00 00  Length = 4284562 BitCount = 147 ID = 270721088x
   2.431904 1  10230040x       Rx   d 8 00 00 00 00 00 00 00 00  Length = 4288208 BitCount = 147 ID = 270729280x
   2.436107 1  10806040x       Rx   d 5 00 00 00 00 19  Length = 3418220 BitCount = 118 ID = 276848704x
   2.442138 1  1043A040x       Rx   d 8 00 00 38 00 00 00 00 00  Length = 4348208 BitCount = 149 ID = 272867392x
   2.451920 1  10240040x       Rx   d 8 83 FE 88 01 01 2C 0F FC  Length = 4258208 BitCount = 146 ID = 270794816x
   2.456996 1  106B8040x       Rx   d 8 00 00 00 00 00 00 00 00  Length = 4318208 BitCount = 148 ID = 275480640x
   2.471846 1  102CA040x       Rx   d 8 00 40 0C B6 2C 00 F1 00  Length = 4134566 BitCount = 142 ID = 271360064x
   2.478956 1  10734099x       Rx   d 6 24 43 00 7D 00 00  Length = 3534590 BitCount = 122 ID = 275988633x
   2.481390 1  106B0040x       Rx   d 1 00  Length = 2308248 BitCount = 81 ID = 275447872x
   2.491894 1  10264040x       Rx   d 8 04 06 00 00 00 00 00 29  Length = 4228208 BitCount = 145 ID = 270942272x
   2.501981 1  10210040x       Rx   d 8 00 00 00 00 00 00 00 00  Length = 4288208 BitCount = 147 ID = 270598208x
   2.511973 1  10220040x       Rx   d 8 10 00 00 00 00 07 00 00  Length = 4318208 BitCount = 148 ID = 270663744x
   2.521879 1  1022E040x       Rx   d 8 10 00 00 00 10 00 00 00  Length = 4258208 BitCount = 146 ID = 270721088x
   2.525543 1  10424040x       Rx   d 3 04 8A 90  Length = 2818232 BitCount = 98 ID = 272777280x
   2.531908 1  10230040x       Rx   d 8 20 00 00 00 20 00 00 00  Length = 4258208 BitCount = 146 ID = 270729280x
   2.551835 1  1022A040x       Rx   d 8 00 B0 00 12 42 00 00 22  Length = 4138208 BitCount = 142 ID = 270704704x
   2.556396 1  1022C040x       Rx   d 6 00 10 00 20 00 00  Length = 3688231 BitCount = 127 ID = 270712896x
   2.561981 1  10240040x       Rx   d 8 83 FE 88 01 01 2C 0F FC  Length = 4258208 BitCount = 146 ID = 270794816x
   2.571522 1  10248040x       Rx   d 7 00 00 6C D2 CC 1D 00  Length = 3864578 BitCount = 133 ID = 270827584x
   2.576987 1  102CA040x       Rx   d 8 00 40 0C C3 2C 00 F1 00  Length = 4138208 BitCount = 142 ID = 271360064x
   2.581792 1  102CC040x       Rx   d 8 00 09 CF 67 00 87 06 AD  Length = 4048212 BitCount = 139 ID = 271368256x
   2.591906 1  10264040x       Rx   d 8 04 06 00 00 00 00 00 3E  Length = 4228208 BitCount = 145 ID = 270942272x
   2.596830 1  102CE040x       Rx   d 8 90 00 66 7F 00 00 26 AD  Length = 4078212 BitCount = 140 ID = 271376448x
   2.599052 1  13FFE060x       Rx   d 0  Length = 2098256 BitCount = 74 ID = 335536224x
   2.603460 1  10210040x       Rx   d 8 00 00 00 00 00 00 00 00  Length = 4284562 BitCount = 147 ID = 270598208x
   2.607090 1  13FFE080x       Rx   d 0  Length = 2064714 BitCount = 73 ID = 335536256x
   2.612015 1  10220040x       Rx   d 8 10 00 00 00 00 02 00 00  Length = 4318223 BitCount = 148 ID = 270663744x
   2.614987 1  106B0040x       Rx   d 1 00  Length = 2308248 BitCount = 81 ID = 275447872x
   2.621952 1  1022E040x       Rx   d 8 30 00 00 00 30 00 00 00  Length = 4288208 BitCount = 147 ID = 270721088x
   2.627113 1  10780040x       Rx   d 8 00 00 01 04 08 00 00 22  Length = 4284562 BitCount = 147 ID = 276299840x
   2.629309 1  13FFE099x       Rx   d 0  Length = 2068260 BitCount = 73 ID = 335536281x
   2.633031 1  C800040x        Rx   d 6 08 CB 00 00 8E BC  Length = 3598216 BitCount = 124 ID = 209715264x
   2.641917 1  10230040x       Rx   d 8 10 00 00 00 10 00 00 00  Length = 4258208 BitCount = 146 ID = 270729280x
   2.651973 1  10240040x       Rx   d 8 83 FE 88 01 01 2C 0F FC  Length = 4258208 BitCount = 146 ID = 270794816x
   2.657073 1  106B8040x       Rx   d 8 00 00 00 00 00 00 00 00  Length = 4314558 BitCount = 148 ID = 275480640x
   2.661008 1  102C0040x       Rx   d 5 AE EF 44 59 03  Length = 3298224 BitCount = 114 ID = 271319104x
   2.671962 1  102CA040x       Rx   d 8 00 40 0C C6 2C 00 F1 00  Length = 4168208 BitCount = 143 ID = 271360064x
   2.681266 1  621             Rx   d 8 00 52 00 00 00 00 00 00  Length = 3598216 BitCount = 124 ID = 1569
   2.686783 1  10304058x       Rx   d 3 44 59 01  Length = 2724642 BitCount = 95 ID = 271597656x
   2.691977 1  10264040x       Rx   d 8 04 06 00 00 00 00 00 3C  Length = 4198223 BitCount = 144 ID = 270942272x
   2.697018 1  1043A040x       Rx   d 8 00 00 35 00 00 00 00 00  Length = 4288208 BitCount = 147 ID = 272867392x
   2.699896 1  10306099x       Rx   d 3 44 59 01  Length = 2754657 BitCount = 96 ID = 271605913x
   2.704306 1  10210040x       Rx   d 8 00 00 00 00 00 00 00 00  Length = 4284562 BitCount = 147 ID = 270598208x
   2.707220 1  10308060x       Rx   d 3 44 59 01  Length = 2788236 BitCount = 97 ID = 271614048x
   2.712054 1  10220040x       Rx   d 8 10 00 00 00 00 04 00 00  Length = 4318208 BitCount = 148 ID = 270663744x
   2.716737 1  1080A040x       Rx   d 7 00 00 00 00 00 00 00  Length = 4018212 BitCount = 138 ID = 276865088x
   2.721960 1  1022E040x       Rx   d 8 10 00 00 00 10 00 00 00  Length = 4258208 BitCount = 146 ID = 270721088x
   2.729008 1  631             Rx   d 8 00 40 00 00 00 00 00 00  Length = 3564590 BitCount = 123 ID = 1585
   2.733389 1  10230040x       Rx   d 8 20 00 00 00 20 00 00 00  Length = 4254577 BitCount = 146 ID = 270729280x
   2.739183 1  62C             Rx   d 8 00 40 00 00 00 00 00 00  Length = 3628216 BitCount = 125 ID = 1580
   2.741615 1  106B0040x       Rx   d 1 00  Length = 2308263 BitCount = 81 ID = 275447872x
   2.751996 1  10240040x       Rx   d 8 83 FE 88 01 01 2C 0F FC  Length = 4254577 BitCount = 146 ID = 270794816x
   2.759020 1  10734099x       Rx   d 6 24 44 00 7D 00 00  Length = 3598216 BitCount = 124 ID = 275988633x
   2.768562 1  108E0080x       Rx   d 6 0E 01 17 02 0D A4  Length = 3598216 BitCount = 124 ID = 277741696x
   2.772823 1  102CA040x       Rx   d 8 00 40 0C B2 2C 00 F1 00  Length = 4138208 BitCount = 142 ID = 271360064x
   2.780503 1  10424040x       Rx   d 3 04 8A 91  Length = 2754642 BitCount = 96 ID = 272777280x
   2.791969 1  10264040x       Rx   d 8 04 06 00 00 00 00 00 3B  Length = 4228208 BitCount = 145 ID = 270942272x
   2.802026 1  10210040x       Rx   d 8 00 00 00 00 00 00 00 00  Length = 4288208 BitCount = 147 ID = 270598208x
   2.806917 1  1022A040x       Rx   d 8 00 B0 00 12 42 00 00 22  Length = 4138208 BitCount = 142 ID = 270704704x
   2.812050 1  10220040x       Rx   d 8 10 00 00 00 00 06 00 00  Length = 4288208 BitCount = 147 ID = 270663744x
   2.816431 1  1022C040x       Rx   d 6 00 10 00 20 00 00  Length = 3688216 BitCount = 127 ID = 270712896x
   2.822013 1  1022E040x       Rx   d 8 30 00 00 00 30 00 00 00  Length = 4288208 BitCount = 147 ID = 270721088x
   2.825434 1  10250040x       Rx   d 2 00 03  Length = 2604654 BitCount = 91 ID = 270860352x
   2.832009 1  10230040x       Rx   d 8 00 00 00 00 00 00 00 00  Length = 4288223 BitCount = 147 ID = 270729280x
   2.836872 1  102CC040x       Rx   d 8 00 09 CF 67 00 87 06 AE  Length = 4048212 BitCount = 139 ID = 271368256x
   2.841882 1  102CE040x       Rx   d 8 90 00 66 7F 00 00 26 AD  Length = 4074581 BitCount = 140 ID = 271376448x
   2.847013 1  102D0040x       Rx   d 8 01 69 01 ED 7C 97 00 FF  Length = 4134581 BitCount = 142 ID = 271384640x
   2.852028 1  10240040x       Rx   d 8 83 FE 88 01 01 2C 0F FC  Length = 4258223 BitCount = 146 ID = 270794816x
   2.856981 1  102E0040x       Rx   d 8 00 33 CA 72 8A 00 62 81  Length = 4138208 BitCount = 142 ID = 271450176x
   2.860042 1  106B0040x       Rx   d 1 00  Length = 2308248 BitCount = 81 ID = 275447872x
   2.867092 1  106B8040x       Rx   d 8 00 00 00 00 00 00 00 00  Length = 4314558 BitCount = 148 ID = 275480640x
   2.871957 1  102CA040x       Rx   d 8 00 40 0C 9E 2C 00 F1 00  Length = 4138208 BitCount = 142 ID = 271360064x
   2.876276 1  106C0040x       Rx   d 5 00 06 0F 07 00  Length = 3444598 BitCount = 119 ID = 275513408x
   2.881467 1  C800040x        Rx   d 6 08 CB 00 00 8E BF  Length = 3654586 BitCount = 126 ID = 209715264x
   2.886032 1  1077C040x       Rx   d 4 30 30 01 F4  Length = 3148224 BitCount = 109 ID = 276283456x
   2.892034 1  10264040x       Rx   d 8 04 06 00 00 00 00 00 27  Length = 4224562 BitCount = 145 ID = 270942272x
   2.897135 1  10780040x       Rx   d 8 00 00 01 04 08 00 00 22  Length = 4284573 BitCount = 147 ID = 276299840x
   2.902090 1  10210040x       Rx   d 8 00 00 00 00 00 00 00 00  Length = 4288208 BitCount = 147 ID = 270598208x
   2.906533 1  10788040x       Rx   d 6 08 00 00 00 00 00  Length = 3778216 BitCount = 130 ID = 276332608x
   2.912058 1  10220040x       Rx   d 8 10 00 00 00 00 05 00 00  Length = 4288208 BitCount = 147 ID = 270663744x
   2.916202 1  10806040x       Rx   d 5 00 00 00 00 19  Length = 3418220 BitCount = 118 ID = 276848704x
   2.922025 1  1022E040x       Rx   d 8 10 00 00 00 10 00 00 00  Length = 4258208 BitCount = 146 ID = 270721088x
   2.932017 1  10230040x       Rx   d 8 20 00 00 00 20 00 00 00  Length = 4258208 BitCount = 146 ID = 270729280x
   2.939011 1  10734099x       Rx   d 6 24 44 00 7D 00 00  Length = 3598216 BitCount = 124 ID = 275988633x
   2.943418 1  1043A040x       Rx   d 8 00 00 36 00 00 00 00 00  Length = 4284562 BitCount = 147 ID = 272867392x
   2.952060 1  10240040x       Rx   d 8 83 FE 88 01 01 2C 0F FC  Length = 4254562 BitCount = 146 ID = 270794816x
   2.961037 1  102C0040x       Rx   d 5 AE EF 44 59 03  Length = 3298224 BitCount = 114 ID = 271319104x
   2.971961 1  102CA040x       Rx   d 8 00 40 0C B6 2C 00 F1 00  Length = 4138223 BitCount = 142 ID = 271360064x
   2.974215 1  13FFE068x       Rx   d 0  Length = 2068260 BitCount = 73 ID = 335536232x
   2.976647 1  106B0040x       Rx   d 1 00  Length = 2308248 BitCount = 81 ID = 275447872x
   2.979555 1  10308060x       Rx   d 3 44 59 01  Length = 2784638 BitCount = 97 ID = 271614048x
   2.986693 1  10304058x       Rx   d 3 44 59 01  Length = 2724642 BitCount = 95 ID = 271597656x
   2.989393 1  106D0080x       Rx   d 2 00 00  Length = 2574658 BitCount = 90 ID = 275579008x
   2.993745 1  10264040x       Rx   d 8 04 06 00 00 00 00 00 3B  Length = 4224562 BitCount = 145 ID = 270942272x
   2.998155 1  10306099x       Rx   d 3 44 59 01  Length = 2754642 BitCount = 96 ID = 271605913x
   3.002565 1  10210040x       Rx   d 8 00 00 00 00 00 00 00 00  Length = 4284562 BitCount = 147 ID = 270598208x
   3.005000 1  10244060x       Rx   d 1 02  Length = 2308248 BitCount = 81 ID = 270811232x
   3.012083 1  10220040x       Rx   d 8 10 00 00 00 00 06 00 00  Length = 4288208 BitCount = 147 ID = 270663744x
   3.015197 1  Statistic: D 4 R 0 XD 161 XR 0 E 0 O 0 B 63.72%
   3.015197 2  Statistic: D 0 R 0 XD 0 XR 0 E 0 O 0 B 0.00%
   3.015197 3  Statistic: D 0 R 0 XD 0 XR 0 E 0 O 0 B 0.00%
   3.022049 1  1022E040x       Rx   d 8 30 00 00 00 30 00 00 00  Length = 4288208 BitCount = 147 ID = 270721088x
   3.025622 1  10424040x       Rx   d 3 04 8A 90  Length = 2818247 BitCount = 98 ID = 272777280x
   3.028806 1  10814099x       Rx   d 4 20 44 2E 00  Length = 3058228 BitCount = 106 ID = 276906137x
   3.033220 1  10230040x       Rx   d 8 00 00 00 00 00 00 00 00  Length = 4288223 BitCount = 147 ID = 270729280x
   3.051949 1  1022A040x       Rx   d 8 00 B0 00 12 42 00 00 22  Length = 4138208 BitCount = 142 ID = 270704704x
   3.056512 1  1022C040x       Rx   d 6 00 10 00 20 00 00  Length = 3688216 BitCount = 127 ID = 270712896x
   3.060172 1  10734099x       Rx   d 6 24 43 00 7D 00 00  Length = 3534590 BitCount = 122 ID = 275988633x
   3.064556 1  10240040x       Rx   d 8 83 FE 88 01 01 2C 0F FC  Length = 4258223 BitCount = 146 ID = 270794816x
   3.071668 1  10248040x       Rx   d 7 00 00 6C D2 CC 1C 00  Length = 3864578 BitCount = 133 ID = 270827584x
   3.077007 1  102CA040x       Rx   d 8 00 40 0C BD 2C 00 F1 00  Length = 4134566 BitCount = 142 ID = 271360064x
   3.082022 1  102CC040x       Rx   d 8 00 09 CF 67 00 87 06 AD  Length = 4048212 BitCount = 139 ID = 271368256x
   3.087153 1  106B8040x       Rx   d 8 00 00 00 00 00 00 00 00  Length = 4318208 BitCount = 148 ID = 275480640x
   3.092046 1  10264040x       Rx   d 8 04 06 00 00 00 00 00 3B  Length = 4228208 BitCount = 145 ID = 270942272x
   3.096937 1  102CE040x       Rx   d 8 90 00 66 7F 00 00 26 AD  Length = 4078212 BitCount = 140 ID = 271376448x
   3.102161 1  10210040x       Rx   d 8 00 00 00 00 00 00 00 00  Length = 4288208 BitCount = 147 ID = 270598208x
   3.105102 1  106B0040x       Rx   d 1 00  Length = 2308248 BitCount = 81 ID = 275447872x
   3.112157 1  10220040x       Rx   d 8 10 00 00 00 00 07 00 00  Length = 4318208 BitCount = 148 ID = 270663744x
   3.114832 1  13FFE040x       Rx   d 0  Length = 2068260 BitCount = 73 ID = 335536192x
   3.122097 1  1022E040x       Rx   d 8 10 00 00 00 10 00 00 00  Length = 4258208 BitCount = 146 ID = 270721088x
   3.127171 1  10780040x       Rx   d 8 00 00 01 04 08 00 00 22  Length = 4288223 BitCount = 147 ID = 276299840x
   3.131490 1  C800040x        Rx   d 6 08 CB 00 00 8E C3  Length = 3594601 BitCount = 124 ID = 209715264x
   3.137105 1  10230040x       Rx   d 8 20 00 00 00 20 00 00 00  Length = 4258208 BitCount = 146 ID = 270729280x
   3.152171 1  10240040x       Rx   d 8 83 FE 88 01 01 2C 0F FC  Length = 4258223 BitCount = 146 ID = 270794816x
   3.156730 1  10EC4040x       Rx   d 8 4C 41 5A 41 36 39 53 44  Length = 3954574 BitCount = 136 ID = 283918400x
   3.161802 1  10EC8040x       Rx   d 8 48 42 37 30 31 34 39 36  Length = 3894589 BitCount = 134 ID = 283934784x
   3.172008 1  102CA040x       Rx   d 8 00 40 0C B2 2C 00 F1 00  Length = 4138208 BitCount = 142 ID = 271360064x
   3.178670 1  10448060x       Rx   d 4 00 00 45 00  Length = 3058243 BitCount = 106 ID = 272924768x
   3.192055 1  10264040x       Rx   d 8 04 06 00 00 00 00 00 28  Length = 4198208 BitCount = 144 ID = 270942272x
   3.197128 1  1043A040x       Rx   d 8 00 00 39 00 00 00 00 00  Length = 4288208 BitCount = 147 ID = 272867392x
   3.202137 1  10210040x       Rx   d 8 00 00 00 00 00 00 00 00  Length = 4284562 BitCount = 147 ID = 270598208x
   3.212133 1  10220040x       Rx   d 8 10 00 00 00 00 05 00 00  Length = 4288208 BitCount = 147 ID = 270663744x
   3.222128 1  1022E040x       Rx   d 8 30 00 00 00 30 00 00 00  Length = 4288208 BitCount = 147 ID = 270721088x
   3.225131 1  106B0040x       Rx   d 1 00  Length = 2308248 BitCount = 81 ID = 275447872x
   3.232154 1  10230040x       Rx   d 8 00 00 00 00 00 00 00 00  Length = 4288208 BitCount = 147 ID = 270729280x
   3.252106 1  10240040x       Rx   d 8 83 FE 88 01 01 2C 0F FC  Length = 4254562 BitCount = 146 ID = 270794816x
   3.257180 1  106B8040x       Rx   d 8 00 00 00 00 00 00 00 00  Length = 4318208 BitCount = 148 ID = 275480640x
   3.261112 1  102C0040x       Rx   d 5 AE EF 44 59 03  Length = 3298224 BitCount = 114 ID = 271319104x
   3.272036 1  102CA040x       Rx   d 8 00 40 0C B6 2C 00 F1 00  Length = 4138208 BitCount = 142 ID = 271360064x
   3.286497 1  10304058x       Rx   d 3 44 59 01  Length = 2728236 BitCount = 95 ID = 271597656x
   3.292049 1  10264040x       Rx   d 8 04 06 00 00 00 00 00 3C  Length = 4198223 BitCount = 144 ID = 270942272x
   3.298143 1  10306099x       Rx   d 3 44 59 01  Length = 2758236 BitCount = 96 ID = 271605913x
   3.302558 1  10210040x       Rx   d 8 00 00 00 00 00 00 00 00  Length = 4291858 BitCount = 147 ID = 270598208x
   3.305470 1  10308060x       Rx   d 3 44 59 01  Length = 2788247 BitCount = 97 ID = 271614048x
   3.309733 1  1022A040x       Rx   d 8 00 B0 00 12 42 00 00 22  Length = 4138208 BitCount = 142 ID = 270704704x
   3.317175 1  10220040x       Rx   d 8 10 00 00 00 00 04 00 00  Length = 4318208 BitCount = 148 ID = 270663744x
   3.321558 1  1022C040x       Rx   d 6 00 10 00 20 00 00  Length = 3688216 BitCount = 127 ID = 270712896x
   3.324046 1  13FFE0BBx       Rx   d 0  Length = 2034718 BitCount = 72 ID = 335536315x
   3.328430 1  1022E040x       Rx   d 8 10 00 00 00 10 00 00 00  Length = 4258208 BitCount = 146 ID = 270721088x
   3.337158 1  10230040x       Rx   d 8 20 00 00 00 20 00 00 00  Length = 4254577 BitCount = 146 ID = 270729280x
   3.341963 1  102CC040x       Rx   d 8 00 09 CF 67 00 87 06 AE  Length = 4048212 BitCount = 139 ID = 271368256x
   3.347006 1  102CE040x       Rx   d 8 90 00 66 7F 00 00 26 AD  Length = 4078212 BitCount = 140 ID = 271376448x
   3.352230 1  10240040x       Rx   d 8 83 FE 88 01 01 2C 0F FC  Length = 4258208 BitCount = 146 ID = 270794816x
   3.357035 1  102D0040x       Rx   d 8 01 69 01 ED 7C 98 00 FF  Length = 4138208 BitCount = 142 ID = 271384640x
   3.360278 1  106B0040x       Rx   d 1 00  Length = 2308248 BitCount = 81 ID = 275447872x
   3.366308 1  10806040x       Rx   d 5 00 00 00 00 19  Length = 3414598 BitCount = 118 ID = 276848704x
   3.372072 1  102CA040x       Rx   d 8 00 40 0C AE 2C 00 F1 00  Length = 4138208 BitCount = 142 ID = 271360064x
   3.377234 1  10780040x       Rx   d 8 00 00 01 04 08 00 00 22  Length = 4288208 BitCount = 147 ID = 276299840x
   3.381525 1  C800040x        Rx   d 6 08 CB 00 00 8E C5  Length = 3628231 BitCount = 125 ID = 209715264x
   3.386654 1  10788040x       Rx   d 6 08 00 00 00 00 00  Length = 3774582 BitCount = 130 ID = 276332608x
   3.392089 1  10264040x       Rx   d 8 04 06 00 00 00 00 00 3C  Length = 4198208 BitCount = 144 ID = 270942272x
   3.395958 1  13FFE058x       Rx   d 0  Length = 2094710 BitCount = 74 ID = 335536216x
   3.402168 1  10210040x       Rx   d 8 00 00 00 00 00 00 00 00  Length = 4284562 BitCount = 147 ID = 270598208x
   3.412194 1  10220040x       Rx   d 8 10 00 00 00 00 04 00 00  Length = 4318208 BitCount = 148 ID = 270663744x
   3.422129 1  1022E040x       Rx   d 8 30 00 00 00 30 00 00 00  Length = 4288208 BitCount = 147 ID = 270721088x
   3.432183 1  10230040x       Rx   d 8 00 00 00 00 00 00 00 00  Length = 4288208 BitCount = 147 ID = 270729280x
   3.438931 1  10734099x       Rx   d 6 24 43 00 7D 00 00  Length = 3534590 BitCount = 122 ID = 275988633x
   3.443404 1  1043A040x       Rx   d 8 00 00 38 00 00 00 00 00  Length = 4348208 BitCount = 149 ID = 272867392x
   3.452200 1  10240040x       Rx   d 8 83 FE 88 01 01 2C 0F FC  Length = 4258208 BitCount = 146 ID = 270794816x
   3.457215 1  106B8040x       Rx   d 8 00 00 00 00 00 00 00 00  Length = 4318208 BitCount = 148 ID = 275480640x
   3.472129 1  102CA040x       Rx   d 8 00 40 0C A6 2C 00 F1 00  Length = 4168208 BitCount = 143 ID = 271360064x
   3.475194 1  106B0040x       Rx   d 1 00  Length = 2308248 BitCount = 81 ID = 275447872x
   3.492120 1  10264040x       Rx   d 8 04 06 00 00 00 00 00 3C  Length = 4198223 BitCount = 144 ID = 270942272x
   3.502204 1  10210040x       Rx   d 8 00 00 00 00 00 00 00 00  Length = 4288208 BitCount = 147 ID = 270598208x
   3.512198 1  10220040x       Rx   d 8 10 00 00 00 00 05 00 00  Length = 4288223 BitCount = 147 ID = 270663744x
   3.522163 1  1022E040x       Rx   d 8 10 00 00 00 10 00 00 00  Length = 4258208 BitCount = 146 ID = 270721088x
   3.525642 1  10424040x       Rx   d 3 04 8A 91  Length = 2754642 BitCount = 96 ID = 272777280x
   3.532157 1  10230040x       Rx   d 8 20 00 00 00 20 00 00 00  Length = 4258208 BitCount = 146 ID = 270729280x
   3.534346 1  13FFE0AFx       Rx   d 0  Length = 2064729 BitCount = 73 ID = 335536303x
   3.552082 1  1022A040x       Rx   d 8 00 B0 00 12 42 00 00 22  Length = 4138208 BitCount = 142 ID = 270704704x
   3.556585 1  1022C040x       Rx   d 6 00 10 00 20 00 00  Length = 3688216 BitCount = 127 ID = 270712896x
   3.562291 1  10240040x       Rx   d 8 83 FE 88 01 01 2C 0F FC  Length = 4258208 BitCount = 146 ID = 270794816x
   3.566194 1  102C0040x       Rx   d 5 AE EF 44 59 03  Length = 3298224 BitCount = 114 ID = 271319104x
   3.570277 1  10242040x       Rx   d 1 02  Length = 2308263 BitCount = 81 ID = 270803008x
   3.576790 1  10248040x       Rx   d 7 00 00 6C D2 CC 1D 00  Length = 3868212 BitCount = 133 ID = 270827584x
   3.579703 1  10308060x       Rx   d 3 44 59 01  Length = 2788236 BitCount = 97 ID = 271614048x
   3.583996 1  102CA040x       Rx   d 8 00 40 0C BB 2C 00 F1 00  Length = 4168208 BitCount = 143 ID = 271360064x
   3.586844 1  10304058x       Rx   d 3 44 59 01  Length = 2724642 BitCount = 95 ID = 271597656x
   3.591937 CAN 1 Status:chip status error active  - TxErr: 0 RxErr: 1
   3.591944 1  ErrorFrame	Flags = 0xfffe	CodeExt = 0x2072	Code = 0x81	ID = 0x90264040	DLC = 8	Position = 120	Length = 4014375	Data = 0x4  0x6  0  0  0  0  0  0x28
   3.596442 CAN 1 Status:chip status error active
   3.596659 1  10264040x       Rx   d 8 04 06 00 00 00 00 00 28  Length = 4198208 BitCount = 144 ID = 270942272x
   3.599543 1  10306099x       Rx   d 3 44 59 01  Length = 2758236 BitCount = 96 ID = 271605913x
   3.603953 1  10210040x       Rx   d 8 00 00 00 00 00 00 00 00  Length = 4284562 BitCount = 147 ID = 270598208x
   3.612269 1  10220040x       Rx   d 8 10 00 00 00 00 05 00 00  Length = 4288208 BitCount = 147 ID = 270663744x
   3.617012 1  102CC040x       Rx   d 8 00 09 CF 67 00 87 06 AD  Length = 4048212 BitCount = 139 ID = 271368256x
   3.622202 1  1022E040x       Rx   d 8 30 00 00 00 30 00 00 00  Length = 4284562 BitCount = 147 ID = 270721088x
   3.627067 1  102CE040x       Rx   d 8 90 00 66 7F 00 00 26 AD  Length = 4078212 BitCount = 140 ID = 271376448x
   3.631600 1  C800040x        Rx   d 6 08 CB 00 00 8E C9  Length = 3598216 BitCount = 124 ID = 209715264x
   3.637305 1  10230040x       Rx   d 8 00 00 00 00 00 00 00 00  Length = 4288223 BitCount = 147 ID = 270729280x
   3.640218 1  106B0040x       Rx   d 1 00  Length = 2308248 BitCount = 81 ID = 275447872x
   3.647298 1  10780040x       Rx   d 8 00 00 01 04 08 00 00 22  Length = 4284573 BitCount = 147 ID = 276299840x
   3.652283 1  10240040x       Rx   d 8 83 FE 88 01 01 2C 0F FC  Length = 4258208 BitCount = 146 ID = 270794816x
   3.657294 1  106B8040x       Rx   d 8 00 00 00 00 00 00 00 00  Length = 4318208 BitCount = 148 ID = 275480640x
   3.672150 1  102CA040x       Rx   d 8 00 40 0C C5 2C 00 F1 00  Length = 4138223 BitCount = 142 ID = 271360064x
   3.681512 1  621             Rx   d 8 00 52 00 00 00 00 00 00  Length = 3594590 BitCount = 124 ID = 1569
   3.692138 1  10264040x       Rx   d 8 04 06 00 00 00 00 00 3C  Length = 4198208 BitCount = 144 ID = 270942272x
   3.697244 1  1043A040x       Rx   d 8 00 00 36 00 00 00 00 00  Length = 4288208 BitCount = 147 ID = 272867392x
   3.702285 1  10210040x       Rx   d 8 00 00 00 00 00 00 00 00  Length = 4288208 BitCount = 147 ID = 270598208x
   3.706968 1  1080A040x       Rx   d 7 00 00 00 00 00 00 00  Length = 4018212 BitCount = 138 ID = 276865088x
   3.712247 1  10220040x       Rx   d 8 10 00 00 00 00 06 00 00  Length = 4284562 BitCount = 147 ID = 270663744x
   3.722214 1  1022E040x       Rx   d 8 10 00 00 00 10 00 00 00  Length = 4258208 BitCount = 146 ID = 270721088x
   3.732208 1  10230040x       Rx   d 8 20 00 00 00 20 00 00 00  Length = 4258208 BitCount = 146 ID = 270729280x
   3.752255 1  10240040x       Rx   d 8 83 FE 88 01 01 2C 0F FC  Length = 4258208 BitCount = 146 ID = 270794816x
   3.755260 1  106B0040x       Rx   d 1 00  Length = 2308248 BitCount = 81 ID = 275447872x
   3.768549 1  108E0080x       Rx   d 6 0E 01 17 02 0D A5  Length = 3594601 BitCount = 124 ID = 277741696x
   3.772814 1  102CA040x       Rx   d 8 00 40 0C AC 2C 00 F1 00  Length = 4138208 BitCount = 142 ID = 271360064x
   3.792169 1  10264040x       Rx   d 8 04 06 00 00 00 00 00 3C  Length = 4198208 BitCount = 144 ID = 270942272x
   3.797723 1  13FFE060x       Rx   d 0  Length = 2098256 BitCount = 74 ID = 335536224x
   3.802317 1  10210040x       Rx   d 8 00 00 00 00 00 00 00 00  Length = 4288208 BitCount = 147 ID = 270598208x
   3.807152 1  1022A040x       Rx   d 8 00 B0 00 12 42 00 00 22  Length = 4138208 BitCount = 142 ID = 270704704x
   3.809345 1  13FFE080x       Rx   d 0  Length = 2068260 BitCount = 73 ID = 335536256x
   3.813754 1  10220040x       Rx   d 8 10 00 00 00 00 06 00 00  Length = 4284573 BitCount = 147 ID = 270663744x
   3.821710 1  1022C040x       Rx   d 6 00 10 00 20 00 00  Length = 3688231 BitCount = 127 ID = 270712896x
   3.827235 1  1022E040x       Rx   d 8 30 00 00 00 30 00 00 00  Length = 4288223 BitCount = 147 ID = 270721088x
   3.829428 1  13FFE099x       Rx   d 0  Length = 2068260 BitCount = 73 ID = 335536281x
   3.833837 1  10230040x       Rx   d 8 00 00 00 00 00 00 00 00  Length = 4284562 BitCount = 147 ID = 270729280x
   3.840593 1  10250040x       Rx   d 2 00 03  Length = 2608255 BitCount = 91 ID = 270860352x
   3.847074 1  102CC040x       Rx   d 8 00 09 CF 67 00 87 06 AE  Length = 4048227 BitCount = 139 ID = 271368256x
   3.852269 1  10240040x       Rx   d 8 83 FE 88 01 01 2C 0F FC  Length = 4258208 BitCount = 146 ID = 270794816x
   3.857134 1  102CE040x       Rx   d 8 90 00 66 7F 00 00 26 AD  Length = 4078227 BitCount = 140 ID = 271376448x
   3.861308 1  102C0040x       Rx   d 5 AE EF 44 59 03  Length = 3298224 BitCount = 114 ID = 271319104x
   3.867159 1  102D0040x       Rx   d 8 01 69 01 ED 7C 98 00 FF  Length = 4138208 BitCount = 142 ID = 271384640x
   3.872202 1  102CA040x       Rx   d 8 00 40 0C C3 2C 00 F1 00  Length = 4138223 BitCount = 142 ID = 271360064x
   3.877243 1  102E0040x       Rx   d 8 00 33 CA 72 8A 00 62 81  Length = 4138208 BitCount = 142 ID = 271450176x
   3.881465 CAN 1 Status:chip status error active  - TxErr: 0 RxErr: 1
   3.881473 1  ErrorFrame	Flags = 0xfffe	CodeExt = 0x2072	Code = 0x81	ID = 0x8c800040	DLC = 6	Position = 104	Length = 3414390	Data = 0x8  0xcb  0  0  0x8e  0xcb
   3.885368 CAN 1 Status:chip status error active
   3.885586 1  C800040x        Rx   d 6 08 CB 00 00 8E CB  Length = 3598216 BitCount = 124 ID = 209715264x
   3.888435 1  10304058x       Rx   d 3 44 59 01  Length = 2724642 BitCount = 95 ID = 271597656x
   3.892755 1  10264040x       Rx   d 8 04 06 00 00 00 00 00 28  Length = 4194577 BitCount = 144 ID = 270942272x
   3.896450 1  10466040x       Rx   d 5 00 00 00 00 00  Length = 3448220 BitCount = 119 ID = 273047616x
   3.899330 1  10306099x       Rx   d 3 44 59 01  Length = 2754642 BitCount = 96 ID = 271605913x
   3.903739 1  10210040x       Rx   d 8 00 00 00 00 00 00 00 00  Length = 4284573 BitCount = 147 ID = 270598208x
   3.906655 1  10308060x       Rx   d 3 44 59 01  Length = 2788236 BitCount = 97 ID = 271614048x
   3.912358 1  10220040x       Rx   d 8 10 00 00 00 00 04 00 00  Length = 4318223 BitCount = 148 ID = 270663744x
   3.915301 1  106B0040x       Rx   d 1 00  Length = 2308248 BitCount = 81 ID = 275447872x
   3.922236 1  1022E040x       Rx   d 8 10 00 00 00 10 00 00 00  Length = 4258208 BitCount = 146 ID = 270721088x
   3.927342 1  106B8040x       Rx   d 8 00 00 00 00 00 00 00 00  Length = 4318208 BitCount = 148 ID = 275480640x
   3.932323 1  10230040x       Rx   d 8 20 00 00 00 20 00 00 00  Length = 4258208 BitCount = 146 ID = 270729280x
   3.936522 1  106C0040x       Rx   d 5 00 06 0F 07 00  Length = 3444598 BitCount = 119 ID = 275513408x
   3.940183 1  10734099x       Rx   d 6 24 43 00 7D 00 00  Length = 3534590 BitCount = 122 ID = 275988633x
   3.944626 1  1043A040x       Rx   d 8 00 00 37 00 00 00 00 00  Length = 4318223 BitCount = 148 ID = 272867392x
   3.952308 1  10240040x       Rx   d 8 83 FE 88 01 01 2C 0F FC  Length = 4258208 BitCount = 146 ID = 270794816x
   3.956149 1  1077C040x       Rx   d 4 30 30 01 F4  Length = 3148224 BitCount = 109 ID = 276283456x
   3.962424 1  10780040x       Rx   d 8 00 00 01 04 08 00 00 22  Length = 4288208 BitCount = 147 ID = 276299840x
   3.966809 1  10788040x       Rx   d 6 08 00 00 00 00 00  Length = 3778216 BitCount = 130 ID = 276332608x
   3.972275 1  102CA040x       Rx   d 8 00 40 0C AF 2C 00 F1 00  Length = 4138208 BitCount = 142 ID = 271360064x
   3.976446 1  10806040x       Rx   d 5 00 00 00 00 19  Length = 3414598 BitCount = 118 ID = 276848704x
   3.992233 1  10264040x       Rx   d 8 04 06 00 00 00 00 00 3C  Length = 4198208 BitCount = 144 ID = 270942272x
   4.002320 1  10210040x       Rx   d 8 00 00 00 00 00 00 00 00  Length = 4288208 BitCount = 147 ID = 270598208x
   4.002525 Li SleepModeEvent 0 entering sleep mode due to bus idle timeout
   4.012374 1  10220040x       Rx   d 8 10 00 00 00 00 04 00 00  Length = 4318208 BitCount = 148 ID = 270663744x
   4.015198 1  Statistic: D 1 R 0 XD 154 XR 0 E 2 O 0 B 61.48%
   4.015198 2  Statistic: D 0 R 0 XD 0 XR 0 E 0 O 0 B 0.00%
   4.015198 3  Statistic: D 0 R 0 XD 0 XR 0 E 0 O 0 B 0.00%
   4.022307 1  1022E040x       Rx   d 8 30 00 00 00 30 00 00 00  Length = 4288208 BitCount = 147 ID = 270721088x
   4.032303 1  10230040x       Rx   d 8 00 00 00 00 00 00 00 00  Length = 4288208 BitCount = 147 ID = 270729280x
   4.035396 1  106B0040x       Rx   d 1 00  Length = 2308248 BitCount = 81 ID = 275447872x
   4.052292 1  1022A040x       Rx   d 8 00 B0 00 12 42 00 00 22  Length = 4138223 BitCount = 142 ID = 270704704x
   4.056735 1  1022C040x       Rx   d 6 00 10 00 20 00 00  Length = 3688216 BitCount = 127 ID = 270712896x
   4.062410 1  10240040x       Rx   d 8 83 FE 88 01 01 2C 0F FC  Length = 4258208 BitCount = 146 ID = 270794816x
   4.067364 1  106B8040x       Rx   d 8 00 00 00 00 00 00 00 00  Length = 4318223 BitCount = 148 ID = 275480640x
   4.071897 1  10248040x       Rx   d 7 00 00 6C D2 CC 1B 00  Length = 3838212 BitCount = 132 ID = 270827584x
   4.077296 1  102CA040x       Rx   d 8 00 40 0C B5 2C 00 F1 00  Length = 4194562 BitCount = 144 ID = 271360064x
   4.082161 1  102CC040x       Rx   d 8 00 09 CF 67 00 87 06 AE  Length = 4048212 BitCount = 139 ID = 271368256x
   4.092246 1  10264040x       Rx   d 8 04 06 00 00 00 00 00 3C  Length = 4198208 BitCount = 144 ID = 270942272x
   4.097169 1  102CE040x       Rx   d 8 90 00 66 7F 00 00 26 AD  Length = 4078227 BitCount = 140 ID = 271376448x
   4.102390 1  10210040x       Rx   d 8 00 00 00 00 00 00 00 00  Length = 4288208 BitCount = 147 ID = 270598208x
   4.112383 1  10220040x       Rx   d 8 10 00 00 00 00 04 00 00  Length = 4318208 BitCount = 148 ID = 270663744x
   4.122287 1  1022E040x       Rx   d 8 10 00 00 00 10 00 00 00  Length = 4258208 BitCount = 146 ID = 270721088x
   4.127388 1  10780040x       Rx   d 8 00 00 01 04 08 00 00 22  Length = 4284573 BitCount = 147 ID = 276299840x
   4.131740 1  C800040x        Rx   d 6 08 CB 00 00 8E CF  Length = 3624586 BitCount = 125 ID = 209715264x
   4.137295 1  10230040x       Rx   d 8 20 00 00 00 20 00 00 00  Length = 4258208 BitCount = 146 ID = 270729280x
   4.152360 1  10240040x       Rx   d 8 83 FE 88 01 01 2C 0F FC  Length = 4258208 BitCount = 146 ID = 270794816x
   4.155334 1  106B0040x       Rx   d 1 00  Length = 2308248 BitCount = 81 ID = 275447872x
   4.161395 1  102C0040x       Rx   d 5 AE EF 44 59 03  Length = 3294606 BitCount = 114 ID = 271319104x
   4.172291 1  102CA040x       Rx   d 8 00 40 0C CE 2C 00 F1 00  Length = 4138208 BitCount = 142 ID = 271360064x
   4.174484 1  13FFE068x       Rx   d 0  Length = 2068260 BitCount = 73 ID = 335536232x
   4.178357 1  10308060x       Rx   d 3 44 59 01  Length = 2788236 BitCount = 97 ID = 271614048x
   4.181540 1  10448060x       Rx   d 4 00 00 45 00  Length = 3058243 BitCount = 106 ID = 272924768x
   4.186248 1  10304058x       Rx   d 3 44 59 01  Length = 2724642 BitCount = 95 ID = 271597656x
   4.188948 1  106D0080x       Rx   d 2 00 00  Length = 2574658 BitCount = 90 ID = 275579008x
   4.193300 1  10264040x       Rx   d 8 04 06 00 00 00 00 00 29  Length = 4228208 BitCount = 145 ID = 270942272x
   4.197317 1  10324058x       Rx   d 6 00 00 03 FF 00 00  Length = 3684586 BitCount = 127 ID = 271728728x
   4.200200 1  10306099x       Rx   d 3 44 59 01  Length = 2758251 BitCount = 96 ID = 271605913x
   4.204609 1  10210040x       Rx   d 8 00 00 00 00 00 00 00 00  Length = 4284562 BitCount = 147 ID = 270598208x
   4.212441 1  10220040x       Rx   d 8 10 00 00 00 00 04 00 00  Length = 4314558 BitCount = 148 ID = 270663744x
   4.217366 1  1043A040x       Rx   d 8 00 00 39 00 00 00 00 00  Length = 4288208 BitCount = 147 ID = 272867392x
   4.222349 1  1022E040x       Rx   d 8 30 00 00 00 30 00 00 00  Length = 4288208 BitCount = 147 ID = 270721088x
   4.232402 1  10230040x       Rx   d 8 00 00 00 00 00 00 00 00  Length = 4288208 BitCount = 147 ID = 270729280x
   4.252385 1  10240040x       Rx   d 8 83 FE 88 01 01 2C 0F FC  Length = 4254562 BitCount = 146 ID = 270794816x
   4.257430 1  106B8040x       Rx   d 8 00 00 00 00 00 00 00 00  Length = 4318208 BitCount = 148 ID = 275480640x
   4.260127 1  13FFE040x       Rx   d 0  Length = 2064729 BitCount = 73 ID = 335536192x
   4.272313 1  102CA040x       Rx   d 8 00 40 0C CC 2C 00 F1 00  Length = 4168208 BitCount = 143 ID = 271360064x
   4.275379 1  106B0040x       Rx   d 1 00  Length = 2308248 BitCount = 81 ID = 275447872x
   4.292335 1  10264040x       Rx   d 8 04 06 00 00 00 00 00 3E  Length = 4228208 BitCount = 145 ID = 270942272x
   4.302389 1  10210040x       Rx   d 8 00 00 00 00 00 00 00 00  Length = 4288208 BitCount = 147 ID = 270598208x
   4.307282 1  1022A040x       Rx   d 8 00 B0 00 12 42 00 00 22  Length = 4138208 BitCount = 142 ID = 270704704x
   4.312412 1  10220040x       Rx   d 8 10 00 00 00 00 06 00 00  Length = 4284562 BitCount = 147 ID = 270663744x
   4.316793 1  1022C040x       Rx   d 6 00 10 00 20 00 00  Length = 3684586 BitCount = 127 ID = 270712896x
   4.322348 1  1022E040x       Rx   d 8 10 00 00 00 10 00 00 00  Length = 4258223 BitCount = 146 ID = 270721088x
   4.332372 1  10230040x       Rx   d 8 20 00 00 00 20 00 00 00  Length = 4258208 BitCount = 146 ID = 270729280x
   4.337235 1  102CC040x       Rx   d 8 00 09 CF 67 00 87 06 AC  Length = 4078212 BitCount = 140 ID = 271368256x
   4.342249 1  102CE040x       Rx   d 8 90 00 66 7F 00 00 26 AC  Length = 4078212 BitCount = 140 ID = 271376448x
   4.347290 1  102D0040x       Rx   d 8 01 69 01 ED 7C 98 00 FF  Length = 4138208 BitCount = 142 ID = 271384640x
   4.352389 1  10240040x       Rx   d 8 83 FF 88 01 01 2C 0F FC  Length = 4194562 BitCount = 144 ID = 270794816x
   4.361635 1  10806040x       Rx   d 5 00 00 00 00 19  Length = 3418220 BitCount = 118 ID = 276848704x
   4.372320 1  102CA040x       Rx   d 8 00 40 0C D3 2C 00 F1 00  Length = 4138208 BitCount = 142 ID = 271360064x
   4.377573 1  10780040x       Rx   d 8 00 00 01 04 08 00 00 22  Length = 4288208 BitCount = 147 ID = 276299840x
   4.381804 1  C800040x        Rx   d 6 08 CB 00 00 8E D1  Length = 3598216 BitCount = 124 ID = 209715264x
   4.386905 1  10788040x       Rx   d 6 08 00 00 00 00 00  Length = 3778216 BitCount = 130 ID = 276332608x
   4.392369 1  10264040x       Rx   d 8 04 06 00 00 00 00 00 3E  Length = 4228223 BitCount = 145 ID = 270942272x
   4.395402 1  106B0040x       Rx   d 1 00  Length = 2308263 BitCount = 81 ID = 275447872x
   4.402427 1  10210040x       Rx   d 8 00 00 00 00 00 00 00 00  Length = 4288208 BitCount = 147 ID = 270598208x
   4.412424 1  10220040x       Rx   d 8 10 00 00 00 00 06 00 00  Length = 4288208 BitCount = 147 ID = 270663744x
   4.422448 1  1022E040x       Rx   d 8 30 00 00 00 30 00 00 00  Length = 4288208 BitCount = 147 ID = 270721088x
   4.432413 1  10230040x       Rx   d 8 00 00 00 00 00 00 00 00  Length = 4288223 BitCount = 147 ID = 270729280x
   4.438921 1  10734099x       Rx   d 6 24 43 00 7D 00 00  Length = 3534590 BitCount = 122 ID = 275988633x
   4.443333 1  1043A040x       Rx   d 8 00 00 36 00 00 00 00 00  Length = 4288208 BitCount = 147 ID = 272867392x
   4.452425 1  10240040x       Rx   d 8 83 FE 88 01 01 2C 0F FC  Length = 4258208 BitCount = 146 ID = 270794816x
   4.457469 1  106B8040x       Rx   d 8 00 00 00 00 00 00 00 00  Length = 4318208 BitCount = 148 ID = 275480640x
   4.461432 1  102C0040x       Rx   d 5 AE EF 44 59 03  Length = 3298239 BitCount = 114 ID = 271319104x
   4.472446 1  102CA040x       Rx   d 8 00 40 0C D5 2C 00 F1 00  Length = 4168208 BitCount = 143 ID = 271360064x
   4.486184 1  10304058x       Rx   d 3 44 59 01  Length = 2728236 BitCount = 95 ID = 271597656x
   4.492363 1  10264040x       Rx   d 8 04 06 00 00 00 00 00 3E  Length = 4224562 BitCount = 145 ID = 270942272x
   4.498126 1  10306099x       Rx   d 3 44 59 01  Length = 2758236 BitCount = 96 ID = 271605913x
   4.502539 1  10210040x       Rx   d 8 00 00 00 00 00 00 00 00  Length = 4288223 BitCount = 147 ID = 270598208x
   4.505451 1  10308060x       Rx   d 3 44 59 01  Length = 2788236 BitCount = 97 ID = 271614048x
   4.512474 1  10220040x       Rx   d 8 10 00 00 00 00 07 00 00  Length = 4318208 BitCount = 148 ID = 270663744x
   4.515445 1  106B0040x       Rx   d 1 00  Length = 2308248 BitCount = 81 ID = 275447872x
   4.522407 1  1022E040x       Rx   d 8 10 00 00 00 10 00 00 00  Length = 4254562 BitCount = 146 ID = 270721088x
   4.527026 1  13FFE0BBx       Rx   d 0  Length = 2034718 BitCount = 72 ID = 335536315x
   4.532401 1  10230040x       Rx   d 8 20 00 00 00 20 00 00 00  Length = 4258208 BitCount = 146 ID = 270729280x
   4.552330 1  1022A040x       Rx   d 8 00 B0 00 12 42 00 00 22  Length = 4138223 BitCount = 142 ID = 270704704x
   4.556835 1  1022C040x       Rx   d 6 00 10 00 20 00 00  Length = 3688231 BitCount = 127 ID = 270712896x
   4.562510 1  10240040x       Rx   d 8 83 FE 88 01 01 2C 0F FC  Length = 4258223 BitCount = 146 ID = 270794816x
   4.572021 1  10248040x       Rx   d 7 00 00 6C D2 CC 1C 00  Length = 3864578 BitCount = 133 ID = 270827584x
   4.577175 CAN 1 Status:chip status error active  - TxErr: 0 RxErr: 1
   4.577182 1  ErrorFrame	Flags = 0xfffe	CodeExt = 0x2072	Code = 0x81	ID = 0x902ca040	DLC = 8	Position = 120	Length = 3954390	Data = 0  0x40  0xc  0xd4  0x2c  0  0xf1  0
   4.581619 CAN 1 Status:chip status error active
   4.581837 1  102CA040x       Rx   d 8 00 40 0C D4 2C 00 F1 00  Length = 4138208 BitCount = 142 ID = 271360064x
   4.587242 1  102CC040x       Rx   d 8 00 09 CF 67 00 87 06 AB  Length = 4048212 BitCount = 139 ID = 271368256x
   4.592406 1  10264040x       Rx   d 8 04 06 00 00 00 00 00 29  Length = 4228208 BitCount = 145 ID = 270942272x
   4.597297 1  102CE040x       Rx   d 8 90 00 66 7F 00 00 26 AB  Length = 4078212 BitCount = 140 ID = 271376448x
   4.599521 1  13FFE058x       Rx   d 0  Length = 2098256 BitCount = 74 ID = 335536216x
   4.603928 1  10210040x       Rx   d 8 00 00 00 00 00 00 00 00  Length = 4284562 BitCount = 147 ID = 270598208x
   4.612484 1  10220040x       Rx   d 8 10 00 00 00 00 05 00 00  Length = 4288223 BitCount = 147 ID = 270663744x
   4.622477 1  1022E040x       Rx   d 8 30 00 00 00 30 00 00 00  Length = 4288208 BitCount = 147 ID = 270721088x
   4.627520 1  10780040x       Rx   d 8 00 00 01 04 08 00 00 22  Length = 4288208 BitCount = 147 ID = 276299840x
   4.631809 1  C800040x        Rx   d 6 08 CB 00 00 8E D5  Length = 3594590 BitCount = 124 ID = 209715264x
   4.637544 1  10230040x       Rx   d 8 00 00 00 00 00 00 00 00  Length = 4288208 BitCount = 147 ID = 270729280x
   4.640488 1  106B0040x       Rx   d 1 00  Length = 2308248 BitCount = 81 ID = 275447872x
   4.652522 1  10240040x       Rx   d 8 83 FF 88 01 01 2C 0F FC  Length = 4198208 BitCount = 144 ID = 270794816x
   4.657533 1  106B8040x       Rx   d 8 00 00 00 00 00 00 00 00  Length = 4318208 BitCount = 148 ID = 275480640x
   4.672385 1  102CA040x       Rx   d 8 00 40 0C AD 2C 00 F1 00  Length = 4134566 BitCount = 142 ID = 271360064x
   4.681749 1  621             Rx   d 8 00 52 00 00 00 00 00 00  Length = 3598216 BitCount = 124 ID = 1569
   4.692434 1  10264040x       Rx   d 8 04 06 00 00 00 00 00 3E  Length = 4228208 BitCount = 145 ID = 270942272x
   4.697567 1  1043A040x       Rx   d 8 00 00 38 00 00 00 00 00  Length = 4348208 BitCount = 149 ID = 272867392x
   4.702518 1  10210040x       Rx   d 8 00 00 00 00 00 00 00 00  Length = 4288208 BitCount = 147 ID = 270598208x
   4.707232 1  1080A040x       Rx   d 7 00 00 00 00 00 00 00  Length = 4018212 BitCount = 138 ID = 276865088x
   4.712511 1  10220040x       Rx   d 8 10 00 00 00 00 05 00 00  Length = 4284562 BitCount = 147 ID = 270663744x
   4.722447 1  1022E040x       Rx   d 8 10 00 00 00 10 00 00 00  Length = 4258208 BitCount = 146 ID = 270721088x
   4.732501 1  10230040x       Rx   d 8 20 00 00 00 20 00 00 00  Length = 4258208 BitCount = 146 ID = 270729280x
   4.734696 1  13FFE0AFx       Rx   d 0  Length = 2068275 BitCount = 73 ID = 335536303x
   4.752490 1  10240040x       Rx   d 8 83 FE 88 01 01 2C 0F FC  Length = 4258208 BitCount = 146 ID = 270794816x
   4.755494 1  106B0040x       Rx   d 1 00  Length = 2308263 BitCount = 81 ID = 275447872x
   4.761495 1  102C0040x       Rx   d 5 AE EF 44 59 03  Length = 3294617 BitCount = 114 ID = 271319104x
   4.768548 1  108E0080x       Rx   d 6 0E 01 17 02 0D A6  Length = 3598216 BitCount = 124 ID = 277741696x
   4.772809 1  102CA040x       Rx   d 8 00 40 0C B9 2C 00 F1 00  Length = 4138223 BitCount = 142 ID = 271360064x
   4.778327 1  10308060x       Rx   d 3 44 59 01  Length = 2784638 BitCount = 97 ID = 271614048x
   4.786218 1  10304058x       Rx   d 3 44 59 01  Length = 2728236 BitCount = 95 ID = 271597656x
   4.792428 1  10264040x       Rx   d 8 04 06 00 00 00 00 00 3D  Length = 4194562 BitCount = 144 ID = 270942272x
   4.798127 1  10306099x       Rx   d 3 44 59 01  Length = 2754642 BitCount = 96 ID = 271605913x
   4.802537 1  10210040x       Rx   d 8 00 00 00 00 00 00 00 00  Length = 4284562 BitCount = 147 ID = 270598208x
   4.807402 1  1022A040x       Rx   d 8 00 B0 00 12 42 00 00 22  Length = 4138208 BitCount = 142 ID = 270704704x
   4.812531 1  10220040x       Rx   d 8 10 00 00 00 00 06 00 00  Length = 4284562 BitCount = 147 ID = 270663744x
   4.816912 1  1022C040x       Rx   d 6 00 10 00 20 00 00  Length = 3684586 BitCount = 127 ID = 270712896x
   4.822497 1  1022E040x       Rx   d 8 30 00 00 00 30 00 00 00  Length = 4288208 BitCount = 147 ID = 270721088x
   4.825827 1  10250040x       Rx   d 2 00 03  Length = 2604654 BitCount = 91 ID = 270860352x
   4.832552 1  10230040x       Rx   d 8 00 00 00 00 00 00 00 00  Length = 4288208 BitCount = 147 ID = 270729280x
   4.837325 1  102CC040x       Rx   d 8 00 09 CF 67 00 87 06 AD  Length = 4048212 BitCount = 139 ID = 271368256x
   4.842368 1  102CE040x       Rx   d 8 90 00 66 7F 00 00 26 AD  Length = 4078212 BitCount = 140 ID = 271376448x
   4.847380 1  102D0040x       Rx   d 8 01 69 01 ED 7C 97 00 FF  Length = 4138208 BitCount = 142 ID = 271384640x
   4.852569 1  10240040x       Rx   d 8 83 FE 88 01 01 2C 0F FC  Length = 4254562 BitCount = 146 ID = 270794816x
   4.857464 1  102E0040x       Rx   d 8 00 33 CA 72 8A 00 62 81  Length = 4138208 BitCount = 142 ID = 271450176x
   4.862683 1  106B8040x       Rx   d 8 00 00 00 00 00 00 00 00  Length = 4314573 BitCount = 148 ID = 275480640x
   4.866648 1  106C0040x       Rx   d 5 00 06 0F 07 00  Length = 3448220 BitCount = 119 ID = 275513408x
   4.872472 1  102CA040x       Rx   d 8 00 40 0C B7 2C 00 F1 00  Length = 4138223 BitCount = 142 ID = 271360064x
   4.875533 1  106B0040x       Rx   d 1 00  Length = 2308248 BitCount = 81 ID = 275447872x
   4.881926 1  C800040x        Rx   d 6 08 CB 00 00 8E D8  Length = 3628216 BitCount = 125 ID = 209715264x
   4.886367 1  1077C040x       Rx   d 4 30 30 01 F4  Length = 3144614 BitCount = 109 ID = 276283456x
   4.892492 1  10264040x       Rx   d 8 04 06 00 00 00 00 00 3B  Length = 4228208 BitCount = 145 ID = 270942272x
   4.897594 1  10780040x       Rx   d 8 00 00 01 04 08 00 00 22  Length = 4284562 BitCount = 147 ID = 276299840x
   4.902639 1  10210040x       Rx   d 8 00 00 00 00 00 00 00 00  Length = 4288208 BitCount = 147 ID = 270598208x
   4.907020 1  10788040x       Rx   d 6 08 00 00 00 00 00  Length = 3778216 BitCount = 130 ID = 276332608x
   4.912571 1  10220040x       Rx   d 8 10 00 00 00 00 04 00 00  Length = 4318208 BitCount = 148 ID = 270663744x
   4.916683 1  10806040x       Rx   d 5 00 00 00 00 19  Length = 3414598 BitCount = 118 ID = 276848704x
   4.922538 1  1022E040x       Rx   d 8 10 00 00 00 10 00 00 00  Length = 4258208 BitCount = 146 ID = 270721088x
   4.932532 1  10230040x       Rx   d 8 20 00 00 00 20 00 00 00  Length = 4258208 BitCount = 146 ID = 270729280x
   4.938921 1  10734099x       Rx   d 6 24 43 00 7D 00 00  Length = 3534590 BitCount = 122 ID = 275988633x
   4.943331 1  1043A040x       Rx   d 8 00 00 39 00 00 00 00 00  Length = 4284562 BitCount = 147 ID = 272867392x
   4.952577 1  10240040x       Rx   d 8 83 FE 88 01 01 2C 0F FC  Length = 4258208 BitCount = 146 ID = 270794816x
   4.972498 1  102CA040x       Rx   d 8 00 40 0C BC 2C 00 F1 00  Length = 4164566 BitCount = 143 ID = 271360064x
   4.992513 1  10264040x       Rx   d 8 04 06 00 00 00 00 00 27  Length = 4224577 BitCount = 145 ID = 270942272x
   4.995548 1  106B0040x       Rx   d 1 00  Length = 2308248 BitCount = 81 ID = 275447872x
   4.997770 1  13FFE060x       Rx   d 0  Length = 2098256 BitCount = 74 ID = 335536224x
   5.002573 1  10210040x       Rx   d 8 00 00 00 00 00 00 00 00  Length = 4288208 BitCount = 147 ID = 270598208x
   5.007044 1  13FFE080x       Rx   d 0  Length = 2064714 BitCount = 73 ID = 335536256x
   5.012598 1  10220040x       Rx   d 8 10 00 00 00 00 05 00 00  Length = 4288208 BitCount = 147 ID = 270663744x
   5.015198 1  Statistic: D 1 R 0 XD 150 XR 0 E 1 O 0 B 59.55%
   5.015198 2  Statistic: D 0 R 0 XD 0 XR 0 E 0 O 0 B 0.00%
   5.015198 3  Statistic: D 0 R 0 XD 0 XR 0 E 0 O 0 B 0.00%
   5.022592 1  1022E040x       Rx   d 8 30 00 00 00 30 00 00 00  Length = 4288208 BitCount = 147 ID = 270721088x
   5.027454 1  13FFE099x       Rx   d 0  Length = 2068260 BitCount = 73 ID = 335536281x
   5.032559 1  10230040x       Rx   d 8 00 00 00 00 00 00 00 00  Length = 4288208 BitCount = 147 ID = 270729280x
   5.052480 1  1022A040x       Rx   d 8 00 B0 00 12 42 00 00 22  Length = 4134566 BitCount = 142 ID = 270704704x
   5.056955 1  1022C040x       Rx   d 6 00 10 00 20 00 00  Length = 3688216 BitCount = 127 ID = 270712896x
   5.062600 1  10240040x       Rx   d 8 83 FE 88 01 01 2C 0F FC  Length = 4258208 BitCount = 146 ID = 270794816x
   5.066563 1  102C0040x       Rx   d 5 AE EF 44 59 03  Length = 3298224 BitCount = 114 ID = 271319104x
   5.072176 1  10248040x       Rx   d 7 00 00 6C D2 CC 1C 00  Length = 3868212 BitCount = 133 ID = 270827584x
   5.077516 1  102CA040x       Rx   d 8 00 40 0C BB 2C 00 F1 00  Length = 4164566 BitCount = 143 ID = 271360064x
   5.082441 1  102CC040x       Rx   d 8 00 09 CF 67 00 87 06 AC  Length = 4078212 BitCount = 140 ID = 271368256x
   5.087630 1  106B8040x       Rx   d 8 00 00 00 00 00 00 00 00  Length = 4314558 BitCount = 148 ID = 275480640x
   5.092555 1  10264040x       Rx   d 8 04 06 00 00 00 00 00 3B  Length = 4228208 BitCount = 145 ID = 270942272x
   5.097416 1  102CE040x       Rx   d 8 90 00 66 7F 00 00 26 AC  Length = 4078212 BitCount = 140 ID = 271376448x
   5.100265 1  10304058x       Rx   d 3 44 59 01  Length = 2724642 BitCount = 95 ID = 271597656x
   5.104683 1  10210040x       Rx   d 8 00 00 00 00 00 00 00 00  Length = 4291869 BitCount = 147 ID = 270598208x
   5.107564 1  10306099x       Rx   d 3 44 59 01  Length = 2758236 BitCount = 96 ID = 271605913x
   5.110475 1  10308060x       Rx   d 3 44 59 01  Length = 2784638 BitCount = 97 ID = 271614048x
   5.114917 1  10220040x       Rx   d 8 10 00 00 00 00 08 00 00  Length = 4318208 BitCount = 148 ID = 270663744x
   5.122598 1  1022E040x       Rx   d 8 10 00 00 00 10 00 00 00  Length = 4258208 BitCount = 146 ID = 270721088x
   5.125630 1  106B0040x       Rx   d 1 00  Length = 2308248 BitCount = 81 ID = 275447872x
   5.132055 1  C800040x        Rx   d 6 08 CB 00 00 8E DC  Length = 3658216 BitCount = 126 ID = 209715264x
   5.137578 1  10230040x       Rx   d 8 20 00 00 00 20 00 00 00  Length = 4258208 BitCount = 146 ID = 270729280x
   5.142681 1  10780040x       Rx   d 8 00 00 01 04 08 00 00 22  Length = 4288208 BitCount = 147 ID = 276299840x
   5.152616 1  10240040x       Rx   d 8 83 FE 88 01 01 2C 0F FC  Length = 4258208 BitCount = 146 ID = 270794816x
   5.172509 1  102CA040x       Rx   d 8 00 40 0C AE 2C 00 F1 00  Length = 4134566 BitCount = 142 ID = 271360064x
   5.178633 1  10448060x       Rx   d 4 00 00 45 00  Length = 3058243 BitCount = 106 ID = 272924768x
   5.192558 1  10264040x       Rx   d 8 04 06 00 00 00 00 00 3B  Length = 4228223 BitCount = 145 ID = 270942272x
   5.197599 1  1043A040x       Rx   d 8 00 00 35 00 00 00 00 00  Length = 4284562 BitCount = 147 ID = 272867392x
   5.202704 1  10210040x       Rx   d 8 00 00 00 00 00 00 00 00  Length = 4288208 BitCount = 147 ID = 270598208x
   5.212606 1  10220040x       Rx   d 8 10 00 00 00 00 06 00 00  Length = 4288223 BitCount = 147 ID = 270663744x
   5.222633 1  1022E040x       Rx   d 8 30 00 00 00 30 00 00 00  Length = 4288208 BitCount = 147 ID = 270721088x
   5.232627 1  10230040x       Rx   d 8 00 00 00 00 00 00 00 00  Length = 4288208 BitCount = 147 ID = 270729280x
   5.240582 1  106B0040x       Rx   d 1 00  Length = 2308248 BitCount = 81 ID = 275447872x
   5.252554 1  10240040x       Rx   d 8 83 FF 88 01 01 2C 0F FC  Length = 4194562 BitCount = 144 ID = 270794816x
   5.257659 1  106B8040x       Rx   d 8 00 00 00 00 00 00 00 00  Length = 4318208 BitCount = 148 ID = 275480640x
   5.261621 1  10708040x       Rx   d 5 02 25 02 25 3A  Length = 3298224 BitCount = 114 ID = 275808320x
   5.272575 1  102CA040x       Rx   d 8 00 40 0C A7 2C 00 F1 00  Length = 4198208 BitCount = 144 ID = 271360064x
   5.292588 1  10264040x       Rx   d 8 04 06 00 00 00 00 00 27  Length = 4224562 BitCount = 145 ID = 270942272x
   5.302702 1  10210040x       Rx   d 8 00 00 00 00 00 00 00 00  Length = 4288223 BitCount = 147 ID = 270598208x
   5.307505 1  1022A040x       Rx   d 8 00 B0 00 12 42 00 00 22  Length = 4138208 BitCount = 142 ID = 270704704x
   5.312669 1  10220040x       Rx   d 8 10 00 00 00 00 04 00 00  Length = 4318208 BitCount = 148 ID = 270663744x
   5.317020 1  1022C040x       Rx   d 6 00 10 00 20 00 00  Length = 3688216 BitCount = 127 ID = 270712896x
   5.322601 1  1022E040x       Rx   d 8 10 00 00 00 10 00 00 00  Length = 4258208 BitCount = 146 ID = 270721088x
   5.332628 1  10230040x       Rx   d 8 20 00 00 00 20 00 00 00  Length = 4258208 BitCount = 146 ID = 270729280x
   5.337461 1  102CC040x       Rx   d 8 00 09 CF 67 00 87 06 AE  Length = 4048212 BitCount = 139 ID = 271368256x
   5.342470 1  102CE040x       Rx   d 8 90 00 66 7F 00 00 26 AD  Length = 4074566 BitCount = 140 ID = 271376448x
   5.347515 1  102D0040x       Rx   d 8 01 69 01 ED 7C 98 00 FF  Length = 4138208 BitCount = 142 ID = 271384640x
   5.352736 1  10240040x       Rx   d 8 83 FE 88 01 01 2C 0F FC  Length = 4258223 BitCount = 146 ID = 270794816x
   5.355648 1  106B0040x       Rx   d 1 00  Length = 2308248 BitCount = 81 ID = 275447872x
   5.361679 1  102C0040x       Rx   d 5 AE EF 44 59 03  Length = 3294606 BitCount = 114 ID = 271319104x
   5.366780 1  10806040x       Rx   d 5 00 00 00 00 19  Length = 3414598 BitCount = 118 ID = 276848704x
   5.372635 1  102CA040x       Rx   d 8 00 40 0C B9 2C 00 F1 00  Length = 4138208 BitCount = 142 ID = 271360064x
   5.374828 1  13FFE068x       Rx   d 0  Length = 2068260 BitCount = 73 ID = 335536232x
   5.379237 1  10780040x       Rx   d 8 00 00 01 04 08 00 00 22  Length = 4284562 BitCount = 147 ID = 276299840x
   5.382151 1  10308060x       Rx   d 3 44 59 01  Length = 2788236 BitCount = 97 ID = 271614048x
   5.386050 1  10304058x       Rx   d 3 44 59 01  Length = 2724642 BitCount = 95 ID = 271597656x
   5.389776 1  C800040x        Rx   d 6 08 CB 00 00 8E DE  Length = 3601861 BitCount = 124 ID = 209715264x
   5.392478 1  106D0080x       Rx   d 2 00 00  Length = 2578240 BitCount = 90 ID = 275579008x
   5.397581 1  10264040x       Rx   d 8 04 06 00 00 00 00 00 3C  Length = 4198208 BitCount = 144 ID = 270942272x
   5.400460 1  10306099x       Rx   d 3 44 59 01  Length = 2754642 BitCount = 96 ID = 271605913x
   5.404869 1  10210040x       Rx   d 8 00 00 00 00 00 00 00 00  Length = 4284573 BitCount = 147 ID = 270598208x
   5.412671 1  10220040x       Rx   d 8 10 00 00 00 00 05 00 00  Length = 4284573 BitCount = 147 ID = 270663744x
   5.417146 1  10788040x       Rx   d 6 08 00 00 00 00 00  Length = 3778216 BitCount = 130 ID = 276332608x
   5.420896 1  624             Rx   d 8 00 20 00 00 00 00 00 00  Length = 3624601 BitCount = 125 ID = 1572
   5.425310 1  1022E040x       Rx   d 8 30 00 00 00 30 00 00 00  Length = 4288208 BitCount = 147 ID = 270721088x
   5.432696 1  10230040x       Rx   d 8 00 00 00 00 00 00 00 00  Length = 4288223 BitCount = 147 ID = 270729280x
   5.438905 1  10734099x       Rx   d 6 24 43 00 7D 00 00  Length = 3534590 BitCount = 122 ID = 275988633x
   5.443320 1  1043A040x       Rx   d 8 00 00 35 00 00 00 00 00  Length = 4288208 BitCount = 147 ID = 272867392x
   5.452597 1  10240040x       Rx   d 8 83 FF 88 01 01 2C 0F FC  Length = 4198208 BitCount = 144 ID = 270794816x
   5.457726 1  106B8040x       Rx   d 8 00 00 00 00 00 00 00 00  Length = 4314558 BitCount = 148 ID = 275480640x
   5.460491 1  13FFE040x       Rx   d 0  Length = 2068260 BitCount = 73 ID = 335536192x
   5.472708 1  102CA040x       Rx   d 8 00 40 0C B5 2C 00 F1 00  Length = 4198223 BitCount = 144 ID = 271360064x
   5.475713 1  106B0040x       Rx   d 1 00  Length = 2308263 BitCount = 81 ID = 275447872x
   5.492608 1  10264040x       Rx   d 8 04 06 00 00 00 00 00 3C  Length = 4198208 BitCount = 144 ID = 270942272x
   5.502693 1  10210040x       Rx   d 8 00 00 00 00 00 00 00 00  Length = 4288208 BitCount = 147 ID = 270598208x
   5.512717 1  10220040x       Rx   d 8 10 00 00 00 00 04 00 00  Length = 4318208 BitCount = 148 ID = 270663744x
   5.522622 1  1022E040x       Rx   d 8 10 00 00 00 10 00 00 00  Length = 4258208 BitCount = 146 ID = 270721088x
   5.528444 1  10814099x       Rx   d 4 20 44 2E 00  Length = 3058228 BitCount = 106 ID = 276906137x
   5.532824 1  10230040x       Rx   d 8 20 00 00 00 20 00 00 00  Length = 4254577 BitCount = 146 ID = 270729280x
   5.548967 1  10734099x       Rx   d 6 24 44 00 7D 00 00  Length = 3598216 BitCount = 124 ID = 275988633x
   5.553226 1  1022A040x       Rx   d 8 00 B0 00 12 42 00 00 22  Length = 4134566 BitCount = 142 ID = 270704704x
   5.557100 1  1022C040x       Rx   d 6 00 10 00 20 00 00  Length = 3688216 BitCount = 127 ID = 270712896x
   5.562804 1  10240040x       Rx   d 8 83 FE 88 01 01 2C 0F FC  Length = 4258223 BitCount = 146 ID = 270794816x
   5.572318 1  10248040x       Rx   d 7 00 00 6C D3 CC 1C 00  Length = 3928212 BitCount = 135 ID = 270827584x
   5.577656 1  102CA040x       Rx   d 8 00 40 0C C1 2C 00 F1 00  Length = 4194562 BitCount = 144 ID = 271360064x
   5.582520 1  102CC040x       Rx   d 8 00 09 CF 67 00 87 06 AD  Length = 4048212 BitCount = 139 ID = 271368256x
   5.592635 1  10264040x       Rx   d 8 04 06 00 00 00 00 00 3C  Length = 4198208 BitCount = 144 ID = 270942272x
   5.597556 1  102CE040x       Rx   d 8 90 00 66 7F 00 00 26 AD  Length = 4078212 BitCount = 140 ID = 271376448x
   5.602806 1  10210040x       Rx   d 8 00 00 00 00 00 00 00 00  Length = 4284562 BitCount = 147 ID = 270598208x
   5.605690 1  106B0040x       Rx   d 1 00  Length = 2308248 BitCount = 81 ID = 275447872x
   5.612746 1  10220040x       Rx   d 8 10 00 00 00 00 06 00 00  Length = 4288208 BitCount = 147 ID = 270663744x
   5.622682 1  1022E040x       Rx   d 8 30 00 00 00 30 00 00 00  Length = 4288208 BitCount = 147 ID = 270721088x
   5.627785 1  10780040x       Rx   d 8 00 00 01 04 08 00 00 22  Length = 4288208 BitCount = 147 ID = 276299840x
   5.632077 1  C800040x        Rx   d 6 08 CB 00 00 8E E2  Length = 3598231 BitCount = 124 ID = 209715264x
   5.637688 1  10230040x       Rx   d 8 00 00 00 00 00 00 00 00  Length = 4288208 BitCount = 147 ID = 270729280x
   5.652723 1  10240040x       Rx   d 8 83 FE 88 01 01 2C 0F FC  Length = 4258208 BitCount = 146 ID = 270794816x
   5.657769 1  106B8040x       Rx   d 8 00 00 00 00 00 00 00 00  Length = 4318208 BitCount = 148 ID = 275480640x
   5.661427 1  10734099x       Rx   d 6 24 43 00 7D 00 00  Length = 3534590 BitCount = 122 ID = 275988633x
   5.664847 1  102C0040x       Rx   d 5 AE EF 44 59 03  Length = 3294617 BitCount = 114 ID = 271319104x
   5.672649 1  102CA040x       Rx   d 8 00 40 0C B7 2C 00 F1 00  Length = 4134566 BitCount = 142 ID = 271360064x
   5.682041 1  621             Rx   d 8 00 52 00 00 00 00 00 00  Length = 3594590 BitCount = 124 ID = 1569
   5.685911 1  10304058x       Rx   d 3 44 59 01  Length = 2724642 BitCount = 95 ID = 271597656x
   5.692635 1  10264040x       Rx   d 8 04 06 00 00 00 00 00 28  Length = 4198223 BitCount = 144 ID = 270942272x
   5.697736 1  1043A040x       Rx   d 8 00 00 39 00 00 00 00 00  Length = 4288208 BitCount = 147 ID = 272867392x
   5.700614 1  10306099x       Rx   d 3 44 59 01  Length = 2754642 BitCount = 96 ID = 271605913x
   5.705024 1  10210040x       Rx   d 8 00 00 00 00 00 00 00 00  Length = 4284562 BitCount = 147 ID = 270598208x
   5.707938 1  10308060x       Rx   d 3 44 59 01  Length = 2788247 BitCount = 97 ID = 271614048x
   5.712772 1  10220040x       Rx   d 8 10 00 00 00 00 08 00 00  Length = 4318208 BitCount = 148 ID = 270663744x
   5.717455 1  1080A040x       Rx   d 7 00 00 00 00 00 00 00  Length = 4018212 BitCount = 138 ID = 276865088x
   5.722738 1  1022E040x       Rx   d 8 10 00 00 00 10 00 00 00  Length = 4258208 BitCount = 146 ID = 270721088x
   5.725770 1  106B0040x       Rx   d 1 00  Length = 2308263 BitCount = 81 ID = 275447872x
   5.729458 1  631             Rx   d 8 00 40 00 00 00 00 00 00  Length = 3564590 BitCount = 123 ID = 1585
   5.733843 1  10230040x       Rx   d 8 20 00 00 00 20 00 00 00  Length = 4258208 BitCount = 146 ID = 270729280x
   5.736003 1  13FFE0BBx       Rx   d 0  Length = 2034733 BitCount = 72 ID = 335536315x
   5.739752 1  62C             Rx   d 8 00 40 00 00 00 00 00 00  Length = 3624586 BitCount = 125 ID = 1580
   5.752744 1  10240040x       Rx   d 8 83 FE 88 01 01 2C 0F FC  Length = 4254562 BitCount = 146 ID = 270794816x
   5.768588 1  108E0080x       Rx   d 6 0E 01 17 02 0D A7  Length = 3658216 BitCount = 126 ID = 277741696x
   5.772877 1  102CA040x       Rx   d 8 00 40 0C C7 2C 00 F1 00  Length = 4164581 BitCount = 143 ID = 271360064x
   5.792656 1  10264040x       Rx   d 8 04 06 00 00 00 00 00 3C  Length = 4198208 BitCount = 144 ID = 270942272x
