date Tue Sep 20 03:49:53.979 pm 2016
base hex  timestamps absolute
internal events logged
// version 9.0.0
Begin Triggerblock Tue Sep 20 03:49:53.979 pm 2016
   0.000000 Start of measurement
   0.002375 Li SleepModeEvent 0 starting up in wake mode
   0.005534 CAN 1 Status:chip status error active
   0.005534 CAN 2 Status:chip status error active
   0.005534 CAN 3 Status:chip status error active
   0.007383 1  10230040x       Rx   d 8 10 00 00 00 10 00 00 00  Length = 4254577 BitCount = 146 ID = 270729280x
   0.011585 1  10806040x       Rx   d 5 00 00 00 00 19  Length = 3414598 BitCount = 118 ID = 276848704x
   0.017439 1  1043A040x       Rx   d 8 00 00 35 00 00 00 00 00  Length = 4288208 BitCount = 147 ID = 272867392x
   0.027344 1  10240040x       Rx   d 8 83 FE 88 01 01 13 00 00  Length = 4198208 BitCount = 144 ID = 270794816x
   0.031152 1  10324058x       Rx   d 6 00 00 03 FF 00 00  Length = 3684597 BitCount = 127 ID = 271728728x
   0.047299 1  102CA040x       Rx   d 8 00 40 0C 9F 2B 00 F1 00  Length = 4108212 BitCount = 141 ID = 271360064x
   0.055403 1  106B0040x       Rx   d 1 00  Length = 2308248 BitCount = 81 ID = 275447872x
   0.067407 1  10264040x       Rx   d 8 04 06 00 00 00 00 00 29  Length = 4228223 BitCount = 145 ID = 270942272x
   0.077430 1  10210040x       Rx   d 8 00 00 00 00 00 00 00 00  Length = 4288208 BitCount = 147 ID = 270598208x
   0.087454 1  10220040x       Rx   d 8 10 00 00 00 00 05 00 00  Length = 4288208 BitCount = 147 ID = 270663744x
   0.097419 1  1022E040x       Rx   d 8 20 00 00 00 20 00 00 00  Length = 4288223 BitCount = 147 ID = 270721088x
   0.107415 1  10230040x       Rx   d 8 30 00 00 00 30 00 00 00  Length = 4258208 BitCount = 146 ID = 270729280x
   0.127312 1  1022A040x       Rx   d 8 00 B0 00 12 42 00 00 22  Length = 4138208 BitCount = 142 ID = 270704704x
   0.131847 1  1022C040x       Rx   d 6 00 10 00 20 00 00  Length = 3688231 BitCount = 127 ID = 270712896x
   0.137342 1  10240040x       Rx   d 8 83 FE 88 01 01 13 0F FC  Length = 4168208 BitCount = 143 ID = 270794816x
   0.141426 1  102C0040x       Rx   d 5 AE EF 44 59 03  Length = 3298239 BitCount = 114 ID = 271319104x
   0.147009 1  10248040x       Rx   d 7 00 00 6D D4 CC 07 00  Length = 3838212 BitCount = 132 ID = 270827584x
   0.152408 1  102CA040x       Rx   d 8 00 40 0C A6 2C 00 F1 00  Length = 4164566 BitCount = 143 ID = 271360064x
   0.157273 1  102CC040x       Rx   d 8 00 09 CF 6A 00 87 06 AA  Length = 4048212 BitCount = 139 ID = 271368256x
   0.162493 1  106B8040x       Rx   d 8 00 00 00 00 00 00 00 00  Length = 4314558 BitCount = 148 ID = 275480640x
   0.165407 1  10308060x       Rx   d 3 44 59 01  Length = 2788236 BitCount = 97 ID = 271614048x
   0.169756 1  10264040x       Rx   d 8 04 06 00 00 00 00 00 3B  Length = 4224562 BitCount = 145 ID = 270942272x
   0.172607 1  10304058x       Rx   d 3 44 59 01  Length = 2724642 BitCount = 95 ID = 271597656x
   0.177590 1  10210040x       Rx   d 8 00 00 00 00 00 00 00 00  Length = 4288208 BitCount = 147 ID = 270598208x
   0.182303 1  102CE040x       Rx   d 8 90 00 6B 7F 00 00 26 AA  Length = 4078212 BitCount = 140 ID = 271376448x
   0.187496 1  10220040x       Rx   d 8 10 00 00 00 00 06 00 00  Length = 4288208 BitCount = 147 ID = 270663744x
   0.190468 1  106B0040x       Rx   d 1 00  Length = 2308263 BitCount = 81 ID = 275447872x
   0.197463 1  1022E040x       Rx   d 8 00 00 00 00 00 00 00 00  Length = 4318223 BitCount = 148 ID = 270721088x
   0.202534 1  10780040x       Rx   d 8 00 00 01 04 08 00 00 22  Length = 4284562 BitCount = 147 ID = 276299840x
   0.205420 1  10306099x       Rx   d 3 44 59 01  Length = 2758236 BitCount = 96 ID = 271605913x
   0.209138 1  C800040x        Rx   d 6 08 CB 00 00 49 77  Length = 3594590 BitCount = 124 ID = 209715264x
   0.217484 1  10230040x       Rx   d 8 20 00 00 00 20 00 00 00  Length = 4258208 BitCount = 146 ID = 270729280x
   0.224296 1  108E0080x       Rx   d 6 0E 01 17 02 07 59  Length = 3598216 BitCount = 124 ID = 277741696x
   0.228588 1  10240040x       Rx   d 8 83 FE 88 01 01 13 0F FC  Length = 4168208 BitCount = 143 ID = 270794816x
   0.237200 1  10EC4040x       Rx   d 8 4C 41 5A 41 36 39 53 44  Length = 3958212 BitCount = 136 ID = 283918400x
   0.242062 1  10EC8040x       Rx   d 8 48 42 37 30 31 34 39 36  Length = 3898212 BitCount = 134 ID = 283934784x
   0.247401 1  102CA040x       Rx   d 8 00 40 0C C3 2C 00 F1 00  Length = 4134581 BitCount = 142 ID = 271360064x
   0.267420 1  10264040x       Rx   d 8 04 06 00 00 00 00 00 3B  Length = 4228208 BitCount = 145 ID = 270942272x
   0.272491 1  1043A040x       Rx   d 8 00 00 35 00 00 00 00 00  Length = 4284573 BitCount = 147 ID = 272867392x
   0.277596 1  10210040x       Rx   d 8 00 00 00 00 00 00 00 00  Length = 4288208 BitCount = 147 ID = 270598208x
   0.287529 1  10220040x       Rx   d 8 10 00 00 00 00 08 00 00  Length = 4318208 BitCount = 148 ID = 270663744x
   0.297435 1  1022E040x       Rx   d 8 20 00 00 00 20 00 00 00  Length = 4288208 BitCount = 147 ID = 270721088x
   0.307489 1  10230040x       Rx   d 8 30 00 00 00 30 00 00 00  Length = 4258223 BitCount = 146 ID = 270729280x
   0.310523 1  106B0040x       Rx   d 1 00  Length = 2308248 BitCount = 81 ID = 275447872x
   0.327478 1  10240040x       Rx   d 8 83 FE 88 01 01 13 00 00  Length = 4198208 BitCount = 144 ID = 270794816x
   0.332551 1  106B8040x       Rx   d 8 00 00 00 00 00 00 00 00  Length = 4318208 BitCount = 148 ID = 275480640x
   0.347431 1  102CA040x       Rx   d 8 00 40 0C 90 2C 00 F1 00  Length = 4164566 BitCount = 143 ID = 271360064x
   0.367420 1  10264040x       Rx   d 8 04 06 00 00 00 00 00 3C  Length = 4198208 BitCount = 144 ID = 270942272x
   0.377626 1  10210040x       Rx   d 8 00 00 00 00 00 00 00 00  Length = 4288208 BitCount = 147 ID = 270598208x
   0.382397 1  1022A040x       Rx   d 8 00 B0 00 12 42 00 00 22  Length = 4138223 BitCount = 142 ID = 270704704x
   0.387591 1  10220040x       Rx   d 8 10 00 00 00 00 08 00 00  Length = 4318208 BitCount = 148 ID = 270663744x
   0.391912 1  1022C040x       Rx   d 6 00 10 00 20 00 00  Length = 3688231 BitCount = 127 ID = 270712896x
   0.395634 1  10734099x       Rx   d 6 24 44 00 7D 00 00  Length = 3598216 BitCount = 124 ID = 275988633x
   0.400074 1  1022E040x       Rx   d 8 00 00 00 00 00 00 00 00  Length = 4314558 BitCount = 148 ID = 270721088x
   0.407579 1  10230040x       Rx   d 8 10 00 00 00 10 00 00 00  Length = 4258208 BitCount = 146 ID = 270729280x
   0.412351 1  102CC040x       Rx   d 8 00 09 CF 6A 00 87 06 AB  Length = 4078212 BitCount = 140 ID = 271368256x
   0.417392 1  102CE040x       Rx   d 8 90 00 6B 7F 00 00 26 AA  Length = 4074581 BitCount = 140 ID = 271376448x
   0.422317 1  102D0040x       Rx   d 8 01 69 01 ED 7C 89 00 FF  Length = 4078212 BitCount = 140 ID = 271384640x
   0.427417 1  10240040x       Rx   d 8 83 FE 88 01 01 13 0F FC  Length = 4164566 BitCount = 143 ID = 270794816x
   0.429642 1  13FFE058x       Rx   d 0  Length = 2098256 BitCount = 74 ID = 335536216x
   0.432074 1  106B0040x       Rx   d 1 00  Length = 2308248 BitCount = 81 ID = 275447872x
   0.436547 1  102C0040x       Rx   d 5 AE EF 44 59 03  Length = 3298224 BitCount = 114 ID = 271319104x
   0.441678 1  10806040x       Rx   d 5 00 00 00 00 19  Length = 3414598 BitCount = 118 ID = 276848704x
   0.447503 1  102CA040x       Rx   d 8 00 40 0C C6 2C 00 F1 00  Length = 4168208 BitCount = 143 ID = 271360064x
   0.452574 1  10780040x       Rx   d 8 00 00 01 04 08 00 00 22  Length = 4288223 BitCount = 147 ID = 276299840x
   0.455452 1  10306099x       Rx   d 3 44 59 01  Length = 2754657 BitCount = 96 ID = 271605913x
   0.459176 1  C800040x        Rx   d 6 08 CB 00 00 49 77  Length = 3598216 BitCount = 124 ID = 209715264x
   0.462027 1  10304058x       Rx   d 3 44 59 01  Length = 2724642 BitCount = 95 ID = 271597656x
   0.464459 1  10244060x       Rx   d 1 02  Length = 2308248 BitCount = 81 ID = 270811232x
   0.468780 1  10264040x       Rx   d 8 04 06 00 00 00 00 00 28  Length = 4198208 BitCount = 144 ID = 270942272x
   0.471002 1  13FFE060x       Rx   d 0  Length = 2098256 BitCount = 74 ID = 335536224x
   0.473194 1  13FFE080x       Rx   d 0  Length = 2068260 BitCount = 73 ID = 335536256x
   0.475387 1  13FFE0AFx       Rx   d 0  Length = 2068260 BitCount = 73 ID = 335536303x
   0.479801 1  10210040x       Rx   d 8 00 00 00 00 00 00 00 00  Length = 4288208 BitCount = 147 ID = 270598208x
   0.482711 1  10308060x       Rx   d 3 44 59 01  Length = 2784638 BitCount = 97 ID = 271614048x
   0.485642 CAN 1 Status:chip status error active  - TxErr: 0 RxErr: 1
   0.485650 1  ErrorFrame	Flags = 0xfffe	CodeExt = 0x2072	Code = 0x81	ID = 0x90814099	DLC = 4	Position = 88	Length = 2814375	Data = 0x20  0x44  0x30  0
   0.490244 CAN 1 Status:chip status error active
   0.490461 1  10220040x       Rx   d 8 10 00 00 00 00 04 00 00  Length = 4318208 BitCount = 148 ID = 270663744x
   0.493581 1  10814099x       Rx   d 4 20 44 30 00  Length = 2994637 BitCount = 104 ID = 276906137x
   0.497993 1  1022E040x       Rx   d 8 20 00 00 00 20 00 00 00  Length = 4288208 BitCount = 147 ID = 270721088x
   0.500184 1  13FFE099x       Rx   d 0  Length = 2068260 BitCount = 73 ID = 335536281x
   0.504087 1  10788040x       Rx   d 6 08 00 00 00 00 00  Length = 3778231 BitCount = 130 ID = 276332608x
   0.512493 1  10230040x       Rx   d 8 30 00 00 00 30 00 00 00  Length = 4258223 BitCount = 146 ID = 270729280x
   0.517624 1  1043A040x       Rx   d 8 00 00 39 00 00 00 00 00  Length = 4288223 BitCount = 147 ID = 272867392x
   0.527436 1  10240040x       Rx   d 8 83 FE 88 01 01 13 0F FC  Length = 4168208 BitCount = 143 ID = 270794816x
   0.532598 1  106B8040x       Rx   d 8 00 00 00 00 00 00 00 00  Length = 4314558 BitCount = 148 ID = 275480640x
   0.535393 1  13FFE040x       Rx   d 0  Length = 2068260 BitCount = 73 ID = 335536192x
   0.547486 1  102CA040x       Rx   d 8 00 40 0C B7 2C 00 F1 00  Length = 4134566 BitCount = 142 ID = 271360064x
   0.550550 1  106B0040x       Rx   d 1 00  Length = 2308248 BitCount = 81 ID = 275447872x
   0.567446 1  10264040x       Rx   d 8 04 06 00 00 00 00 00 3C  Length = 4198223 BitCount = 144 ID = 270942272x
   0.577621 1  10210040x       Rx   d 8 00 00 00 00 00 00 00 00  Length = 4288208 BitCount = 147 ID = 270598208x
   0.587585 1  10220040x       Rx   d 8 10 00 00 00 00 04 00 00  Length = 4318208 BitCount = 148 ID = 270663744x
   0.594153 1  624             Rx   d 8 00 20 00 00 00 00 00 00  Length = 3624586 BitCount = 125 ID = 1572
   0.598592 1  1022E040x       Rx   d 8 00 00 00 00 00 00 00 00  Length = 4314558 BitCount = 148 ID = 270721088x
   0.607568 1  10230040x       Rx   d 8 10 00 00 00 10 00 00 00  Length = 4258223 BitCount = 146 ID = 270729280x
   0.627495 1  1022A040x       Rx   d 8 00 B0 00 12 42 00 00 22  Length = 4138208 BitCount = 142 ID = 270704704x
   0.631962 1  1022C040x       Rx   d 6 00 10 00 20 00 00  Length = 3684597 BitCount = 127 ID = 270712896x
   0.637547 1  10240040x       Rx   d 8 83 FE 88 01 01 13 0F FC  Length = 4168223 BitCount = 143 ID = 270794816x
   0.642946 1  10448060x       Rx   d 4 00 00 45 00  Length = 3054618 BitCount = 106 ID = 272924768x
   0.645556 1  10242040x       Rx   d 1 02  Length = 2304697 BitCount = 81 ID = 270803008x
   0.652191 1  10248040x       Rx   d 7 00 00 6D D4 CC 06 00  Length = 3898212 BitCount = 134 ID = 270827584x
   0.657530 1  102CA040x       Rx   d 8 00 40 0C B6 2C 00 F1 00  Length = 4134566 BitCount = 142 ID = 271360064x
   0.662395 1  102CC040x       Rx   d 8 00 09 CF 6A 00 87 06 AB  Length = 4078227 BitCount = 140 ID = 271368256x
   0.667494 1  10264040x       Rx   d 8 04 06 00 00 00 00 00 3C  Length = 4194562 BitCount = 144 ID = 270942272x
   0.672420 1  102CE040x       Rx   d 8 90 00 6B 7F 00 00 26 AA  Length = 4078227 BitCount = 140 ID = 271376448x
   0.677733 1  10210040x       Rx   d 8 00 00 00 00 00 00 00 00  Length = 4288208 BitCount = 147 ID = 270598208x
   0.680588 1  106B0040x       Rx   d 1 00  Length = 2308248 BitCount = 81 ID = 275447872x
   0.687637 1  10220040x       Rx   d 8 10 00 00 00 00 03 00 00  Length = 4314558 BitCount = 148 ID = 270663744x
   0.697543 1  1022E040x       Rx   d 8 20 00 00 00 20 00 00 00  Length = 4288208 BitCount = 147 ID = 270721088x
   0.702647 1  10780040x       Rx   d 8 00 00 01 04 08 00 00 22  Length = 4288208 BitCount = 147 ID = 276299840x
   0.706970 1  C800040x        Rx   d 6 08 CB 00 00 49 7D  Length = 3628216 BitCount = 125 ID = 209715264x
   0.712555 1  10230040x       Rx   d 8 30 00 00 00 30 00 00 00  Length = 4258208 BitCount = 146 ID = 270729280x
   0.727561 1  10240040x       Rx   d 8 83 FE 88 01 01 13 0F FC  Length = 4168208 BitCount = 143 ID = 270794816x
   0.732636 1  106B8040x       Rx   d 8 00 00 00 00 00 00 00 00  Length = 4318208 BitCount = 148 ID = 275480640x
   0.736627 1  102C0040x       Rx   d 5 AE EF 44 59 03  Length = 3298224 BitCount = 114 ID = 271319104x
   0.747552 1  102CA040x       Rx   d 8 00 40 0C B5 2C 00 F1 00  Length = 4198208 BitCount = 144 ID = 271360064x
   0.752801 1  10306099x       Rx   d 3 44 59 01  Length = 2754642 BitCount = 96 ID = 271605913x
   0.756856 1  621             Rx   d 8 00 52 00 00 00 00 00 00  Length = 3598216 BitCount = 124 ID = 1569
   0.759709 1  10304058x       Rx   d 3 44 59 01  Length = 2728236 BitCount = 95 ID = 271597656x
   0.762737 1  10308060x       Rx   d 3 44 59 01  Length = 2784638 BitCount = 97 ID = 271614048x
   0.767511 1  10264040x       Rx   d 8 04 06 00 00 00 00 00 28  Length = 4198223 BitCount = 144 ID = 270942272x
   0.772674 1  1043A040x       Rx   d 8 00 00 38 00 00 00 00 00  Length = 4348208 BitCount = 149 ID = 272867392x
   0.777655 1  10210040x       Rx   d 8 00 00 00 00 00 00 00 00  Length = 4288208 BitCount = 147 ID = 270598208x
   0.782338 1  1080A040x       Rx   d 7 00 00 00 00 00 00 00  Length = 4018212 BitCount = 138 ID = 276865088x
   0.786028 1  631             Rx   d 8 00 40 00 00 00 00 00 00  Length = 3564590 BitCount = 123 ID = 1585
   0.790442 1  10220040x       Rx   d 8 10 00 00 00 00 05 00 00  Length = 4288208 BitCount = 147 ID = 270663744x
   0.797618 1  1022E040x       Rx   d 8 00 00 00 00 00 00 00 00  Length = 4318208 BitCount = 148 ID = 270721088x
   0.800593 1  106B0040x       Rx   d 1 00  Length = 2308248 BitCount = 81 ID = 275447872x
   0.807642 1  10230040x       Rx   d 8 10 00 00 00 10 00 00 00  Length = 4254562 BitCount = 146 ID = 270729280x
   0.813466 1  62C             Rx   d 8 00 40 00 00 00 00 00 00  Length = 3628216 BitCount = 125 ID = 1580
   0.827541 1  10240040x       Rx   d 8 83 FF 88 01 01 13 0F FC  Length = 4198208 BitCount = 144 ID = 270794816x
   0.839184 1  13FFE068x       Rx   d 0  Length = 2068260 BitCount = 73 ID = 335536232x
   0.843236 1  106D0080x       Rx   d 2 00 00  Length = 2578240 BitCount = 90 ID = 275579008x
   0.847558 1  102CA040x       Rx   d 8 00 40 0C C6 2C 00 F1 00  Length = 4168208 BitCount = 143 ID = 271360064x
   0.867539 1  10264040x       Rx   d 8 04 06 00 00 00 00 00 3C  Length = 4194562 BitCount = 144 ID = 270942272x
   0.877685 1  10210040x       Rx   d 8 00 00 00 00 00 00 00 00  Length = 4288208 BitCount = 147 ID = 270598208x
   0.882518 1  1022A040x       Rx   d 8 00 B0 00 12 42 00 00 22  Length = 4138223 BitCount = 142 ID = 270704704x
   0.887678 1  10220040x       Rx   d 8 10 00 00 00 00 04 00 00  Length = 4314558 BitCount = 148 ID = 270663744x
   0.892029 1  1022C040x       Rx   d 6 00 10 00 20 00 00  Length = 3684586 BitCount = 127 ID = 270712896x
   0.895748 1  10734099x       Rx   d 6 24 44 00 7D 00 00  Length = 3594590 BitCount = 124 ID = 275988633x
   0.900159 1  1022E040x       Rx   d 8 20 00 00 00 20 00 00 00  Length = 4284573 BitCount = 147 ID = 270721088x
   0.907664 1  10230040x       Rx   d 8 30 00 00 00 30 00 00 00  Length = 4258208 BitCount = 146 ID = 270729280x
   0.910935 1  10250040x       Rx   d 2 00 03  Length = 2608240 BitCount = 91 ID = 270860352x
   0.917479 1  102CC040x       Rx   d 8 00 09 CF 6A 00 87 06 A9  Length = 4048212 BitCount = 139 ID = 271368256x
   0.922492 1  102CE040x       Rx   d 8 90 00 6C 7F 00 00 26 AA  Length = 4078212 BitCount = 140 ID = 271376448x
   0.927533 1  10240040x       Rx   d 8 83 FE 88 01 01 13 0F FC  Length = 4168208 BitCount = 143 ID = 270794816x
   0.932456 1  102D0040x       Rx   d 8 01 69 01 ED 7C 89 00 FF  Length = 4078227 BitCount = 140 ID = 271384640x
   0.937646 1  102E0040x       Rx   d 8 00 33 CA 70 8A 00 62 81  Length = 4104581 BitCount = 141 ID = 271450176x
   0.941787 1  10466040x       Rx   d 5 00 00 00 00 00  Length = 3444609 BitCount = 119 ID = 273047616x
   0.947582 1  102CA040x       Rx   d 8 00 40 0C B1 2C 00 F1 00  Length = 4138208 BitCount = 142 ID = 271360064x
   0.950645 1  106B0040x       Rx   d 1 00  Length = 2308263 BitCount = 81 ID = 275447872x
   0.957008 1  C800040x        Rx   d 6 08 CB 00 00 49 81  Length = 3628216 BitCount = 125 ID = 209715264x
   0.962713 1  106B8040x       Rx   d 8 00 00 00 00 00 00 00 00  Length = 4318208 BitCount = 148 ID = 275480640x
   0.967607 1  10264040x       Rx   d 8 04 06 00 00 00 00 00 3C  Length = 4198208 BitCount = 144 ID = 270942272x
   0.971778 1  106C0040x       Rx   d 5 00 06 0F 07 00  Length = 3448220 BitCount = 119 ID = 275513408x
   0.977777 1  10210040x       Rx   d 8 00 00 00 00 00 00 00 00  Length = 4284562 BitCount = 147 ID = 270598208x
   0.981502 1  1077C040x       Rx   d 4 30 30 01 F4  Length = 3148224 BitCount = 109 ID = 276283456x
   0.987748 1  10220040x       Rx   d 8 10 00 00 00 00 04 00 00  Length = 4318208 BitCount = 148 ID = 270663744x
   0.992703 1  10780040x       Rx   d 8 00 00 01 04 08 00 00 22  Length = 4288208 BitCount = 147 ID = 276299840x
   0.997654 1  1022E040x       Rx   d 8 00 00 00 00 00 00 00 00  Length = 4318208 BitCount = 148 ID = 270721088x
   1.002157 1  10788040x       Rx   d 6 08 00 00 00 00 00  Length = 3778216 BitCount = 130 ID = 276332608x
   1.005534 1  Statistic: D 4 R 0 XD 155 XR 0 E 1 O 0 B 62.27%
   1.005534 2  Statistic: D 0 R 0 XD 0 XR 0 E 0 O 0 B 0.00%
   1.005534 3  Statistic: D 0 R 0 XD 0 XR 0 E 0 O 0 B 0.00%
   1.007652 1  10230040x       Rx   d 8 10 00 00 00 10 00 00 00  Length = 4258223 BitCount = 146 ID = 270729280x
   1.011795 1  10806040x       Rx   d 5 00 00 00 00 19  Length = 3418220 BitCount = 118 ID = 276848704x
   1.017739 1  1043A040x       Rx   d 8 00 00 35 00 00 00 00 00  Length = 4288208 BitCount = 147 ID = 272867392x
   1.027611 1  10240040x       Rx   d 8 83 FE 88 01 01 13 0F FC  Length = 4168208 BitCount = 143 ID = 270794816x
   1.036708 1  102C0040x       Rx   d 5 AE EF 44 59 03  Length = 3298224 BitCount = 114 ID = 271319104x
   1.047632 1  102CA040x       Rx   d 8 00 40 0C C2 2C 00 F1 00  Length = 4198223 BitCount = 144 ID = 271360064x
   1.052793 1  10306099x       Rx   d 3 44 59 01  Length = 2758236 BitCount = 96 ID = 271605913x
   1.054884 CAN 1 Status:chip status error active  - TxErr: 0 RxErr: 1
   1.054892 1  ErrorFrame	Flags = 0xfffe	CodeExt = 0x2072	Code = 0x81	ID = 0x93ffe0bb	DLC = 0	Position = 56	Length = 1854390
   1.057221 CAN 1 Status:chip status error active
   1.057251 CAN 1 Status:chip status error active  - TxErr: 0 RxErr: 1
   1.057258 1  ErrorFrame	Flags = 0xfffe	CodeExt = 0x2072	Code = 0x81	ID = 0x93ffe0bb	DLC = 0	Position = 56	Length = 1854375
   1.060283 CAN 1 Status:chip status error active
   1.060500 1  10304058x       Rx   d 3 44 59 01  Length = 2728236 BitCount = 95 ID = 271597656x
   1.062659 1  13FFE0BBx       Rx   d 0  Length = 2034733 BitCount = 72 ID = 335536315x
   1.067581 1  10264040x       Rx   d 8 04 06 00 00 00 00 00 3C  Length = 4198208 BitCount = 144 ID = 270942272x
   1.070674 1  106B0040x       Rx   d 1 00  Length = 2308248 BitCount = 81 ID = 275447872x
   1.077693 1  10210040x       Rx   d 8 00 00 00 00 00 00 00 00  Length = 4284562 BitCount = 147 ID = 270598208x
   1.082647 1  10308060x       Rx   d 3 44 59 01  Length = 2788236 BitCount = 97 ID = 271614048x
   1.087689 1  10220040x       Rx   d 8 10 00 00 00 00 06 00 00  Length = 4288208 BitCount = 147 ID = 270663744x
   1.097654 1  1022E040x       Rx   d 8 20 00 00 00 20 00 00 00  Length = 4288208 BitCount = 147 ID = 270721088x
   1.107618 1  10230040x       Rx   d 8 30 00 00 00 30 00 00 00  Length = 4258208 BitCount = 146 ID = 270729280x
   1.127602 1  1022A040x       Rx   d 8 00 B0 00 12 42 00 00 22  Length = 4134566 BitCount = 142 ID = 270704704x
   1.132076 1  1022C040x       Rx   d 6 00 10 00 20 00 00  Length = 3688231 BitCount = 127 ID = 270712896x
   1.137662 1  10240040x       Rx   d 8 83 FF 88 01 01 13 0F FC  Length = 4198208 BitCount = 144 ID = 270794816x
   1.142735 1  106B8040x       Rx   d 8 00 00 00 00 00 00 00 00  Length = 4318208 BitCount = 148 ID = 275480640x
   1.147356 1  10248040x       Rx   d 7 00 00 6D D4 CC 06 00  Length = 3898212 BitCount = 134 ID = 270827584x
   1.152450 CAN 1 Status:chip status error active  - TxErr: 0 RxErr: 1
   1.152457 1  ErrorFrame	Flags = 0xfffe	CodeExt = 0x2072	Code = 0x81	ID = 0x902ca040	DLC = 8	Position = 120	Length = 3984375	Data = 0  0x40  0xc  0xbb  0x2c  0  0xf1  0
   1.156925 CAN 1 Status:chip status error active
   1.157142 1  102CA040x       Rx   d 8 00 40 0C BB 2C 00 F1 00  Length = 4168223 BitCount = 143 ID = 271360064x
   1.162518 1  102CC040x       Rx   d 8 00 09 CF 6A 00 87 06 AB  Length = 4078212 BitCount = 140 ID = 271368256x
   1.167651 1  10264040x       Rx   d 8 04 06 00 00 00 00 00 28  Length = 4198208 BitCount = 144 ID = 270942272x
   1.172544 1  102CE040x       Rx   d 8 90 00 6B 7F 00 00 26 AA  Length = 4078212 BitCount = 140 ID = 271376448x
   1.177735 1  10210040x       Rx   d 8 00 00 00 00 00 00 00 00  Length = 4288223 BitCount = 147 ID = 270598208x
   1.187728 1  10220040x       Rx   d 8 10 00 00 00 00 06 00 00  Length = 4288208 BitCount = 147 ID = 270663744x
   1.190701 1  106B0040x       Rx   d 1 00  Length = 2308248 BitCount = 81 ID = 275447872x
   1.197722 1  1022E040x       Rx   d 8 00 00 00 00 00 00 00 00  Length = 4314558 BitCount = 148 ID = 270721088x
   1.202764 1  10780040x       Rx   d 8 00 00 01 04 08 00 00 22  Length = 4284573 BitCount = 147 ID = 276299840x
   1.207115 1  C800040x        Rx   d 6 08 CB 00 00 49 83  Length = 3624601 BitCount = 125 ID = 209715264x
   1.212700 1  10230040x       Rx   d 8 10 00 00 00 10 00 00 00  Length = 4258208 BitCount = 146 ID = 270729280x
   1.224282 1  108E0080x       Rx   d 6 0E 01 17 02 07 5A  Length = 3598216 BitCount = 124 ID = 277741696x
   1.228600 1  10240040x       Rx   d 8 83 FF 88 01 01 13 0F FC  Length = 4194577 BitCount = 144 ID = 270794816x
   1.247654 1  102CA040x       Rx   d 8 00 40 0C DA 2C 00 F1 00  Length = 4134566 BitCount = 142 ID = 271360064x
   1.267609 1  10264040x       Rx   d 8 04 06 00 00 00 00 00 3D  Length = 4194562 BitCount = 144 ID = 270942272x
   1.272741 1  1043A040x       Rx   d 8 00 00 36 00 00 00 00 00  Length = 4284562 BitCount = 147 ID = 272867392x
   1.277842 1  10210040x       Rx   d 8 00 00 00 00 00 00 00 00  Length = 4284562 BitCount = 147 ID = 270598208x
   1.287748 1  10220040x       Rx   d 8 10 00 00 00 00 06 00 00  Length = 4288208 BitCount = 147 ID = 270663744x
   1.297682 1  1022E040x       Rx   d 8 20 00 00 00 20 00 00 00  Length = 4288208 BitCount = 147 ID = 270721088x
   1.307649 1  10230040x       Rx   d 8 30 00 00 00 30 00 00 00  Length = 4258208 BitCount = 146 ID = 270729280x
   1.310742 1  106B0040x       Rx   d 1 00  Length = 2308263 BitCount = 81 ID = 275447872x
   1.327727 1  10240040x       Rx   d 8 83 FF 88 01 01 13 0F FC  Length = 4198208 BitCount = 144 ID = 270794816x
   1.332797 1  106B8040x       Rx   d 8 00 00 00 00 00 00 00 00  Length = 4314573 BitCount = 148 ID = 275480640x
   1.336732 1  102C0040x       Rx   d 5 AE EF 44 59 03  Length = 3298224 BitCount = 114 ID = 271319104x
   1.347686 1  102CA040x       Rx   d 8 00 40 0C E2 2C 00 F1 00  Length = 4168208 BitCount = 143 ID = 271360064x
   1.352789 1  10306099x       Rx   d 3 44 59 01  Length = 2758236 BitCount = 96 ID = 271605913x
   1.358067 1  10304058x       Rx   d 3 44 59 01  Length = 2724642 BitCount = 95 ID = 271597656x
   1.362658 1  10308060x       Rx   d 3 44 59 01  Length = 2784638 BitCount = 97 ID = 271614048x
   1.367701 1  10264040x       Rx   d 8 04 06 00 00 00 00 00 3E  Length = 4228223 BitCount = 145 ID = 270942272x
   1.377874 1  10210040x       Rx   d 8 00 00 00 00 00 00 00 00  Length = 4288208 BitCount = 147 ID = 270598208x
   1.382647 1  1022A040x       Rx   d 8 00 B0 00 12 42 00 00 22  Length = 4138208 BitCount = 142 ID = 270704704x
   1.387806 1  10220040x       Rx   d 8 10 00 00 00 00 04 00 00  Length = 4314558 BitCount = 148 ID = 270663744x
   1.392127 1  1022C040x       Rx   d 6 00 10 00 20 00 00  Length = 3684586 BitCount = 127 ID = 270712896x
   1.395849 1  10734099x       Rx   d 6 24 44 00 7D 00 00  Length = 3594601 BitCount = 124 ID = 275988633x
   1.400287 1  1022E040x       Rx   d 8 00 00 00 00 00 00 00 00  Length = 4314558 BitCount = 148 ID = 270721088x
   1.407793 1  10230040x       Rx   d 8 10 00 00 00 10 00 00 00  Length = 4258223 BitCount = 146 ID = 270729280x
   1.412566 1  102CC040x       Rx   d 8 00 09 CF 6A 00 87 06 A7  Length = 4048212 BitCount = 139 ID = 271368256x
   1.417669 1  102CE040x       Rx   d 8 90 00 6C 7F 00 00 26 A7  Length = 4108212 BitCount = 141 ID = 271376448x
   1.422560 1  102D0040x       Rx   d 8 01 69 01 ED 7C 8A 00 FF  Length = 4078212 BitCount = 140 ID = 271384640x
   1.427694 1  10240040x       Rx   d 8 83 FF 88 01 01 13 0F FC  Length = 4198208 BitCount = 144 ID = 270794816x
   1.430755 1  106B0040x       Rx   d 1 00  Length = 2308248 BitCount = 81 ID = 275447872x
   1.436934 1  10806040x       Rx   d 5 00 00 00 00 19  Length = 3414598 BitCount = 118 ID = 276848704x
   1.447740 1  102CA040x       Rx   d 8 00 40 0C D6 2C 00 F1 00  Length = 4168223 BitCount = 143 ID = 271360064x
   1.452814 1  10780040x       Rx   d 8 00 00 01 04 08 00 00 22  Length = 4288208 BitCount = 147 ID = 276299840x
   1.457135 1  C800040x        Rx   d 6 08 CB 00 00 49 87  Length = 3598231 BitCount = 124 ID = 209715264x
   1.462266 1  10788040x       Rx   d 6 08 00 00 00 00 00  Length = 3778216 BitCount = 130 ID = 276332608x
   1.467729 1  10264040x       Rx   d 8 04 06 00 00 00 00 00 29  Length = 4228208 BitCount = 145 ID = 270942272x
   1.477934 1  10210040x       Rx   d 8 00 00 00 00 00 00 00 00  Length = 4288208 BitCount = 147 ID = 270598208x
   1.487838 1  10220040x       Rx   d 8 10 00 00 00 00 03 00 00  Length = 4318223 BitCount = 148 ID = 270663744x
   1.497743 1  1022E040x       Rx   d 8 20 00 00 00 20 00 00 00  Length = 4288208 BitCount = 147 ID = 270721088x
   1.507707 1  10230040x       Rx   d 8 30 00 00 00 30 00 00 00  Length = 4258208 BitCount = 146 ID = 270729280x
   1.517821 1  1043A040x       Rx   d 8 00 00 37 00 00 00 00 00  Length = 4318223 BitCount = 148 ID = 272867392x
   1.527666 1  10240040x       Rx   d 8 83 FE 88 01 01 13 0F FC  Length = 4168208 BitCount = 143 ID = 270794816x
   1.532827 1  106B8040x       Rx   d 8 00 00 00 00 00 00 00 00  Length = 4314558 BitCount = 148 ID = 275480640x
   1.547655 1  102CA040x       Rx   d 8 00 40 0C CB 2B 00 F1 00  Length = 4108212 BitCount = 141 ID = 271360064x
   1.550780 1  106B0040x       Rx   d 1 00  Length = 2308263 BitCount = 81 ID = 275447872x
   1.567735 1  10264040x       Rx   d 8 04 06 00 00 00 00 00 3E  Length = 4228208 BitCount = 145 ID = 270942272x
   1.577936 1  10210040x       Rx   d 8 00 00 00 00 00 00 00 00  Length = 4284562 BitCount = 147 ID = 270598208x
   1.587842 1  10220040x       Rx   d 8 10 00 00 00 00 04 00 00  Length = 4318208 BitCount = 148 ID = 270663744x
   1.597807 1  1022E040x       Rx   d 8 00 00 00 00 00 00 00 00  Length = 4318208 BitCount = 148 ID = 270721088x
   1.607743 1  10230040x       Rx   d 8 10 00 00 00 10 00 00 00  Length = 4258223 BitCount = 146 ID = 270729280x
   1.627790 1  1022A040x       Rx   d 8 00 B0 00 12 42 00 00 22  Length = 4138208 BitCount = 142 ID = 270704704x
   1.630010 1  13FFE058x       Rx   d 0  Length = 2094710 BitCount = 74 ID = 335536216x
   1.633822 1  1022C040x       Rx   d 6 00 10 00 20 00 00  Length = 3688216 BitCount = 127 ID = 270712896x
   1.642738 1  10240040x       Rx   d 8 83 FF 88 01 01 13 0F FC  Length = 4198208 BitCount = 144 ID = 270794816x
   1.645922 1  10448060x       Rx   d 4 00 00 45 00  Length = 3058228 BitCount = 106 ID = 272924768x
   1.649883 1  10248040x       Rx   d 7 00 00 6D D4 CC 07 00  Length = 3838212 BitCount = 132 ID = 270827584x
   1.656813 1  102C0040x       Rx   d 5 AE EF 44 59 03  Length = 3294617 BitCount = 114 ID = 271319104x
   1.662668 1  102CA040x       Rx   d 8 00 40 0C C5 2B 00 F1 00  Length = 4078212 BitCount = 140 ID = 271360064x
   1.664890 1  13FFE060x       Rx   d 0  Length = 2098256 BitCount = 74 ID = 335536224x
   1.669240 1  10264040x       Rx   d 8 04 06 00 00 00 00 00 3E  Length = 4224562 BitCount = 145 ID = 270942272x
   1.671434 1  13FFE080x       Rx   d 0  Length = 2068260 BitCount = 73 ID = 335536256x
   1.673628 1  13FFE0AFx       Rx   d 0  Length = 2068260 BitCount = 73 ID = 335536303x
   1.678036 1  10210040x       Rx   d 8 00 00 00 00 00 00 00 00  Length = 4284562 BitCount = 147 ID = 270598208x
   1.680886 1  10304058x       Rx   d 3 44 59 01  Length = 2724642 BitCount = 95 ID = 271597656x
   1.685120 1  102CC040x       Rx   d 8 00 09 CF 6A 00 87 06 A8  Length = 4108212 BitCount = 141 ID = 271368256x
   1.688032 1  10308060x       Rx   d 3 44 59 01  Length = 2788236 BitCount = 97 ID = 271614048x
   1.690225 1  13FFE099x       Rx   d 0  Length = 2068260 BitCount = 73 ID = 335536281x
   1.694634 1  10220040x       Rx   d 8 10 00 00 00 00 06 00 00  Length = 4284573 BitCount = 147 ID = 270663744x
   1.702800 1  1022E040x       Rx   d 8 20 00 00 00 20 00 00 00  Length = 4288208 BitCount = 147 ID = 270721088x
   1.705678 1  10306099x       Rx   d 3 44 59 01  Length = 2754642 BitCount = 96 ID = 271605913x
   1.709432 1  C800040x        Rx   d 6 08 CB 00 00 49 8A  Length = 3628216 BitCount = 125 ID = 209715264x
   1.717898 1  10230040x       Rx   d 8 00 00 00 00 00 00 00 00  Length = 4288208 BitCount = 147 ID = 270729280x
   1.722669 1  102CE040x       Rx   d 8 90 00 6B 7F 00 00 26 AA  Length = 4078212 BitCount = 140 ID = 271376448x
   1.727800 1  10240040x       Rx   d 8 83 FF 88 01 01 13 0F FC  Length = 4194562 BitCount = 144 ID = 270794816x
   1.730835 1  106B0040x       Rx   d 1 00  Length = 2308248 BitCount = 81 ID = 275447872x
   1.737888 1  106B8040x       Rx   d 8 00 00 00 00 00 00 00 00  Length = 4318223 BitCount = 148 ID = 275480640x
   1.742904 1  10780040x       Rx   d 8 00 00 01 04 08 00 00 22  Length = 4288208 BitCount = 147 ID = 276299840x
   1.747735 1  102CA040x       Rx   d 8 00 40 0C B6 2B 00 F1 00  Length = 4078212 BitCount = 140 ID = 271360064x
   1.750584 1  13FFE040x       Rx   d 0  Length = 2064714 BitCount = 73 ID = 335536192x
   1.757099 1  621             Rx   d 8 00 52 00 00 00 00 00 00  Length = 3598216 BitCount = 124 ID = 1569
   1.767754 1  10264040x       Rx   d 8 04 06 00 00 00 00 00 3D  Length = 4198208 BitCount = 144 ID = 270942272x
   1.772857 1  1043A040x       Rx   d 8 00 00 36 00 00 00 00 00  Length = 4288208 BitCount = 147 ID = 272867392x
   1.778016 1  10210040x       Rx   d 8 00 00 00 00 00 00 00 00  Length = 4284562 BitCount = 147 ID = 270598208x
   1.781051 1  1064A040x       Rx   d 2 29 2D  Length = 2518240 BitCount = 88 ID = 275030080x
   1.787895 1  10220040x       Rx   d 8 10 00 00 00 00 05 00 00  Length = 4288208 BitCount = 147 ID = 270663744x
   1.792576 1  1080A040x       Rx   d 7 00 00 00 00 00 00 00  Length = 4018212 BitCount = 138 ID = 276865088x
   1.797861 1  1022E040x       Rx   d 8 00 00 00 00 00 00 00 00  Length = 4318208 BitCount = 148 ID = 270721088x
   1.807857 1  10230040x       Rx   d 8 10 00 00 00 10 00 00 00  Length = 4258208 BitCount = 146 ID = 270729280x
   1.827810 1  10240040x       Rx   d 8 83 FF 88 01 01 13 0F FC  Length = 4194577 BitCount = 144 ID = 270794816x
   1.847769 1  102CA040x       Rx   d 8 00 40 0C B4 2C 00 F1 00  Length = 4138208 BitCount = 142 ID = 271360064x
   1.850864 1  106B0040x       Rx   d 1 00  Length = 2308248 BitCount = 81 ID = 275447872x
   1.867790 1  10264040x       Rx   d 8 04 06 00 00 00 00 00 27  Length = 4228208 BitCount = 145 ID = 270942272x
   1.877994 1  10210040x       Rx   d 8 00 00 00 00 00 00 00 00  Length = 4288208 BitCount = 147 ID = 270598208x
   1.882765 1  1022A040x       Rx   d 8 00 B0 00 12 42 00 00 22  Length = 4138208 BitCount = 142 ID = 270704704x
   1.887929 1  10220040x       Rx   d 8 10 00 00 00 00 04 00 00  Length = 4318208 BitCount = 148 ID = 270663744x
   1.892252 1  1022C040x       Rx   d 6 00 10 00 20 00 00  Length = 3688216 BitCount = 127 ID = 270712896x
   1.895975 1  10734099x       Rx   d 6 24 44 00 7D 00 00  Length = 3598216 BitCount = 124 ID = 275988633x
   1.900382 1  1022E040x       Rx   d 8 20 00 00 00 20 00 00 00  Length = 4284562 BitCount = 147 ID = 270721088x
   1.907828 1  10230040x       Rx   d 8 30 00 00 00 30 00 00 00  Length = 4258208 BitCount = 146 ID = 270729280x
   1.911187 1  10250040x       Rx   d 2 00 03  Length = 2604669 BitCount = 91 ID = 270860352x
   1.917762 1  102CC040x       Rx   d 8 00 09 CF 6A 00 87 06 AA  Length = 4048212 BitCount = 139 ID = 271368256x
   1.922715 1  102CE040x       Rx   d 8 90 00 6B 7F 00 00 26 AA  Length = 4078212 BitCount = 140 ID = 271376448x
   1.927815 1  10240040x       Rx   d 8 83 FF 88 01 01 13 0F FC  Length = 4194562 BitCount = 144 ID = 270794816x
   1.932679 1  102D0040x       Rx   d 8 01 69 01 ED 7C 89 00 FF  Length = 4078212 BitCount = 140 ID = 271384640x
   1.936853 1  102C0040x       Rx   d 5 AE EF 44 59 03  Length = 3298224 BitCount = 114 ID = 271319104x
   1.942794 1  102E0040x       Rx   d 8 00 33 CA 70 8A 00 62 81  Length = 4108212 BitCount = 141 ID = 271450176x
   1.947833 1  102CA040x       Rx   d 8 00 40 0C 99 2C 00 F1 00  Length = 4164566 BitCount = 143 ID = 271360064x
   1.952938 1  106B8040x       Rx   d 8 00 00 00 00 00 00 00 00  Length = 4318223 BitCount = 148 ID = 275480640x
   1.955820 1  10306099x       Rx   d 3 44 59 01  Length = 2758251 BitCount = 96 ID = 271605913x
   1.959576 1  C800040x        Rx   d 6 08 CB 00 00 49 8D  Length = 3631846 BitCount = 125 ID = 209715264x
   1.962423 1  10304058x       Rx   d 3 44 59 01  Length = 2724642 BitCount = 95 ID = 271597656x
   1.965337 1  10308060x       Rx   d 3 44 59 01  Length = 2788236 BitCount = 97 ID = 271614048x
   1.969690 1  10264040x       Rx   d 8 04 06 00 00 00 00 00 3B  Length = 4228208 BitCount = 145 ID = 270942272x
   1.977942 1  10210040x       Rx   d 8 00 00 00 00 00 00 00 00  Length = 4288208 BitCount = 147 ID = 270598208x
   1.980885 1  106B0040x       Rx   d 1 00  Length = 2308248 BitCount = 81 ID = 275447872x
   1.987907 1  10220040x       Rx   d 8 10 00 00 00 00 06 00 00  Length = 4284562 BitCount = 147 ID = 270663744x
   1.992018 1  106C0040x       Rx   d 5 00 06 0F 07 00  Length = 3444598 BitCount = 119 ID = 275513408x
   1.997933 1  1022E040x       Rx   d 8 00 00 00 00 00 00 00 00  Length = 4318208 BitCount = 148 ID = 270721088x
   2.001084 1  1064A040x       Rx   d 2 2A 2D  Length = 2488244 BitCount = 87 ID = 275030080x
   2.005534 1  Statistic: D 1 R 0 XD 150 XR 0 E 3 O 0 B 59.64%
   2.005534 2  Statistic: D 0 R 0 XD 0 XR 0 E 0 O 0 B 0.00%
   2.005534 3  Statistic: D 0 R 0 XD 0 XR 0 E 0 O 0 B 0.00%
   2.007868 1  10230040x       Rx   d 8 10 00 00 00 10 00 00 00  Length = 4258208 BitCount = 146 ID = 270729280x
   2.011741 1  1077C040x       Rx   d 4 30 30 01 F4  Length = 3148224 BitCount = 109 ID = 276283456x
   2.017950 1  1043A040x       Rx   d 8 00 00 36 00 00 00 00 00  Length = 4284562 BitCount = 147 ID = 272867392x
   2.022961 1  10780040x       Rx   d 8 00 00 01 04 08 00 00 22  Length = 4284562 BitCount = 147 ID = 276299840x
   2.027856 1  10240040x       Rx   d 8 83 FE 88 01 01 13 0F FC  Length = 4168208 BitCount = 143 ID = 270794816x
   2.031664 1  10324058x       Rx   d 6 00 00 03 FF 00 00  Length = 3684586 BitCount = 127 ID = 271728728x
   2.035568 1  10788040x       Rx   d 6 08 00 00 00 00 00  Length = 3778216 BitCount = 130 ID = 276332608x
   2.039167 1  13FFE068x       Rx   d 0  Length = 2064714 BitCount = 73 ID = 335536232x
   2.042709 1  10806040x       Rx   d 5 00 00 00 00 19  Length = 3414598 BitCount = 118 ID = 276848704x
   2.045408 1  106D0080x       Rx   d 2 00 00  Length = 2574658 BitCount = 90 ID = 275579008x
   2.049728 1  102CA040x       Rx   d 8 00 40 0C A7 2C 00 F1 00  Length = 4194577 BitCount = 144 ID = 271360064x
   2.067822 1  10264040x       Rx   d 8 04 06 00 00 00 00 00 3C  Length = 4194562 BitCount = 144 ID = 270942272x
   2.078058 1  10210040x       Rx   d 8 00 00 00 00 00 00 00 00  Length = 4288208 BitCount = 147 ID = 270598208x
   2.087927 1  10220040x       Rx   d 8 10 00 00 00 00 06 00 00  Length = 4284562 BitCount = 147 ID = 270663744x
   2.097891 1  1022E040x       Rx   d 8 20 00 00 00 20 00 00 00  Length = 4288208 BitCount = 147 ID = 270721088x
   2.100927 1  106B0040x       Rx   d 1 00  Length = 2308248 BitCount = 81 ID = 275447872x
   2.107916 1  10230040x       Rx   d 8 30 00 00 00 30 00 00 00  Length = 4254577 BitCount = 146 ID = 270729280x
   2.127815 1  1022A040x       Rx   d 8 00 B0 00 12 42 00 00 22  Length = 4138208 BitCount = 142 ID = 270704704x
   2.132320 1  1022C040x       Rx   d 6 00 10 00 20 00 00  Length = 3688216 BitCount = 127 ID = 270712896x
   2.137845 1  10240040x       Rx   d 8 83 FE 88 01 01 13 0F FC  Length = 4168208 BitCount = 143 ID = 270794816x
   2.142978 1  106B8040x       Rx   d 8 00 00 00 00 00 00 00 00  Length = 4318208 BitCount = 148 ID = 275480640x
   2.147541 1  10248040x       Rx   d 7 00 00 6D D4 CC 06 00  Length = 3898212 BitCount = 134 ID = 270827584x
   2.152911 1  102CA040x       Rx   d 8 00 40 0C BB 2C 00 F1 00  Length = 4164581 BitCount = 143 ID = 271360064x
   2.157776 1  102CC040x       Rx   d 8 00 09 CF 6A 00 87 06 AB  Length = 4078212 BitCount = 140 ID = 271368256x
   2.167860 1  10264040x       Rx   d 8 04 06 00 00 00 00 00 28  Length = 4198223 BitCount = 144 ID = 270942272x
   2.172782 1  102CE040x       Rx   d 8 90 00 6B 7F 00 00 26 AA  Length = 4078227 BitCount = 140 ID = 271376448x
   2.178121 1  10210040x       Rx   d 8 00 00 00 00 00 00 00 00  Length = 4284573 BitCount = 147 ID = 270598208x
   2.187997 1  10220040x       Rx   d 8 10 00 00 00 00 08 00 00  Length = 4318208 BitCount = 148 ID = 270663744x
   2.197931 1  1022E040x       Rx   d 8 00 00 00 00 00 00 00 00  Length = 4318208 BitCount = 148 ID = 270721088x
   2.203035 1  10780040x       Rx   d 8 00 00 01 04 08 00 00 22  Length = 4288208 BitCount = 147 ID = 276299840x
   2.207324 1  C800040x        Rx   d 6 08 CB 00 00 49 90  Length = 3624586 BitCount = 125 ID = 209715264x
   2.212909 1  10230040x       Rx   d 8 10 00 00 00 10 00 00 00  Length = 4258208 BitCount = 146 ID = 270729280x
   2.216212 1  1064A040x       Rx   d 2 2B 2D  Length = 2488244 BitCount = 87 ID = 275030080x
   2.220953 1  106B0040x       Rx   d 1 00  Length = 2308248 BitCount = 81 ID = 275447872x
   2.224703 1  108E0080x       Rx   d 6 0E 01 17 02 07 5B  Length = 3624586 BitCount = 125 ID = 277741696x
   2.228993 1  10240040x       Rx   d 8 83 FE 88 01 01 13 0F FC  Length = 4164566 BitCount = 143 ID = 270794816x
   2.236949 1  102C0040x       Rx   d 5 AE EF 44 59 03  Length = 3298224 BitCount = 114 ID = 271319104x
   2.247906 1  102CA040x       Rx   d 8 00 40 0C A6 2C 00 F1 00  Length = 4168208 BitCount = 143 ID = 271360064x
   2.252797 1  10306099x       Rx   d 3 44 59 01  Length = 2758236 BitCount = 96 ID = 271605913x
   2.257929 1  10304058x       Rx   d 3 44 59 01  Length = 2728251 BitCount = 95 ID = 271597656x
   2.260088 1  13FFE0BBx       Rx   d 0  Length = 2034733 BitCount = 72 ID = 335536315x
   2.267890 1  10264040x       Rx   d 8 04 06 00 00 00 00 00 3C  Length = 4198208 BitCount = 144 ID = 270942272x
   2.273022 1  1043A040x       Rx   d 8 00 00 38 00 00 00 00 00  Length = 4348208 BitCount = 149 ID = 272867392x
   2.278003 1  10210040x       Rx   d 8 00 00 00 00 00 00 00 00  Length = 4288208 BitCount = 147 ID = 270598208x
   2.282622 1  10308060x       Rx   d 3 44 59 01  Length = 2784638 BitCount = 97 ID = 271614048x
   2.287961 1  10220040x       Rx   d 8 10 00 00 00 00 06 00 00  Length = 4284562 BitCount = 147 ID = 270663744x
   2.297928 1  1022E040x       Rx   d 8 20 00 00 00 20 00 00 00  Length = 4288208 BitCount = 147 ID = 270721088x
   2.307922 1  10230040x       Rx   d 8 30 00 00 00 30 00 00 00  Length = 4258208 BitCount = 146 ID = 270729280x
   2.327939 1  10240040x       Rx   d 8 83 FE 88 01 01 13 0F FC  Length = 4168208 BitCount = 143 ID = 270794816x
   2.333044 1  106B8040x       Rx   d 8 00 00 00 00 00 00 00 00  Length = 4318208 BitCount = 148 ID = 275480640x
   2.335985 1  106B0040x       Rx   d 1 00  Length = 2308263 BitCount = 81 ID = 275447872x
   2.347958 1  102CA040x       Rx   d 8 00 40 0C 9F 2C 00 F1 00  Length = 4194562 BitCount = 144 ID = 271360064x
   2.367883 1  10264040x       Rx   d 8 04 06 00 00 00 00 00 3C  Length = 4194562 BitCount = 144 ID = 270942272x
   2.378145 1  10210040x       Rx   d 8 00 00 00 00 00 00 00 00  Length = 4284562 BitCount = 147 ID = 270598208x
   2.382860 1  1022A040x       Rx   d 8 00 B0 00 12 42 00 00 22  Length = 4138208 BitCount = 142 ID = 270704704x
   2.388023 1  10220040x       Rx   d 8 10 00 00 00 00 04 00 00  Length = 4318208 BitCount = 148 ID = 270663744x
   2.392374 1  1022C040x       Rx   d 6 00 10 00 20 00 00  Length = 3688216 BitCount = 127 ID = 270712896x
   2.396097 1  10734099x       Rx   d 6 24 44 00 7D 00 00  Length = 3598216 BitCount = 124 ID = 275988633x
   2.400537 1  1022E040x       Rx   d 8 00 00 00 00 00 00 00 00  Length = 4314558 BitCount = 148 ID = 270721088x
   2.407982 1  10230040x       Rx   d 8 10 00 00 00 10 00 00 00  Length = 4258208 BitCount = 146 ID = 270729280x
   2.412815 1  102CC040x       Rx   d 8 00 09 CF 6A 00 87 06 AD  Length = 4048212 BitCount = 139 ID = 271368256x
   2.417855 1  102CE040x       Rx   d 8 90 00 6B 7F 00 00 26 AA  Length = 4074566 BitCount = 140 ID = 271376448x
   2.422870 1  102D0040x       Rx   d 8 01 69 01 ED 7C 8B 00 FF  Length = 4138208 BitCount = 142 ID = 271384640x
   2.427909 1  10240040x       Rx   d 8 83 FE 88 01 01 13 0F FC  Length = 4164566 BitCount = 143 ID = 270794816x
   2.437125 1  10806040x       Rx   d 5 00 00 00 00 19  Length = 3418220 BitCount = 118 ID = 276848704x
   2.447900 1  102CA040x       Rx   d 8 00 40 0C AD 2C 00 F1 00  Length = 4138223 BitCount = 142 ID = 271360064x
   2.450993 1  106B0040x       Rx   d 1 00  Length = 2308248 BitCount = 81 ID = 275447872x
   2.457416 1  C800040x        Rx   d 6 08 CB 00 00 49 94  Length = 3628231 BitCount = 125 ID = 209715264x
   2.463091 1  10780040x       Rx   d 8 00 00 01 04 08 00 00 22  Length = 4288208 BitCount = 147 ID = 276299840x
   2.467925 1  10264040x       Rx   d 8 04 06 00 00 00 00 00 3C  Length = 4198223 BitCount = 144 ID = 270942272x
   2.472518 1  10788040x       Rx   d 6 08 00 00 00 00 00  Length = 3778216 BitCount = 130 ID = 276332608x
   2.478191 1  10210040x       Rx   d 8 00 00 00 00 00 00 00 00  Length = 4288223 BitCount = 147 ID = 270598208x
   2.488125 1  10220040x       Rx   d 8 10 00 00 00 00 05 00 00  Length = 4288223 BitCount = 147 ID = 270663744x
   2.497972 1  1022E040x       Rx   d 8 20 00 00 00 20 00 00 00  Length = 4288208 BitCount = 147 ID = 270721088x
   2.507966 1  10230040x       Rx   d 8 30 00 00 00 30 00 00 00  Length = 4258208 BitCount = 146 ID = 270729280x
   2.518141 1  1043A040x       Rx   d 8 00 00 38 00 00 00 00 00  Length = 4348223 BitCount = 149 ID = 272867392x
   2.527925 1  10240040x       Rx   d 8 83 FE 88 01 01 13 0F FC  Length = 4168208 BitCount = 143 ID = 270794816x
   2.533088 1  106B8040x       Rx   d 8 00 00 00 00 00 00 00 00  Length = 4318208 BitCount = 148 ID = 275480640x
   2.537019 1  102C0040x       Rx   d 5 AE EF 44 59 03  Length = 3298224 BitCount = 114 ID = 271319104x
   2.547946 1  102CA040x       Rx   d 8 00 40 0C B6 2C 00 F1 00  Length = 4138208 BitCount = 142 ID = 271360064x
   2.552777 1  10306099x       Rx   d 3 44 59 01  Length = 2758236 BitCount = 96 ID = 271605913x
   2.557756 1  10304058x       Rx   d 3 44 59 01  Length = 2724642 BitCount = 95 ID = 271597656x
   2.562648 1  10308060x       Rx   d 3 44 59 01  Length = 2788236 BitCount = 97 ID = 271614048x
   2.567957 1  10264040x       Rx   d 8 04 06 00 00 00 00 00 28  Length = 4194562 BitCount = 144 ID = 270942272x
   2.571022 1  106B0040x       Rx   d 1 00  Length = 2308248 BitCount = 81 ID = 275447872x
   2.578101 1  10210040x       Rx   d 8 00 00 00 00 00 00 00 00  Length = 4284562 BitCount = 147 ID = 270598208x
   2.588067 1  10220040x       Rx   d 8 10 00 00 00 00 06 00 00  Length = 4288208 BitCount = 147 ID = 270663744x
   2.598032 1  1022E040x       Rx   d 8 00 00 00 00 00 00 00 00  Length = 4318208 BitCount = 148 ID = 270721088x
   2.608026 1  10230040x       Rx   d 8 10 00 00 00 10 00 00 00  Length = 4258208 BitCount = 146 ID = 270729280x
   2.628010 1  1022A040x       Rx   d 8 00 B0 00 12 42 00 00 22  Length = 4134566 BitCount = 142 ID = 270704704x
   2.632454 1  1022C040x       Rx   d 6 00 10 00 20 00 00  Length = 3688216 BitCount = 127 ID = 270712896x
   2.637950 1  10240040x       Rx   d 8 83 FE 88 01 01 13 0F FC  Length = 4168208 BitCount = 143 ID = 270794816x
   2.642934 1  10448060x       Rx   d 4 00 00 45 00  Length = 3058243 BitCount = 106 ID = 272924768x
   2.647586 1  10248040x       Rx   d 7 00 00 6D D4 CC 07 00  Length = 3838212 BitCount = 132 ID = 270827584x
   2.653046 1  102CA040x       Rx   d 8 00 40 0C B5 2C 00 F1 00  Length = 4194562 BitCount = 144 ID = 271360064x
   2.657881 1  102CC040x       Rx   d 8 00 09 CF 6A 00 87 06 AA  Length = 4048212 BitCount = 139 ID = 271368256x
   2.667965 1  10264040x       Rx   d 8 04 06 00 00 00 00 00 3C  Length = 4198208 BitCount = 144 ID = 270942272x
   2.672916 1  102CE040x       Rx   d 8 90 00 6B 7F 00 00 26 AA  Length = 4078212 BitCount = 140 ID = 271376448x
   2.678079 1  10210040x       Rx   d 8 00 00 00 00 00 00 00 00  Length = 4288208 BitCount = 147 ID = 270598208x
   2.688072 1  10220040x       Rx   d 8 10 00 00 00 00 06 00 00  Length = 4288208 BitCount = 147 ID = 270663744x
   2.691045 1  106B0040x       Rx   d 1 00  Length = 2308248 BitCount = 81 ID = 275447872x
   2.698040 1  1022E040x       Rx   d 8 20 00 00 00 20 00 00 00  Length = 4288208 BitCount = 147 ID = 270721088x
   2.703142 1  10780040x       Rx   d 8 00 00 01 04 08 00 00 22  Length = 4284562 BitCount = 147 ID = 276299840x
   2.707406 1  C800040x        Rx   d 6 08 CB 00 00 49 96  Length = 3598231 BitCount = 124 ID = 209715264x
   2.713018 1  10230040x       Rx   d 8 30 00 00 00 30 00 00 00  Length = 4258208 BitCount = 146 ID = 270729280x
   2.727960 1  10240040x       Rx   d 8 83 FE 88 01 01 13 0F FC  Length = 4164566 BitCount = 143 ID = 270794816x
   2.733121 1  106B8040x       Rx   d 8 00 00 00 00 00 00 00 00  Length = 4314558 BitCount = 148 ID = 275480640x
   2.748008 1  102CA040x       Rx   d 8 00 40 0C B6 2C 00 F1 00  Length = 4138208 BitCount = 142 ID = 271360064x
   2.757341 1  621             Rx   d 8 00 52 00 00 00 00 00 00  Length = 3594590 BitCount = 124 ID = 1569
   2.767997 1  10264040x       Rx   d 8 04 06 00 00 00 00 00 3C  Length = 4198208 BitCount = 144 ID = 270942272x
   2.773098 1  1043A040x       Rx   d 8 00 00 36 00 00 00 00 00  Length = 4284562 BitCount = 147 ID = 272867392x
   2.778230 1  10210040x       Rx   d 8 00 00 00 00 00 00 00 00  Length = 4284562 BitCount = 147 ID = 270598208x
   2.782825 1  1080A040x       Rx   d 7 00 00 00 00 00 00 00  Length = 4018212 BitCount = 138 ID = 276865088x
   2.788170 1  10220040x       Rx   d 8 10 00 00 00 00 07 00 00  Length = 4318208 BitCount = 148 ID = 270663744x
   2.798076 1  1022E040x       Rx   d 8 00 00 00 00 00 00 00 00  Length = 4318223 BitCount = 148 ID = 270721088x
   2.808131 1  10230040x       Rx   d 8 10 00 00 00 10 00 00 00  Length = 4258208 BitCount = 146 ID = 270729280x
   2.811164 1  106B0040x       Rx   d 1 00  Length = 2308248 BitCount = 81 ID = 275447872x
   2.828119 1  10240040x       Rx   d 8 83 FE 88 01 01 13 0F FC  Length = 4168208 BitCount = 143 ID = 270794816x
   2.830343 1  13FFE058x       Rx   d 0  Length = 2098256 BitCount = 74 ID = 335536216x
   2.837156 1  102C0040x       Rx   d 5 AE EF 44 59 03  Length = 3298224 BitCount = 114 ID = 271319104x
   2.848048 1  102CA040x       Rx   d 8 00 40 0C 99 2C 00 F1 00  Length = 4168208 BitCount = 143 ID = 271360064x
   2.852792 1  10306099x       Rx   d 3 44 59 01  Length = 2758236 BitCount = 96 ID = 271605913x
   2.857680 1  10304058x       Rx   d 3 44 59 01  Length = 2724642 BitCount = 95 ID = 271597656x
   2.861971 1  13FFE060x       Rx   d 0  Length = 2094710 BitCount = 74 ID = 335536224x
   2.864165 1  13FFE080x       Rx   d 0  Length = 2068260 BitCount = 73 ID = 335536256x
   2.868487 1  10264040x       Rx   d 8 04 06 00 00 00 00 00 28  Length = 4198223 BitCount = 144 ID = 270942272x
   2.870679 1  13FFE0AFx       Rx   d 0  Length = 2068260 BitCount = 73 ID = 335536303x
   2.878121 1  10210040x       Rx   d 8 00 00 00 00 00 00 00 00  Length = 4288208 BitCount = 147 ID = 270598208x
   2.882985 1  1022A040x       Rx   d 8 00 B0 00 12 42 00 00 22  Length = 4138208 BitCount = 142 ID = 270704704x
   2.885898 1  10308060x       Rx   d 3 44 59 01  Length = 2788247 BitCount = 97 ID = 271614048x
   2.890311 1  10220040x       Rx   d 8 10 00 00 00 00 06 00 00  Length = 4288208 BitCount = 147 ID = 270663744x
   2.892503 1  13FFE099x       Rx   d 0  Length = 2068260 BitCount = 73 ID = 335536281x
   2.896221 1  10734099x       Rx   d 6 24 44 00 7D 00 00  Length = 3594590 BitCount = 124 ID = 275988633x
   2.900035 1  1022C040x       Rx   d 6 00 10 00 20 00 00  Length = 3688231 BitCount = 127 ID = 270712896x
   2.908199 1  1022E040x       Rx   d 8 30 00 00 00 30 00 00 00  Length = 4288223 BitCount = 147 ID = 270721088x
   2.913094 1  10230040x       Rx   d 8 30 00 00 00 30 00 00 00  Length = 4258208 BitCount = 146 ID = 270729280x
   2.916483 1  10250040x       Rx   d 2 00 03  Length = 2604654 BitCount = 91 ID = 270860352x
   2.922908 1  102CC040x       Rx   d 8 00 09 CF 6A 00 87 06 AC  Length = 4048212 BitCount = 139 ID = 271368256x
   2.928098 1  10240040x       Rx   d 8 83 FE 88 01 01 13 0F FC  Length = 4164566 BitCount = 143 ID = 270794816x
   2.932963 1  102CE040x       Rx   d 8 90 00 6B 7F 00 00 26 AA  Length = 4078212 BitCount = 140 ID = 271376448x
   2.937976 1  102D0040x       Rx   d 8 01 69 01 ED 7C 8D 00 FF  Length = 4108212 BitCount = 141 ID = 271384640x
   2.943016 1  102E0040x       Rx   d 8 00 33 CA 70 8A 00 62 81  Length = 4104566 BitCount = 141 ID = 271450176x
   2.948060 1  102CA040x       Rx   d 8 00 40 0C A2 2C 00 F1 00  Length = 4138223 BitCount = 142 ID = 271360064x
   2.952292 1  10466040x       Rx   d 5 00 00 00 00 00  Length = 3448235 BitCount = 119 ID = 273047616x
   2.957511 1  C800040x        Rx   d 6 08 CB 00 00 49 9A  Length = 3594601 BitCount = 124 ID = 209715264x
   2.961110 1  106B0040x       Rx   d 1 00  Length = 2304697 BitCount = 81 ID = 275447872x
   2.968041 1  10264040x       Rx   d 8 04 06 00 00 00 00 00 3C  Length = 4194562 BitCount = 144 ID = 270942272x
   2.973176 1  106B8040x       Rx   d 8 00 00 00 00 00 00 00 00  Length = 4318208 BitCount = 148 ID = 275480640x
   2.978158 1  10210040x       Rx   d 8 00 00 00 00 00 00 00 00  Length = 4288223 BitCount = 147 ID = 270598208x
   2.982271 1  106C0040x       Rx   d 5 00 06 0F 07 00  Length = 3448220 BitCount = 119 ID = 275513408x
   2.985393 1  10814099x       Rx   d 4 20 44 30 00  Length = 2998228 BitCount = 104 ID = 276906137x
   2.989801 1  10220040x       Rx   d 8 10 00 00 00 00 06 00 00  Length = 4284562 BitCount = 147 ID = 270663744x
   2.998147 1  1022E040x       Rx   d 8 00 00 00 00 00 00 00 00  Length = 4318208 BitCount = 148 ID = 270721088x
   3.001960 1  1077C040x       Rx   d 4 30 30 01 F4  Length = 3148239 BitCount = 109 ID = 276283456x
   3.005534 1  Statistic: D 1 R 0 XD 153 XR 0 E 0 O 0 B 60.03%
   3.005534 2  Statistic: D 0 R 0 XD 0 XR 0 E 0 O 0 B 0.00%
   3.005534 3  Statistic: D 0 R 0 XD 0 XR 0 E 0 O 0 B 0.00%
   3.008109 1  10230040x       Rx   d 8 10 00 00 00 10 00 00 00  Length = 4254562 BitCount = 146 ID = 270729280x
   3.013214 1  10780040x       Rx   d 8 00 00 01 04 08 00 00 22  Length = 4288208 BitCount = 147 ID = 276299840x
   3.018255 1  1043A040x       Rx   d 8 00 00 38 00 00 00 00 00  Length = 4348208 BitCount = 149 ID = 272867392x
   3.022638 1  10788040x       Rx   d 6 08 00 00 00 00 00  Length = 3778216 BitCount = 130 ID = 276332608x
   3.028074 1  10240040x       Rx   d 8 83 FF 88 01 01 13 0F FC  Length = 4198223 BitCount = 144 ID = 270794816x
   3.032275 1  10806040x       Rx   d 5 00 00 00 00 19  Length = 3414598 BitCount = 118 ID = 276848704x
   3.035880 1  13FFE040x       Rx   d 0  Length = 2068260 BitCount = 73 ID = 335536192x
   3.048093 1  102CA040x       Rx   d 8 00 40 0C BB 2C 00 F1 00  Length = 4164566 BitCount = 143 ID = 271360064x
   3.068081 1  10264040x       Rx   d 8 04 06 00 00 00 00 00 3D  Length = 4198208 BitCount = 144 ID = 270942272x
   3.078288 1  10210040x       Rx   d 8 00 00 00 00 00 00 00 00  Length = 4288208 BitCount = 147 ID = 270598208x
   3.081169 1  106B0040x       Rx   d 1 00  Length = 2308248 BitCount = 81 ID = 275447872x
   3.088190 1  10220040x       Rx   d 8 10 00 00 00 00 09 00 00  Length = 4284562 BitCount = 147 ID = 270663744x
   3.098127 1  1022E040x       Rx   d 8 20 00 00 00 20 00 00 00  Length = 4288208 BitCount = 147 ID = 270721088x
   3.108151 1  10230040x       Rx   d 8 30 00 00 00 30 00 00 00  Length = 4258208 BitCount = 146 ID = 270729280x
   3.128138 1  1022A040x       Rx   d 8 00 B0 00 12 42 00 00 22  Length = 4138208 BitCount = 142 ID = 270704704x
   3.132549 1  1022C040x       Rx   d 6 00 10 00 20 00 00  Length = 3684586 BitCount = 127 ID = 270712896x
   3.138074 1  10240040x       Rx   d 8 83 FE 88 01 01 13 0F FC  Length = 4168208 BitCount = 143 ID = 270794816x
   3.142157 1  102C0040x       Rx   d 5 AE EF 44 59 03  Length = 3298224 BitCount = 114 ID = 271319104x
   3.147801 1  10248040x       Rx   d 7 00 00 6D D4 CC 06 00  Length = 3898212 BitCount = 134 ID = 270827584x
   3.153140 1  102CA040x       Rx   d 8 00 40 0C B8 2C 00 F1 00  Length = 4194562 BitCount = 144 ID = 271360064x
   3.158035 1  102CC040x       Rx   d 8 00 09 CF 6A 00 87 06 AB  Length = 4078227 BitCount = 140 ID = 271368256x
   3.163226 1  106B8040x       Rx   d 8 00 00 00 00 00 00 00 00  Length = 4318208 BitCount = 148 ID = 275480640x
   3.166138 1  10308060x       Rx   d 3 44 59 01  Length = 2788247 BitCount = 97 ID = 271614048x
   3.170461 1  10264040x       Rx   d 8 04 06 00 00 00 00 00 2A  Length = 4198208 BitCount = 144 ID = 270942272x
   3.173308 1  10304058x       Rx   d 3 44 59 01  Length = 2724657 BitCount = 95 ID = 271597656x
   3.178202 1  10210040x       Rx   d 8 00 00 00 00 00 00 00 00  Length = 4288208 BitCount = 147 ID = 270598208x
   3.183035 1  102CE040x       Rx   d 8 90 00 6B 7F 00 00 26 AA  Length = 4078212 BitCount = 140 ID = 271376448x
   3.188225 1  10220040x       Rx   d 8 10 00 00 00 00 07 00 00  Length = 4314558 BitCount = 148 ID = 270663744x
   3.198191 1  1022E040x       Rx   d 8 00 00 00 00 00 00 00 00  Length = 4318208 BitCount = 148 ID = 270721088x
   3.201194 1  106B0040x       Rx   d 1 00  Length = 2308248 BitCount = 81 ID = 275447872x
   3.204073 1  10306099x       Rx   d 3 44 59 01  Length = 2754657 BitCount = 96 ID = 271605913x
   3.207827 1  C800040x        Rx   d 6 08 CB 00 00 49 9C  Length = 3628231 BitCount = 125 ID = 209715264x
   3.213197 1  10230040x       Rx   d 8 10 00 00 00 10 00 00 00  Length = 4254562 BitCount = 146 ID = 270729280x
   3.218328 1  10780040x       Rx   d 8 00 00 01 04 08 00 00 22  Length = 4284573 BitCount = 147 ID = 276299840x
   3.224242 1  108E0080x       Rx   d 6 0E 01 17 02 07 5C  Length = 3598231 BitCount = 124 ID = 277741696x
   3.228534 1  10240040x       Rx   d 8 83 FE 88 01 01 13 0F FC  Length = 4168208 BitCount = 143 ID = 270794816x
   3.239152 1  13FFE068x       Rx   d 0  Length = 2064729 BitCount = 73 ID = 335536232x
   3.243208 1  106D0080x       Rx   d 2 00 00  Length = 2578240 BitCount = 90 ID = 275579008x
   3.248129 1  102CA040x       Rx   d 8 00 40 0C B9 2C 00 F1 00  Length = 4138208 BitCount = 142 ID = 271360064x
   3.268146 1  10264040x       Rx   d 8 04 06 00 00 00 00 00 3E  Length = 4228223 BitCount = 145 ID = 270942272x
   3.273221 1  1043A040x       Rx   d 8 00 00 39 00 00 00 00 00  Length = 4288208 BitCount = 147 ID = 272867392x
   3.278382 1  10210040x       Rx   d 8 00 00 00 00 00 00 00 00  Length = 4288208 BitCount = 147 ID = 270598208x
   3.288254 1  10220040x       Rx   d 8 10 00 00 00 00 04 00 00  Length = 4318223 BitCount = 148 ID = 270663744x
   3.298161 1  1022E040x       Rx   d 8 20 00 00 00 20 00 00 00  Length = 4288208 BitCount = 147 ID = 270721088x
   3.308185 1  10230040x       Rx   d 8 30 00 00 00 30 00 00 00  Length = 4258208 BitCount = 146 ID = 270729280x
   3.316200 1  106B0040x       Rx   d 1 00  Length = 2308248 BitCount = 81 ID = 275447872x
   3.328176 1  10240040x       Rx   d 8 83 FE 88 01 01 13 0F FC  Length = 4168208 BitCount = 143 ID = 270794816x
   3.333277 1  106B8040x       Rx   d 8 00 00 00 00 00 00 00 00  Length = 4318208 BitCount = 148 ID = 275480640x
   3.348127 1  102CA040x       Rx   d 8 00 40 0C CA 2C 00 F1 00  Length = 4134566 BitCount = 142 ID = 271360064x
   3.368176 1  10264040x       Rx   d 8 04 06 00 00 00 00 00 3E  Length = 4228208 BitCount = 145 ID = 270942272x
   3.378382 1  10210040x       Rx   d 8 00 00 00 00 00 00 00 00  Length = 4288208 BitCount = 147 ID = 270598208x
   3.383123 1  1022A040x       Rx   d 8 00 B0 00 12 42 00 00 22  Length = 4138208 BitCount = 142 ID = 270704704x
   3.388285 1  10220040x       Rx   d 8 10 00 00 00 00 04 00 00  Length = 4314558 BitCount = 148 ID = 270663744x
   3.392640 1  1022C040x       Rx   d 6 00 10 00 20 00 00  Length = 3688216 BitCount = 127 ID = 270712896x
   3.396359 1  10734099x       Rx   d 6 24 44 00 7D 00 00  Length = 3594590 BitCount = 124 ID = 275988633x
   3.400800 1  1022E040x       Rx   d 8 00 00 00 00 00 00 00 00  Length = 4314573 BitCount = 148 ID = 270721088x
   3.408276 1  10230040x       Rx   d 8 10 00 00 00 10 00 00 00  Length = 4258223 BitCount = 146 ID = 270729280x
   3.413049 1  102CC040x       Rx   d 8 00 09 CF 6A 00 87 06 A9  Length = 4048212 BitCount = 139 ID = 271368256x
   3.418122 1  102CE040x       Rx   d 8 90 00 6B 7F 00 00 26 AA  Length = 4078212 BitCount = 140 ID = 271376448x
   3.423073 1  102D0040x       Rx   d 8 01 69 01 ED 7C 8D 00 FF  Length = 4108212 BitCount = 141 ID = 271384640x
   3.428203 1  10240040x       Rx   d 8 83 FE 88 01 01 13 0F FC  Length = 4164566 BitCount = 143 ID = 270794816x
   3.431238 1  106B0040x       Rx   d 1 00  Length = 2308263 BitCount = 81 ID = 275447872x
   3.437241 1  102C0040x       Rx   d 5 AE EF 44 59 03  Length = 3298224 BitCount = 114 ID = 271319104x
   3.442402 1  10806040x       Rx   d 5 00 00 00 00 19  Length = 3418220 BitCount = 118 ID = 276848704x
   3.448223 1  102CA040x       Rx   d 8 00 40 0C D0 2C 00 F1 00  Length = 4198208 BitCount = 144 ID = 271360064x
   3.453296 1  10780040x       Rx   d 8 00 00 01 04 08 00 00 22  Length = 4288208 BitCount = 147 ID = 276299840x
   3.456179 1  10306099x       Rx   d 3 44 59 01  Length = 2758236 BitCount = 96 ID = 271605913x
   3.459931 1  C800040x        Rx   d 6 08 CB 00 00 49 A0  Length = 3628216 BitCount = 125 ID = 209715264x
   3.462782 1  10304058x       Rx   d 3 44 59 01  Length = 2724642 BitCount = 95 ID = 271597656x
   3.464941 1  13FFE0BBx       Rx   d 0  Length = 2034718 BitCount = 72 ID = 335536315x
   3.469294 1  10264040x       Rx   d 8 04 06 00 00 00 00 00 3E  Length = 4228208 BitCount = 145 ID = 270942272x
   3.478270 1  10210040x       Rx   d 8 00 00 00 00 00 00 00 00  Length = 4288208 BitCount = 147 ID = 270598208x
   3.482746 1  10788040x       Rx   d 6 08 00 00 00 00 00  Length = 3778231 BitCount = 130 ID = 276332608x
   3.485660 1  10308060x       Rx   d 3 44 59 01  Length = 2788236 BitCount = 97 ID = 271614048x
   3.490069 1  10220040x       Rx   d 8 10 00 00 00 00 05 00 00  Length = 4284562 BitCount = 147 ID = 270663744x
   3.498235 1  1022E040x       Rx   d 8 20 00 00 00 20 00 00 00  Length = 4288208 BitCount = 147 ID = 270721088x
   3.508259 1  10230040x       Rx   d 8 30 00 00 00 30 00 00 00  Length = 4258208 BitCount = 146 ID = 270729280x
   3.518284 1  1043A040x       Rx   d 8 00 00 36 00 00 00 00 00  Length = 4288208 BitCount = 147 ID = 272867392x
   3.528248 1  10240040x       Rx   d 8 83 FE 88 01 01 13 0F FC  Length = 4168208 BitCount = 143 ID = 270794816x
   3.533322 1  106B8040x       Rx   d 8 00 00 00 00 00 00 00 00  Length = 4318223 BitCount = 148 ID = 275480640x
   3.548237 1  102CA040x       Rx   d 8 00 40 0C BF 2C 00 F1 00  Length = 4198208 BitCount = 144 ID = 271360064x
   3.551270 1  106B0040x       Rx   d 1 00  Length = 2308248 BitCount = 81 ID = 275447872x
   3.568228 1  10264040x       Rx   d 8 04 06 00 00 00 00 00 29  Length = 4228208 BitCount = 145 ID = 270942272x
   3.578402 1  10210040x       Rx   d 8 00 00 00 00 00 00 00 00  Length = 4288208 BitCount = 147 ID = 270598208x
   3.588335 1  10220040x       Rx   d 8 10 00 00 00 00 04 00 00  Length = 4318223 BitCount = 148 ID = 270663744x
   3.594129 1  624             Rx   d 8 00 20 00 00 00 00 00 00  Length = 3628231 BitCount = 125 ID = 1572
   3.598568 1  1022E040x       Rx   d 8 00 00 00 00 00 00 00 00  Length = 4314558 BitCount = 148 ID = 270721088x
   3.608324 1  10230040x       Rx   d 8 10 00 00 00 10 00 00 00  Length = 4258208 BitCount = 146 ID = 270729280x
   3.628192 1  1022A040x       Rx   d 8 00 B0 00 12 42 00 00 22  Length = 4138223 BitCount = 142 ID = 270704704x
   3.632698 1  1022C040x       Rx   d 6 00 10 00 20 00 00  Length = 3688216 BitCount = 127 ID = 270712896x
   3.638223 1  10240040x       Rx   d 8 83 FE 88 01 01 13 00 00  Length = 4198208 BitCount = 144 ID = 270794816x
   3.642907 1  10448060x       Rx   d 4 00 00 45 00  Length = 3058228 BitCount = 106 ID = 272924768x
   3.647891 1  10248040x       Rx   d 7 00 00 6D D4 CC 06 00  Length = 3898212 BitCount = 134 ID = 270827584x
   3.653229 1  102CA040x       Rx   d 8 00 40 0C B6 2C 00 F1 00  Length = 4134581 BitCount = 142 ID = 271360064x
   3.658124 1  102CC040x       Rx   d 8 00 09 CF 6A 00 87 06 AB  Length = 4078212 BitCount = 140 ID = 271368256x
   3.668238 1  10264040x       Rx   d 8 04 06 00 00 00 00 00 3E  Length = 4228223 BitCount = 145 ID = 270942272x
   3.673131 1  102CE040x       Rx   d 8 90 00 6B 7F 00 00 26 AA  Length = 4078212 BitCount = 140 ID = 271376448x
   3.678323 1  10210040x       Rx   d 8 00 00 00 00 00 00 00 00  Length = 4288208 BitCount = 147 ID = 270598208x
   3.681294 1  106B0040x       Rx   d 1 00  Length = 2308248 BitCount = 81 ID = 275447872x
   3.688349 1  10220040x       Rx   d 8 10 00 00 00 00 06 00 00  Length = 4288208 BitCount = 147 ID = 270663744x
   3.698255 1  1022E040x       Rx   d 8 20 00 00 00 20 00 00 00  Length = 4288223 BitCount = 147 ID = 270721088x
   3.703358 1  10780040x       Rx   d 8 00 00 01 04 08 00 00 22  Length = 4288208 BitCount = 147 ID = 276299840x
   3.707650 1  C800040x        Rx   d 6 08 CB 00 00 49 A3  Length = 3598231 BitCount = 124 ID = 209715264x
   3.713261 1  10230040x       Rx   d 8 30 00 00 00 30 00 00 00  Length = 4258208 BitCount = 146 ID = 270729280x
   3.728209 1  10240040x       Rx   d 8 83 FE 88 01 01 13 0F FC  Length = 4168223 BitCount = 143 ID = 270794816x
   3.733372 1  106B8040x       Rx   d 8 00 00 00 00 00 00 00 00  Length = 4318208 BitCount = 148 ID = 275480640x
   3.737303 1  102C0040x       Rx   d 5 AE EF 44 59 03  Length = 3298239 BitCount = 114 ID = 271319104x
   3.748260 1  102CA040x       Rx   d 8 00 40 0C BB 2C 00 F1 00  Length = 4168208 BitCount = 143 ID = 271360064x
   3.752758 1  10306099x       Rx   d 3 44 59 01  Length = 2754657 BitCount = 96 ID = 271605913x
   3.757592 1  621             Rx   d 8 00 52 00 00 00 00 00 00  Length = 3598216 BitCount = 124 ID = 1569
   3.760440 1  10304058x       Rx   d 3 44 59 01  Length = 2724657 BitCount = 95 ID = 271597656x
   3.763354 1  10308060x       Rx   d 3 44 59 01  Length = 2788236 BitCount = 97 ID = 271614048x
   3.768276 1  10264040x       Rx   d 8 04 06 00 00 00 00 00 3B  Length = 4228208 BitCount = 145 ID = 270942272x
   3.773350 1  1043A040x       Rx   d 8 00 00 35 00 00 00 00 00  Length = 4288208 BitCount = 147 ID = 272867392x
   3.778363 1  10210040x       Rx   d 8 00 00 00 00 00 00 00 00  Length = 4288208 BitCount = 147 ID = 270598208x
   3.783074 1  1080A040x       Rx   d 7 00 00 00 00 00 00 00  Length = 4018212 BitCount = 138 ID = 276865088x
   3.786764 1  631             Rx   d 8 00 40 00 00 00 00 00 00  Length = 3564590 BitCount = 123 ID = 1585
   3.791174 1  10220040x       Rx   d 8 10 00 00 00 00 05 00 00  Length = 4284573 BitCount = 147 ID = 270663744x
   3.798349 1  1022E040x       Rx   d 8 00 00 00 00 00 00 00 00  Length = 4318223 BitCount = 148 ID = 270721088x
   3.801323 1  106B0040x       Rx   d 1 00  Length = 2308263 BitCount = 81 ID = 275447872x
   3.808378 1  10230040x       Rx   d 8 10 00 00 00 10 00 00 00  Length = 4258208 BitCount = 146 ID = 270729280x
   3.813422 1  62C             Rx   d 8 00 40 00 00 00 00 00 00  Length = 3628231 BitCount = 125 ID = 1580
   3.828243 1  10240040x       Rx   d 8 83 FE 88 01 01 13 00 00  Length = 4194562 BitCount = 144 ID = 270794816x
   3.848292 1  102CA040x       Rx   d 8 00 40 0C A9 30 00 F1 00  Length = 4168208 BitCount = 143 ID = 271360064x
   3.868281 1  10264040x       Rx   d 8 04 06 00 00 00 00 00 3B  Length = 4228208 BitCount = 145 ID = 270942272x
   3.878367 1  10210040x       Rx   d 8 00 00 00 00 00 00 00 00  Length = 4288223 BitCount = 147 ID = 270598208x
   3.883230 1  1022A040x       Rx   d 8 00 B0 00 12 42 00 00 22  Length = 4138208 BitCount = 142 ID = 270704704x
   3.888390 1  10220040x       Rx   d 8 10 00 00 00 00 09 00 00  Length = 4284562 BitCount = 147 ID = 270663744x
   3.892745 1  1022C040x       Rx   d 6 00 10 00 20 00 00  Length = 3688231 BitCount = 127 ID = 270712896x
   3.896467 1  10734099x       Rx   d 6 24 44 00 7D 00 00  Length = 3598216 BitCount = 124 ID = 275988633x
   3.900875 1  1022E040x       Rx   d 8 20 00 00 00 20 00 00 00  Length = 4284573 BitCount = 147 ID = 270721088x
   3.908380 1  10230040x       Rx   d 8 30 00 00 00 30 00 00 00  Length = 4258223 BitCount = 146 ID = 270729280x
   3.911650 1  10250040x       Rx   d 2 00 03  Length = 2604654 BitCount = 91 ID = 270860352x
   3.918195 1  102CC040x       Rx   d 8 00 09 CF 6A 00 87 06 AE  Length = 4048212 BitCount = 139 ID = 271368256x
   3.923208 1  102CE040x       Rx   d 8 90 00 6B 7F 00 00 26 AA  Length = 4078212 BitCount = 140 ID = 271376448x
   3.928397 1  10240040x       Rx   d 8 83 FF 88 01 01 13 0F FC  Length = 4194577 BitCount = 144 ID = 270794816x
   3.933262 1  102D0040x       Rx   d 8 01 69 01 ED 7C 8C 00 FF  Length = 4168208 BitCount = 143 ID = 271384640x
   3.938272 1  102E0040x       Rx   d 8 00 33 CA 70 8A 00 62 81  Length = 4104566 BitCount = 141 ID = 271450176x
   3.941367 1  106B0040x       Rx   d 1 00  Length = 2308248 BitCount = 81 ID = 275447872x
   3.948326 1  102CA040x       Rx   d 8 00 40 0C A9 30 00 F1 00  Length = 4164581 BitCount = 143 ID = 271360064x
   3.953431 1  106B8040x       Rx   d 8 00 00 00 00 00 00 00 00  Length = 4318208 BitCount = 148 ID = 275480640x
   3.957778 1  C800040x        Rx   d 6 08 CB 00 00 49 A6  Length = 3624586 BitCount = 125 ID = 209715264x
   3.962523 1  106C0040x       Rx   d 5 00 06 0F 07 00  Length = 3448235 BitCount = 119 ID = 275513408x
   3.968317 1  10264040x       Rx   d 8 04 06 00 00 00 00 00 28  Length = 4198208 BitCount = 144 ID = 270942272x
   3.972220 1  1077C040x       Rx   d 4 30 30 01 F4  Length = 3148224 BitCount = 109 ID = 276283456x
   3.978399 1  10210040x       Rx   d 8 00 00 00 00 00 00 00 00  Length = 4284562 BitCount = 147 ID = 270598208x
   3.983444 1  10780040x       Rx   d 8 00 00 01 04 08 00 00 22  Length = 4288208 BitCount = 147 ID = 276299840x
   3.988425 1  10220040x       Rx   d 8 10 00 00 00 00 06 00 00  Length = 4288208 BitCount = 147 ID = 270663744x
   3.992869 1  10788040x       Rx   d 6 08 00 00 00 00 00  Length = 3778216 BitCount = 130 ID = 276332608x
   3.998394 1  1022E040x       Rx   d 8 00 00 00 00 00 00 00 00  Length = 4318208 BitCount = 148 ID = 270721088x
   4.002394 Li SleepModeEvent 0 entering sleep mode due to bus idle timeout
   4.002535 1  10806040x       Rx   d 5 00 00 00 00 19  Length = 3414598 BitCount = 118 ID = 276848704x
   4.005535 1  Statistic: D 4 R 0 XD 147 XR 0 E 0 O 0 B 59.87%
   4.005535 2  Statistic: D 0 R 0 XD 0 XR 0 E 0 O 0 B 0.00%
   4.005535 3  Statistic: D 0 R 0 XD 0 XR 0 E 0 O 0 B 0.00%
   4.008330 1  10230040x       Rx   d 8 10 00 00 00 10 00 00 00  Length = 4258208 BitCount = 146 ID = 270729280x
   4.013579 1  10734099x       Rx   d 6 24 43 00 7D 00 00  Length = 3534590 BitCount = 122 ID = 275988633x
   4.018415 1  1043A040x       Rx   d 8 00 00 3C 00 00 00 00 00  Length = 4288223 BitCount = 147 ID = 272867392x
   4.028289 1  10240040x       Rx   d 8 83 FE 88 01 01 13 0F FC  Length = 4168223 BitCount = 143 ID = 270794816x
   4.032098 1  10324058x       Rx   d 6 00 00 03 FF 00 00  Length = 3684586 BitCount = 127 ID = 271728728x
   4.034857 1  13FFE058x       Rx   d 0  Length = 2094710 BitCount = 74 ID = 335536216x
   4.038280 1  102C0040x       Rx   d 5 AE EF 44 59 03  Length = 3298224 BitCount = 114 ID = 271319104x
   4.048274 1  102CA040x       Rx   d 8 00 40 0C 8F 31 00 F1 00  Length = 4108212 BitCount = 141 ID = 271360064x
   4.052772 1  10306099x       Rx   d 3 44 59 01  Length = 2754642 BitCount = 96 ID = 271605913x
   4.056586 1  1064A040x       Rx   d 2 2E 2D  Length = 2518240 BitCount = 88 ID = 275030080x
   4.061392 1  106B0040x       Rx   d 1 00  Length = 2308248 BitCount = 81 ID = 275447872x
   4.063613 1  13FFE060x       Rx   d 0  Length = 2098271 BitCount = 74 ID = 335536224x
   4.065807 1  13FFE080x       Rx   d 0  Length = 2068260 BitCount = 73 ID = 335536256x
   4.070185 1  10264040x       Rx   d 8 04 06 00 00 00 00 00 3F  Length = 4254562 BitCount = 146 ID = 270942272x
   4.073035 1  10304058x       Rx   d 3 44 59 01  Length = 2724642 BitCount = 95 ID = 271597656x
   4.075229 1  13FFE0AFx       Rx   d 0  Length = 2068260 BitCount = 73 ID = 335536303x
   4.079638 1  10210040x       Rx   d 8 00 00 00 00 00 00 00 00  Length = 4284573 BitCount = 147 ID = 270598208x
   4.082702 1  10308060x       Rx   d 3 44 59 01  Length = 2788236 BitCount = 97 ID = 271614048x
   4.084896 1  13FFE099x       Rx   d 0  Length = 2068260 BitCount = 73 ID = 335536281x
   4.089334 1  10220040x       Rx   d 8 10 00 00 00 00 04 00 00  Length = 4314558 BitCount = 148 ID = 270663744x
   4.098430 1  1022E040x       Rx   d 8 20 00 00 00 20 00 00 00  Length = 4288208 BitCount = 147 ID = 270721088x
   4.108394 1  10230040x       Rx   d 8 30 00 00 00 30 00 00 00  Length = 4258208 BitCount = 146 ID = 270729280x
   4.128378 1  1022A040x       Rx   d 8 00 B0 00 12 42 00 00 22  Length = 4134566 BitCount = 142 ID = 270704704x
   4.132792 1  1022C040x       Rx   d 6 00 10 00 20 00 00  Length = 3688216 BitCount = 127 ID = 270712896x
   4.138348 1  10240040x       Rx   d 8 83 FF 88 01 01 13 0F FC  Length = 4198208 BitCount = 144 ID = 270794816x
   4.143451 1  106B8040x       Rx   d 8 00 00 00 00 00 00 00 00  Length = 4318223 BitCount = 148 ID = 275480640x
   4.148044 1  10248040x       Rx   d 7 00 00 6D D4 CC 06 00  Length = 3898212 BitCount = 134 ID = 270827584x
   4.153264 1  102CA040x       Rx   d 8 00 40 0C 8B 31 00 F1 00  Length = 4074566 BitCount = 140 ID = 271360064x
   4.158248 1  102CC040x       Rx   d 8 00 09 CF 6A 00 87 06 AE  Length = 4048212 BitCount = 139 ID = 271368256x
   4.161162 1  13FFE040x       Rx   d 0  Length = 2068260 BitCount = 73 ID = 335536192x
   4.168395 1  10264040x       Rx   d 8 04 06 00 00 00 00 00 41  Length = 4228208 BitCount = 145 ID = 270942272x
   4.173260 1  102CE040x       Rx   d 8 90 00 6B 7F 00 00 26 AB  Length = 4078212 BitCount = 140 ID = 271376448x
   4.178450 1  10210040x       Rx   d 8 00 00 00 00 00 00 00 00  Length = 4284562 BitCount = 147 ID = 270598208x
   4.181425 1  106B0040x       Rx   d 1 00  Length = 2308248 BitCount = 81 ID = 275447872x
   4.188474 1  10220040x       Rx   d 8 10 00 00 00 00 03 00 00  Length = 4314558 BitCount = 148 ID = 270663744x
   4.198410 1  1022E040x       Rx   d 8 00 00 00 00 00 00 00 00  Length = 4318208 BitCount = 148 ID = 270721088x
   4.203483 1  10780040x       Rx   d 8 00 00 01 04 08 00 00 22  Length = 4288208 BitCount = 147 ID = 276299840x
   4.207801 1  C800040x        Rx   d 6 08 CB 00 00 49 A9  Length = 3624586 BitCount = 125 ID = 209715264x
   4.213416 1  10230040x       Rx   d 8 10 00 00 00 10 00 00 00  Length = 4258208 BitCount = 146 ID = 270729280x
   4.217135 1  10734099x       Rx   d 6 24 44 00 7D 00 00  Length = 3594590 BitCount = 124 ID = 275988633x
   4.224245 1  108E0080x       Rx   d 6 0E 01 17 02 07 5D  Length = 3594601 BitCount = 124 ID = 277741696x
   4.228565 1  10240040x       Rx   d 8 83 FF 88 01 01 13 0F FC  Length = 4194562 BitCount = 144 ID = 270794816x
   4.248374 1  102CA040x       Rx   d 8 00 40 0C 82 31 00 F1 00  Length = 4138208 BitCount = 142 ID = 271360064x
   4.268355 1  10264040x       Rx   d 8 04 06 00 00 00 00 00 2B  Length = 4194562 BitCount = 144 ID = 270942272x
   4.273486 1  1043A040x       Rx   d 8 00 00 3E 00 00 00 00 00  Length = 4314573 BitCount = 148 ID = 272867392x
   4.278621 1  10210040x       Rx   d 8 00 00 00 00 00 00 00 00  Length = 4288223 BitCount = 147 ID = 270598208x
   4.288464 1  10220040x       Rx   d 8 10 00 00 00 00 05 00 00  Length = 4288208 BitCount = 147 ID = 270663744x
   4.298430 1  1022E040x       Rx   d 8 20 00 00 00 20 00 00 00  Length = 4288208 BitCount = 147 ID = 270721088x
   4.301613 1  1064A040x       Rx   d 2 2B 2D  Length = 2488244 BitCount = 87 ID = 275030080x
   4.308453 1  10230040x       Rx   d 8 30 00 00 00 30 00 00 00  Length = 4254562 BitCount = 146 ID = 270729280x
   4.311458 1  106B0040x       Rx   d 1 00  Length = 2308263 BitCount = 81 ID = 275447872x
   4.328383 1  10240040x       Rx   d 8 83 FF 88 01 01 13 0F FC  Length = 4198208 BitCount = 144 ID = 270794816x
   4.333517 1  106B8040x       Rx   d 8 00 00 00 00 00 00 00 00  Length = 4318208 BitCount = 148 ID = 275480640x
   4.337478 1  102C0040x       Rx   d 5 AE EF 44 59 03  Length = 3298239 BitCount = 114 ID = 271319104x
   4.348342 1  102CA040x       Rx   d 8 00 40 0C 84 31 00 F1 00  Length = 4078227 BitCount = 140 ID = 271360064x
   4.352755 1  10306099x       Rx   d 3 44 59 01  Length = 2758236 BitCount = 96 ID = 271605913x
   4.357401 1  10304058x       Rx   d 3 44 59 01  Length = 2724642 BitCount = 95 ID = 271597656x
   4.362592 1  10308060x       Rx   d 3 44 59 01  Length = 2784638 BitCount = 97 ID = 271614048x
   4.368417 1  10264040x       Rx   d 8 04 06 00 00 00 00 00 42  Length = 4228223 BitCount = 145 ID = 270942272x
   4.378471 1  10210040x       Rx   d 8 00 00 00 00 00 00 00 00  Length = 4288208 BitCount = 147 ID = 270598208x
   4.383363 1  1022A040x       Rx   d 8 00 B0 00 12 42 00 00 22  Length = 4138208 BitCount = 142 ID = 270704704x
   4.388496 1  10220040x       Rx   d 8 10 00 00 00 00 06 00 00  Length = 4288208 BitCount = 147 ID = 270663744x
   4.392877 1  1022C040x       Rx   d 6 00 10 00 20 00 00  Length = 3688216 BitCount = 127 ID = 270712896x
   4.396594 1  10734099x       Rx   d 6 24 44 00 7D 00 00  Length = 3594590 BitCount = 124 ID = 275988633x
   4.401039 1  1022E040x       Rx   d 8 00 00 00 00 00 00 00 00  Length = 4318208 BitCount = 148 ID = 270721088x
   4.408425 1  10230040x       Rx   d 8 10 00 00 00 10 00 00 00  Length = 4258208 BitCount = 146 ID = 270729280x
   4.413288 1  102CC040x       Rx   d 8 00 09 CF 6A 00 87 06 AE  Length = 4048212 BitCount = 139 ID = 271368256x
   4.418327 1  102CE040x       Rx   d 8 90 00 6B 7F 00 00 26 AB  Length = 4074566 BitCount = 140 ID = 271376448x
   4.423402 1  102D0040x       Rx   d 8 01 69 01 ED 7C 90 00 FF  Length = 4108212 BitCount = 141 ID = 271384640x
   4.428383 1  10240040x       Rx   d 8 83 FE 88 01 01 13 0F FC  Length = 4168208 BitCount = 143 ID = 270794816x
   4.431477 1  106B0040x       Rx   d 1 00  Length = 2308248 BitCount = 81 ID = 275447872x
   4.437626 1  10806040x       Rx   d 5 00 00 00 00 19  Length = 3414598 BitCount = 118 ID = 276848704x
   4.439820 1  13FFE068x       Rx   d 0  Length = 2068260 BitCount = 73 ID = 335536232x
   4.443210 1  106D0080x       Rx   d 2 00 00  Length = 2574669 BitCount = 90 ID = 275579008x
   4.448341 1  102CA040x       Rx   d 8 00 40 0C B3 31 00 F1 00  Length = 4074566 BitCount = 140 ID = 271360064x
   4.453622 1  10780040x       Rx   d 8 00 00 01 04 08 00 00 22  Length = 4284562 BitCount = 147 ID = 276299840x
   4.457827 1  C800040x        Rx   d 6 08 CB 00 00 49 AD  Length = 3598216 BitCount = 124 ID = 209715264x
   4.463044 1  10788040x       Rx   d 6 08 00 00 00 00 00  Length = 3774582 BitCount = 130 ID = 276332608x
   4.468445 1  10264040x       Rx   d 8 04 06 00 00 00 00 00 43  Length = 4224562 BitCount = 145 ID = 270942272x
   4.478500 1  10210040x       Rx   d 8 00 00 00 00 00 00 00 00  Length = 4288208 BitCount = 147 ID = 270598208x
   4.488494 1  10220040x       Rx   d 8 10 00 00 00 00 05 00 00  Length = 4288208 BitCount = 147 ID = 270663744x
   4.498458 1  1022E040x       Rx   d 8 20 00 00 00 20 00 00 00  Length = 4288208 BitCount = 147 ID = 270721088x
   4.508455 1  10230040x       Rx   d 8 30 00 00 00 30 00 00 00  Length = 4258208 BitCount = 146 ID = 270729280x
   4.518509 1  1043A040x       Rx   d 8 00 00 3B 00 00 00 00 00  Length = 4288208 BitCount = 147 ID = 272867392x
   4.528444 1  10240040x       Rx   d 8 83 FF 88 01 01 13 0F FC  Length = 4198208 BitCount = 144 ID = 270794816x
   4.533543 1  106B8040x       Rx   d 8 00 00 00 00 00 00 00 00  Length = 4314558 BitCount = 148 ID = 275480640x
   4.548490 1  102CA040x       Rx   d 8 00 40 0C AA 31 00 F1 00  Length = 4078212 BitCount = 140 ID = 271360064x
   4.551496 1  106B0040x       Rx   d 1 00  Length = 2308248 BitCount = 81 ID = 275447872x
   4.568421 1  10264040x       Rx   d 8 04 06 00 00 00 00 00 2D  Length = 4198208 BitCount = 144 ID = 270942272x
   4.578536 1  10210040x       Rx   d 8 00 00 00 00 00 00 00 00  Length = 4288208 BitCount = 147 ID = 270598208x
   4.588530 1  10220040x       Rx   d 8 10 00 00 00 00 06 00 00  Length = 4288208 BitCount = 147 ID = 270663744x
   4.598525 1  1022E040x       Rx   d 8 00 00 00 00 00 00 00 00  Length = 4318223 BitCount = 148 ID = 270721088x
   4.608459 1  10230040x       Rx   d 8 10 00 00 00 10 00 00 00  Length = 4258208 BitCount = 146 ID = 270729280x
   4.628412 1  1022A040x       Rx   d 8 00 B0 00 12 42 00 00 22  Length = 4134566 BitCount = 142 ID = 270704704x
   4.632947 1  1022C040x       Rx   d 6 00 10 00 20 00 00  Length = 3688231 BitCount = 127 ID = 270712896x
   4.638442 1  10240040x       Rx   d 8 83 FE 88 01 01 13 0F FC  Length = 4168223 BitCount = 143 ID = 270794816x
   4.642525 1  102C0040x       Rx   d 5 AE EF 44 59 03  Length = 3298224 BitCount = 114 ID = 271319104x
   4.645708 1  10448060x       Rx   d 4 00 00 45 00  Length = 3058228 BitCount = 106 ID = 272924768x
   4.649731 1  10248040x       Rx   d 7 00 00 6C D4 CC F9 00  Length = 3898212 BitCount = 134 ID = 270827584x
   4.658405 1  102CA040x       Rx   d 8 00 40 0C BC 31 00 F1 00  Length = 4078212 BitCount = 140 ID = 271360064x
   4.663567 1  102CC040x       Rx   d 8 00 09 CF 6A 00 87 06 AD  Length = 4044585 BitCount = 139 ID = 271368256x
   4.665540 CAN 1 Status:chip status error active  - TxErr: 0 RxErr: 1
   4.665547 1  ErrorFrame	Flags = 0xfffe	CodeExt = 0x2072	Code = 0x81	ID = 0x93ffe0bb	DLC = 0	Position = 56	Length = 1854375
   4.670042 CAN 1 Status:chip status error active
   4.670260 1  10264040x       Rx   d 8 04 06 00 00 00 00 00 45  Length = 4198208 BitCount = 144 ID = 270942272x
   4.673109 1  10304058x       Rx   d 3 44 59 01  Length = 2724642 BitCount = 95 ID = 271597656x
   4.675270 1  13FFE0BBx       Rx   d 0  Length = 2034718 BitCount = 72 ID = 335536315x
   4.679682 1  10210040x       Rx   d 8 00 00 00 00 00 00 00 00  Length = 4288208 BitCount = 147 ID = 270598208x
   4.682687 1  10308060x       Rx   d 3 44 59 01  Length = 2788236 BitCount = 97 ID = 271614048x
   4.688570 1  10220040x       Rx   d 8 10 00 00 00 00 06 00 00  Length = 4288223 BitCount = 147 ID = 270663744x
   4.693403 1  102CE040x       Rx   d 8 90 00 6B 7F 00 00 26 AB  Length = 4078227 BitCount = 140 ID = 271376448x
   4.698533 1  1022E040x       Rx   d 8 20 00 00 00 20 00 00 00  Length = 4284562 BitCount = 147 ID = 270721088x
   4.701628 1  106B0040x       Rx   d 1 00  Length = 2308248 BitCount = 81 ID = 275447872x
   4.704506 1  10306099x       Rx   d 3 44 59 01  Length = 2754642 BitCount = 96 ID = 271605913x
   4.708289 1  C800040x        Rx   d 6 08 CB 00 00 49 B0  Length = 3658231 BitCount = 126 ID = 209715264x
   4.713512 1  10230040x       Rx   d 8 30 00 00 00 30 00 00 00  Length = 4258208 BitCount = 146 ID = 270729280x
   4.718613 1  10780040x       Rx   d 8 00 00 01 04 08 00 00 22  Length = 4288208 BitCount = 147 ID = 276299840x
   4.728488 1  10240040x       Rx   d 8 83 FF 88 01 01 13 0F FC  Length = 4198208 BitCount = 144 ID = 270794816x
   4.733797 1  106B8040x       Rx   d 8 00 00 00 00 00 00 00 00  Length = 4314558 BitCount = 148 ID = 275480640x
   4.748535 1  102CA040x       Rx   d 8 00 40 0C A8 31 00 F1 00  Length = 4108212 BitCount = 141 ID = 271360064x
   4.757811 1  621             Rx   d 8 00 52 00 00 00 00 00 00  Length = 3598216 BitCount = 124 ID = 1569
   4.768496 1  10264040x       Rx   d 8 04 06 00 00 00 00 00 46  Length = 4198208 BitCount = 144 ID = 270942272x
   4.773629 1  1043A040x       Rx   d 8 00 00 3A 00 00 00 00 00  Length = 4288208 BitCount = 147 ID = 272867392x
   4.778610 1  10210040x       Rx   d 8 00 00 00 00 00 00 00 00  Length = 4288208 BitCount = 147 ID = 270598208x
   4.783293 1  1080A040x       Rx   d 7 00 00 00 00 00 00 00  Length = 4018212 BitCount = 138 ID = 276865088x
   4.788573 1  10220040x       Rx   d 8 10 00 00 00 00 06 00 00  Length = 4284562 BitCount = 147 ID = 270663744x
   4.798569 1  1022E040x       Rx   d 8 00 00 00 00 00 00 00 00  Length = 4318208 BitCount = 148 ID = 270721088x
   4.808533 1  10230040x       Rx   d 8 10 00 00 00 10 00 00 00  Length = 4258208 BitCount = 146 ID = 270729280x
   4.816548 1  106B0040x       Rx   d 1 00  Length = 2308248 BitCount = 81 ID = 275447872x
   4.828464 1  10240040x       Rx   d 8 83 FE 88 01 01 13 0F FC  Length = 4168223 BitCount = 143 ID = 270794816x
   4.848230 CAN 1 Status:chip status error active  - TxErr: 0 RxErr: 1
   4.848237 1  ErrorFrame	Flags = 0xfffe	CodeExt = 0x2072	Code = 0x81	ID = 0x902ca040	DLC = 8	Position = 120	Length = 3894375	Data = 0  0x40  0xc  0xba  0x31  0  0xf1  0
   4.852609 CAN 1 Status:chip status error active
   4.852826 1  102CA040x       Rx   d 8 00 40 0C BA 31 00 F1 00  Length = 4074566 BitCount = 140 ID = 271360064x
   4.868520 1  10264040x       Rx   d 8 04 06 00 00 00 00 00 2E  Length = 4224562 BitCount = 145 ID = 270942272x
   4.878606 1  10210040x       Rx   d 8 00 00 00 00 00 00 00 00  Length = 4288208 BitCount = 147 ID = 270598208x
   4.883467 1  1022A040x       Rx   d 8 00 B0 00 12 42 00 00 22  Length = 4138208 BitCount = 142 ID = 270704704x
   4.888661 1  10220040x       Rx   d 8 10 00 00 00 00 04 00 00  Length = 4318223 BitCount = 148 ID = 270663744x
   4.892982 1  1022C040x       Rx   d 6 00 10 00 20 00 00  Length = 3688216 BitCount = 127 ID = 270712896x
   4.896704 1  10734099x       Rx   d 6 24 44 00 7D 00 00  Length = 3598216 BitCount = 124 ID = 275988633x
   4.901114 1  1022E040x       Rx   d 8 20 00 00 00 20 00 00 00  Length = 4284562 BitCount = 147 ID = 270721088x
   4.908559 1  10230040x       Rx   d 8 30 00 00 00 30 00 00 00  Length = 4258223 BitCount = 146 ID = 270729280x
   4.912103 1  10250040x       Rx   d 2 00 03  Length = 2608240 BitCount = 91 ID = 270860352x
   4.918438 1  102CC040x       Rx   d 8 00 09 CF 6A 00 87 06 AB  Length = 4078227 BitCount = 140 ID = 271368256x
   4.923451 1  102CE040x       Rx   d 8 90 00 6B 7F 00 00 26 AB  Length = 4078212 BitCount = 140 ID = 271376448x
   4.928524 1  10240040x       Rx   d 8 83 FE 88 01 01 13 0F FC  Length = 4168208 BitCount = 143 ID = 270794816x
   4.933716 1  102D0040x       Rx   d 8 01 69 01 ED 7C 92 00 FF  Length = 4078227 BitCount = 140 ID = 271384640x
   4.937587 1  102C0040x       Rx   d 5 AE EF 44 59 03  Length = 3298224 BitCount = 114 ID = 271319104x
   4.943498 1  102E0040x       Rx   d 8 00 33 CA 70 8A 00 62 81  Length = 4104581 BitCount = 141 ID = 271450176x
   4.948543 1  102CA040x       Rx   d 8 00 40 0C BF 31 00 F1 00  Length = 4138208 BitCount = 142 ID = 271360064x
   4.952774 1  10466040x       Rx   d 5 00 00 00 00 00  Length = 3448220 BitCount = 119 ID = 273047616x
   4.955652 1  10306099x       Rx   d 3 44 59 01  Length = 2754642 BitCount = 96 ID = 271605913x
   4.959376 1  C800040x        Rx   d 6 08 CB 00 00 49 B4  Length = 3598216 BitCount = 124 ID = 209715264x
   4.962590 1  10308060x       Rx   d 3 44 59 01  Length = 2788236 BitCount = 97 ID = 271614048x
   4.968532 1  10264040x       Rx   d 8 04 06 00 00 00 00 00 46  Length = 4198223 BitCount = 144 ID = 270942272x
   4.971380 1  10304058x       Rx   d 3 44 59 01  Length = 2724642 BitCount = 95 ID = 271597656x
   4.973810 1  106B0040x       Rx   d 1 00  Length = 2304686 BitCount = 81 ID = 275447872x
   4.978644 1  10210040x       Rx   d 8 00 00 00 00 00 00 00 00  Length = 4288208 BitCount = 147 ID = 270598208x
   4.983657 1  106B8040x       Rx   d 8 00 00 00 00 00 00 00 00  Length = 4318223 BitCount = 148 ID = 275480640x
   4.988697 1  10220040x       Rx   d 8 10 00 00 00 00 04 00 00  Length = 4314558 BitCount = 148 ID = 270663744x
   4.992752 1  106C0040x       Rx   d 5 00 06 0F 07 00  Length = 3448220 BitCount = 119 ID = 275513408x
   4.998665 1  1022E040x       Rx   d 8 00 00 00 00 00 00 00 00  Length = 4318208 BitCount = 148 ID = 270721088x
   5.002476 1  1077C040x       Rx   d 4 30 30 01 F4  Length = 3148224 BitCount = 109 ID = 276283456x
   5.005535 1  Statistic: D 1 R 0 XD 156 XR 0 E 2 O 0 B 61.27%
   5.005535 2  Statistic: D 0 R 0 XD 0 XR 0 E 0 O 0 B 0.00%
   5.005535 3  Statistic: D 0 R 0 XD 0 XR 0 E 0 O 0 B 0.00%
   5.008602 1  10230040x       Rx   d 8 10 00 00 00 10 00 00 00  Length = 4258223 BitCount = 146 ID = 270729280x
   5.013707 1  10780040x       Rx   d 8 00 00 01 04 08 00 00 22  Length = 4288223 BitCount = 147 ID = 276299840x
   5.018658 1  1043A040x       Rx   d 8 00 00 3C 00 00 00 00 00  Length = 4288208 BitCount = 147 ID = 272867392x
   5.023161 1  10788040x       Rx   d 6 08 00 00 00 00 00  Length = 3778216 BitCount = 130 ID = 276332608x
   5.028536 1  10240040x       Rx   d 8 83 FE 88 01 01 13 0F FC  Length = 4168223 BitCount = 143 ID = 270794816x
   5.032798 1  10806040x       Rx   d 5 00 00 00 00 19  Length = 3414598 BitCount = 118 ID = 276848704x
   5.048525 1  102CA040x       Rx   d 8 00 40 0C A3 31 00 F1 00  Length = 4108212 BitCount = 141 ID = 271360064x
   5.068544 1  10264040x       Rx   d 8 04 06 00 00 00 00 00 45  Length = 4198208 BitCount = 144 ID = 270942272x
   5.078661 1  10210040x       Rx   d 8 00 00 00 00 00 00 00 00  Length = 4288208 BitCount = 147 ID = 270598208x
   5.088685 1  10220040x       Rx   d 8 10 00 00 00 00 04 00 00  Length = 4318208 BitCount = 148 ID = 270663744x
   5.091628 1  106B0040x       Rx   d 1 00  Length = 2308248 BitCount = 81 ID = 275447872x
   5.098617 1  1022E040x       Rx   d 8 20 00 00 00 20 00 00 00  Length = 4284573 BitCount = 147 ID = 270721088x
   5.108584 1  10230040x       Rx   d 8 30 00 00 00 30 00 00 00  Length = 4258208 BitCount = 146 ID = 270729280x
   5.128537 1  1022A040x       Rx   d 8 00 B0 00 12 42 00 00 22  Length = 4134566 BitCount = 142 ID = 270704704x
   5.133042 1  1022C040x       Rx   d 6 00 10 00 20 00 00  Length = 3688216 BitCount = 127 ID = 270712896x
   5.138627 1  10240040x       Rx   d 8 83 FF 88 01 01 13 0F FC  Length = 4198208 BitCount = 144 ID = 270794816x
   5.143700 1  106B8040x       Rx   d 8 00 00 00 00 00 00 00 00  Length = 4318208 BitCount = 148 ID = 275480640x
   5.148261 1  10248040x       Rx   d 7 00 00 6C D4 CC 0D 00  Length = 3838212 BitCount = 132 ID = 270827584x
   5.153543 1  102CA040x       Rx   d 8 00 40 0C BC 31 00 F1 00  Length = 4074581 BitCount = 140 ID = 271360064x
   5.158468 1  102CC040x       Rx   d 8 00 09 CF 6A 00 87 06 AC  Length = 4048212 BitCount = 139 ID = 271368256x
   5.168580 1  10264040x       Rx   d 8 04 06 00 00 00 00 00 45  Length = 4198208 BitCount = 144 ID = 270942272x
   5.173503 1  102CE040x       Rx   d 8 90 00 6B 7F 00 00 26 AB  Length = 4078227 BitCount = 140 ID = 271376448x
   5.178655 CAN 1 Status:chip status error active  - TxErr: 0 RxErr: 1
   5.178663 1  ErrorFrame	Flags = 0xfffe	CodeExt = 0x2072	Code = 0x81	ID = 0x90210040	DLC = 8	Position = 120	Length = 4104375	Data = 0  0  0  0  0  0  0  0
   5.183244 CAN 1 Status:chip status error active
   5.183462 1  10210040x       Rx   d 8 00 00 00 00 00 00 00 00  Length = 4284562 BitCount = 147 ID = 270598208x
   5.188717 1  10220040x       Rx   d 8 10 00 00 00 00 08 00 00  Length = 4318208 BitCount = 148 ID = 270663744x
   5.198653 1  1022E040x       Rx   d 8 00 00 00 00 00 00 00 00  Length = 4318208 BitCount = 148 ID = 270721088x
   5.203726 1  10780040x       Rx   d 8 00 00 01 04 08 00 00 22  Length = 4288208 BitCount = 147 ID = 276299840x
   5.208078 1  C800040x        Rx   d 6 08 CB 00 00 49 B7  Length = 3658216 BitCount = 126 ID = 209715264x
   5.213629 1  10230040x       Rx   d 8 10 00 00 00 10 00 00 00  Length = 4258208 BitCount = 146 ID = 270729280x
   5.216724 1  106B0040x       Rx   d 1 00  Length = 2308248 BitCount = 81 ID = 275447872x
   5.224227 1  108E0080x       Rx   d 6 0E 01 17 02 07 5E  Length = 3598231 BitCount = 124 ID = 277741696x
   5.226450 1  13FFE058x       Rx   d 0  Length = 2098256 BitCount = 74 ID = 335536216x
   5.230739 1  10240040x       Rx   d 8 83 FE 88 01 01 13 0F FC  Length = 4164566 BitCount = 143 ID = 270794816x
   5.237675 1  102C0040x       Rx   d 5 AE EF 44 59 03  Length = 3298224 BitCount = 114 ID = 271319104x
   5.243350 1  10EC4040x       Rx   d 8 4C 41 5A 41 36 39 53 44  Length = 3958212 BitCount = 136 ID = 283918400x
   5.248630 1  102CA040x       Rx   d 8 00 40 0C B5 31 00 F1 00  Length = 4074581 BitCount = 140 ID = 271360064x
   5.253285 1  10EC8040x       Rx   d 8 48 42 37 30 31 34 39 36  Length = 3898212 BitCount = 134 ID = 283934784x
   5.256164 1  10306099x       Rx   d 3 44 59 01  Length = 2754642 BitCount = 96 ID = 271605913x
   5.261957 1  13FFE060x       Rx   d 0  Length = 2098271 BitCount = 74 ID = 335536224x
   5.264151 1  13FFE080x       Rx   d 0  Length = 2068260 BitCount = 73 ID = 335536256x
   5.267063 1  10304058x       Rx   d 3 44 59 01  Length = 2728236 BitCount = 95 ID = 271597656x
   5.271413 1  10264040x       Rx   d 8 04 06 00 00 00 00 00 2C  Length = 4224562 BitCount = 145 ID = 270942272x
   5.273608 1  13FFE0AFx       Rx   d 0  Length = 2068275 BitCount = 73 ID = 335536303x
   5.278741 1  10210040x       Rx   d 8 00 00 00 00 00 00 00 00  Length = 4288208 BitCount = 147 ID = 270598208x
   5.283722 1  1043A040x       Rx   d 8 00 00 3E 00 00 00 00 00  Length = 4318208 BitCount = 148 ID = 272867392x
   5.286634 1  10308060x       Rx   d 3 44 59 01  Length = 2788236 BitCount = 97 ID = 271614048x
   5.291047 1  10220040x       Rx   d 8 10 00 00 00 00 05 00 00  Length = 4288208 BitCount = 147 ID = 270663744x
   5.293239 1  13FFE099x       Rx   d 0  Length = 2068275 BitCount = 73 ID = 335536281x
   5.298671 1  1022E040x       Rx   d 8 20 00 00 00 20 00 00 00  Length = 4288208 BitCount = 147 ID = 270721088x
   5.308638 1  10230040x       Rx   d 8 30 00 00 00 30 00 00 00  Length = 4258208 BitCount = 146 ID = 270729280x
   5.328711 1  10240040x       Rx   d 8 83 FF 88 01 01 13 0F FC  Length = 4194562 BitCount = 144 ID = 270794816x
   5.331686 1  106B0040x       Rx   d 1 00  Length = 2308248 BitCount = 81 ID = 275447872x
   5.338769 1  106B8040x       Rx   d 8 00 00 00 00 00 00 00 00  Length = 4318208 BitCount = 148 ID = 275480640x
   5.341444 1  13FFE040x       Rx   d 0  Length = 2068260 BitCount = 73 ID = 335536192x
   5.348589 1  102CA040x       Rx   d 8 00 40 0C AF 31 00 F1 00  Length = 4108212 BitCount = 141 ID = 271360064x
   5.368635 1  10264040x       Rx   d 8 04 06 00 00 00 00 00 43  Length = 4224577 BitCount = 145 ID = 270942272x
   5.378749 1  10210040x       Rx   d 8 00 00 00 00 00 00 00 00  Length = 4288208 BitCount = 147 ID = 270598208x
   5.383612 1  1022A040x       Rx   d 8 00 B0 00 12 42 00 00 22  Length = 4138208 BitCount = 142 ID = 270704704x
   5.388801 1  10220040x       Rx   d 8 10 00 00 00 00 06 00 00  Length = 4284562 BitCount = 147 ID = 270663744x
   5.393123 1  1022C040x       Rx   d 6 00 10 00 20 00 00  Length = 3684586 BitCount = 127 ID = 270712896x
   5.396848 1  10734099x       Rx   d 6 24 44 00 7D 00 00  Length = 3598216 BitCount = 124 ID = 275988633x
   5.401290 1  1022E040x       Rx   d 8 00 00 00 00 00 00 00 00  Length = 4318223 BitCount = 148 ID = 270721088x
   5.408762 1  10230040x       Rx   d 8 10 00 00 00 10 00 00 00  Length = 4258208 BitCount = 146 ID = 270729280x
   5.413535 1  102CC040x       Rx   d 8 00 09 CF 6A 00 87 06 AC  Length = 4048212 BitCount = 139 ID = 271368256x
   5.418639 1  102CE040x       Rx   d 8 90 00 6B 7F 00 00 26 AB  Length = 4078212 BitCount = 140 ID = 271376448x
   5.423562 1  102D0040x       Rx   d 8 01 69 01 ED 7C 91 00 FF  Length = 4108212 BitCount = 141 ID = 271384640x
   5.428633 1  10240040x       Rx   d 8 83 FE 88 01 01 13 0F FC  Length = 4168208 BitCount = 143 ID = 270794816x
   5.437847 1  10806040x       Rx   d 5 00 00 00 00 19  Length = 3418220 BitCount = 118 ID = 276848704x
   5.448592 1  102CA040x       Rx   d 8 00 40 0C AE 31 00 F1 00  Length = 4078212 BitCount = 140 ID = 271360064x
   5.451715 1  106B0040x       Rx   d 1 00  Length = 2308248 BitCount = 81 ID = 275447872x
   5.458078 1  C800040x        Rx   d 6 08 CB 00 00 49 BB  Length = 3598216 BitCount = 124 ID = 209715264x
   5.463811 1  10780040x       Rx   d 8 00 00 01 04 08 00 00 22  Length = 4288208 BitCount = 147 ID = 276299840x
   5.466245 1  10244060x       Rx   d 1 02  Length = 2308248 BitCount = 81 ID = 270811232x
   5.470593 1  10264040x       Rx   d 8 04 06 00 00 00 00 00 42  Length = 4224577 BitCount = 145 ID = 270942272x
   5.478789 1  10210040x       Rx   d 8 00 00 00 00 00 00 00 00  Length = 4288208 BitCount = 147 ID = 270598208x
   5.483228 1  10788040x       Rx   d 6 08 00 00 00 00 00  Length = 3774582 BitCount = 130 ID = 276332608x
   5.486351 1  10814099x       Rx   d 4 20 44 30 00  Length = 2998228 BitCount = 104 ID = 276906137x
   5.490764 1  10220040x       Rx   d 8 10 00 00 00 00 06 00 00  Length = 4288208 BitCount = 147 ID = 270663744x
   5.498742 1  1022E040x       Rx   d 8 20 00 00 00 20 00 00 00  Length = 4284562 BitCount = 147 ID = 270721088x
   5.508678 1  10230040x       Rx   d 8 30 00 00 00 30 00 00 00  Length = 4258208 BitCount = 146 ID = 270729280x
   5.518883 1  1043A040x       Rx   d 8 00 00 3A 00 00 00 00 00  Length = 4288208 BitCount = 147 ID = 272867392x
   5.528661 1  10240040x       Rx   d 8 83 FE 88 01 01 13 0F FC  Length = 4164566 BitCount = 143 ID = 270794816x
   5.533792 1  106B8040x       Rx   d 8 00 00 00 00 00 00 00 00  Length = 4314558 BitCount = 148 ID = 275480640x
   5.537757 1  102C0040x       Rx   d 5 AE EF 44 59 03  Length = 3298224 BitCount = 114 ID = 271319104x
   5.548622 1  102CA040x       Rx   d 8 00 40 0C A5 31 00 F1 00  Length = 4108212 BitCount = 141 ID = 271360064x
   5.552765 1  10306099x       Rx   d 3 44 59 01  Length = 2758236 BitCount = 96 ID = 271605913x
   5.562573 1  10308060x       Rx   d 3 44 59 01  Length = 2784638 BitCount = 97 ID = 271614048x
   5.566986 1  10304058x       Rx   d 3 44 59 01  Length = 2728236 BitCount = 95 ID = 271597656x
   5.571334 1  10264040x       Rx   d 8 04 06 00 00 00 00 00 2C  Length = 4224562 BitCount = 145 ID = 270942272x
   5.578809 1  10210040x       Rx   d 8 00 00 00 00 00 00 00 00  Length = 4288208 BitCount = 147 ID = 270598208x
   5.581752 1  106B0040x       Rx   d 1 00  Length = 2308263 BitCount = 81 ID = 275447872x
   5.588832 1  10220040x       Rx   d 8 10 00 00 00 00 08 00 00  Length = 4314558 BitCount = 148 ID = 270663744x
   5.598768 1  1022E040x       Rx   d 8 00 00 00 00 00 00 00 00  Length = 4318208 BitCount = 148 ID = 270721088x
   5.608702 1  10230040x       Rx   d 8 10 00 00 00 10 00 00 00  Length = 4258208 BitCount = 146 ID = 270729280x
   5.628745 1  1022A040x       Rx   d 8 00 B0 00 12 42 00 00 22  Length = 4134566 BitCount = 142 ID = 270704704x
   5.633160 1  1022C040x       Rx   d 6 00 10 00 20 00 00  Length = 3688216 BitCount = 127 ID = 270712896x
   5.638685 1  10240040x       Rx   d 8 83 FE 88 01 01 13 0F FC  Length = 4168208 BitCount = 143 ID = 270794816x
   5.640881 1  13FFE068x       Rx   d 0  Length = 2068275 BitCount = 73 ID = 335536232x
   5.644062 1  10448060x       Rx   d 4 00 00 45 00  Length = 3058228 BitCount = 106 ID = 272924768x
   5.646765 1  106D0080x       Rx   d 2 00 00  Length = 2578240 BitCount = 90 ID = 275579008x
   5.649198 1  10242040x       Rx   d 1 02  Length = 2308248 BitCount = 81 ID = 270803008x
   5.653371 1  10248040x       Rx   d 7 00 00 6C D4 CC 08 00  Length = 3868212 BitCount = 133 ID = 270827584x
   5.658679 1  102CA040x       Rx   d 8 00 40 0C A6 31 00 F1 00  Length = 4074566 BitCount = 140 ID = 271360064x
   5.663604 1  102CC040x       Rx   d 8 00 09 CF 6A 00 87 06 AE  Length = 4048212 BitCount = 139 ID = 271368256x
   5.668763 1  10264040x       Rx   d 8 04 06 00 00 00 00 00 43  Length = 4224562 BitCount = 145 ID = 270942272x
   5.673658 1  102CE040x       Rx   d 8 90 00 6B 7F 00 00 26 AC  Length = 4078212 BitCount = 140 ID = 271376448x
   5.678818 1  10210040x       Rx   d 8 00 00 00 00 00 00 00 00  Length = 4284562 BitCount = 147 ID = 270598208x
   5.688873 1  10220040x       Rx   d 8 10 00 00 00 00 06 00 00  Length = 4288208 BitCount = 147 ID = 270663744x
   5.698748 1  1022E040x       Rx   d 8 20 00 00 00 20 00 00 00  Length = 4288223 BitCount = 147 ID = 270721088x
   5.701781 1  106B0040x       Rx   d 1 00  Length = 2308248 BitCount = 81 ID = 275447872x
   5.708294 1  C800040x        Rx   d 6 08 CB 00 00 49 BE  Length = 3628216 BitCount = 125 ID = 209715264x
   5.713814 1  10230040x       Rx   d 8 30 00 00 00 30 00 00 00  Length = 4254562 BitCount = 146 ID = 270729280x
   5.718887 1  10780040x       Rx   d 8 00 00 01 04 08 00 00 22  Length = 4288208 BitCount = 147 ID = 276299840x
   5.728761 1  10240040x       Rx   d 8 83 FE 88 01 01 13 0F FC  Length = 4168208 BitCount = 143 ID = 270794816x
   5.733834 1  106B8040x       Rx   d 8 00 00 00 00 00 00 00 00  Length = 4318208 BitCount = 148 ID = 275480640x
   5.748684 1  102CA040x       Rx   d 8 00 40 0C AD 31 00 F1 00  Length = 4104566 BitCount = 141 ID = 271360064x
   5.758081 1  621             Rx   d 8 00 52 00 00 00 00 00 00  Length = 3598216 BitCount = 124 ID = 1569
   5.768733 1  10264040x       Rx   d 8 04 06 00 00 00 00 00 42  Length = 4228223 BitCount = 145 ID = 270942272x
   5.773808 1  1043A040x       Rx   d 8 00 00 3A 00 00 00 00 00  Length = 4288223 BitCount = 147 ID = 272867392x
   5.778939 1  10210040x       Rx   d 8 00 00 00 00 00 00 00 00  Length = 4288208 BitCount = 147 ID = 270598208x
   5.783530 1  1080A040x       Rx   d 7 00 00 00 00 00 00 00  Length = 4018212 BitCount = 138 ID = 276865088x
   5.788842 1  10220040x       Rx   d 8 10 00 00 00 00 05 00 00  Length = 4284562 BitCount = 147 ID = 270663744x
   5.798838 1  1022E040x       Rx   d 8 00 00 00 00 00 00 00 00  Length = 4318208 BitCount = 148 ID = 270721088x
