date Tue Sep 20 03:55:56.570 pm 2016
base hex  timestamps absolute
internal events logged
// version 9.0.0
Begin Triggerblock Tue Sep 20 03:55:56.570 pm 2016
   0.000000 Start of measurement
   0.002251 Li SleepModeEvent 0 starting up in wake mode
   0.007504 1  10210040x       Rx   d 8 00 00 00 00 00 00 00 00  Length = 4288208 BitCount = 147 ID = 270598208x
   0.012336 1  1022A040x       Rx   d 8 00 B0 00 12 42 00 00 22  Length = 4138223 BitCount = 142 ID = 270704704x
   0.017499 1  10220040x       Rx   d 8 10 00 00 00 00 06 00 00  Length = 4288208 BitCount = 147 ID = 270663744x
   0.021850 1  1022C040x       Rx   d 6 00 10 00 20 00 00  Length = 3688216 BitCount = 127 ID = 270712896x
   0.027461 1  1022E040x       Rx   d 8 00 00 00 00 00 00 00 00  Length = 4318208 BitCount = 148 ID = 270721088x
   0.037425 1  10230040x       Rx   d 8 10 00 00 00 10 00 00 00  Length = 4258208 BitCount = 146 ID = 270729280x
   0.042351 1  102CC040x       Rx   d 8 00 09 CF 59 00 87 06 AB  Length = 4078212 BitCount = 140 ID = 271368256x
   0.047542 1  102CE040x       Rx   d 8 80 00 55 3F 00 00 26 A8  Length = 4168208 BitCount = 143 ID = 271376448x
   0.048367 CAN 1 Status:chip status error active
   0.048367 CAN 2 Status:chip status error active
   0.048367 CAN 3 Status:chip status error active
   0.052283 1  102D0040x       Rx   d 8 01 69 01 ED 7C 8E 00 FF  Length = 4078212 BitCount = 140 ID = 271384640x
   0.057445 1  10240040x       Rx   d 8 83 FE 88 01 00 F6 0F FC  Length = 4224562 BitCount = 145 ID = 270794816x
   0.060449 1  106B0040x       Rx   d 1 00  Length = 2308248 BitCount = 81 ID = 275447872x
   0.066599 1  10806040x       Rx   d 5 00 00 00 00 19  Length = 3414613 BitCount = 118 ID = 276848704x
   0.077375 1  102CA040x       Rx   d 8 00 40 0B 81 15 00 F1 00  Length = 4138208 BitCount = 142 ID = 271360064x
   0.082535 1  10780040x       Rx   d 8 00 00 01 04 08 00 00 22  Length = 4284562 BitCount = 147 ID = 276299840x
   0.086826 1  C800040x        Rx   d 6 08 CB 00 00 5A A7  Length = 3624586 BitCount = 125 ID = 209715264x
   0.091961 1  10788040x       Rx   d 6 08 00 00 00 00 00  Length = 3778231 BitCount = 130 ID = 276332608x
   0.097452 1  10264040x       Rx   d 8 04 06 00 00 00 00 00 24  Length = 4228208 BitCount = 145 ID = 270942272x
   0.107568 1  10210040x       Rx   d 8 00 00 00 00 00 00 00 00  Length = 4288208 BitCount = 147 ID = 270598208x
   0.117503 1  10220040x       Rx   d 8 10 00 00 00 00 06 00 00  Length = 4288223 BitCount = 147 ID = 270663744x
   0.127437 1  1022E040x       Rx   d 8 20 00 00 00 20 00 00 00  Length = 4288208 BitCount = 147 ID = 270721088x
   0.137431 1  10230040x       Rx   d 8 30 00 00 00 30 00 00 00  Length = 4258208 BitCount = 146 ID = 270729280x
   0.147636 1  1043A040x       Rx   d 8 00 00 2A 00 00 00 00 00  Length = 4288208 BitCount = 147 ID = 272867392x
   0.157480 1  10240040x       Rx   d 8 83 FE 88 01 00 F6 0F FC  Length = 4228208 BitCount = 145 ID = 270794816x
   0.162554 1  106B8040x       Rx   d 8 00 00 00 00 00 00 00 00  Length = 4318208 BitCount = 148 ID = 275480640x
   0.166485 1  102C0040x       Rx   d 5 AE EF 44 59 03  Length = 3298224 BitCount = 114 ID = 271319104x
   0.177379 1  102CA040x       Rx   d 8 00 40 0B 87 15 00 F1 00  Length = 4108212 BitCount = 141 ID = 271360064x
   0.180294 1  10308060x       Rx   d 3 44 59 01  Length = 2788236 BitCount = 97 ID = 271614048x
   0.183477 1  10448060x       Rx   d 4 00 00 45 00  Length = 3058228 BitCount = 106 ID = 272924768x
   0.185906 1  106B0040x       Rx   d 1 00  Length = 2304686 BitCount = 81 ID = 275447872x
   0.188756 1  10304058x       Rx   d 3 44 59 01  Length = 2724657 BitCount = 95 ID = 271597656x
   0.192387 1  10306099x       Rx   d 3 44 59 01  Length = 2754642 BitCount = 96 ID = 271605913x
   0.197430 1  10264040x       Rx   d 8 04 06 00 00 00 00 00 18  Length = 4198208 BitCount = 144 ID = 270942272x
   0.207512 1  10210040x       Rx   d 8 00 00 00 00 00 00 00 00  Length = 4288208 BitCount = 147 ID = 270598208x
   0.217537 1  10220040x       Rx   d 8 10 00 00 00 00 08 00 00  Length = 4318208 BitCount = 148 ID = 270663744x
   0.227531 1  1022E040x       Rx   d 8 00 00 00 00 00 00 00 00  Length = 4318208 BitCount = 148 ID = 270721088x
   0.237466 1  10230040x       Rx   d 8 10 00 00 00 10 00 00 00  Length = 4258208 BitCount = 146 ID = 270729280x
   0.257422 1  1022A040x       Rx   d 8 00 B0 00 12 42 00 00 22  Length = 4138208 BitCount = 142 ID = 270704704x
   0.261920 1  1022C040x       Rx   d 6 00 10 00 20 00 00  Length = 3684597 BitCount = 127 ID = 270712896x
   0.267475 1  10240040x       Rx   d 8 83 FE 88 01 00 F6 00 00  Length = 4228208 BitCount = 145 ID = 270794816x
   0.277106 1  10248040x       Rx   d 7 00 00 6D D5 CC 06 00  Length = 3864578 BitCount = 133 ID = 270827584x
   0.279329 1  13FFE058x       Rx   d 0  Length = 2098256 BitCount = 74 ID = 335536216x
   0.283561 1  102CA040x       Rx   d 8 00 40 0B 5D 15 00 F1 00  Length = 4108212 BitCount = 141 ID = 271360064x
   0.292321 1  102CC040x       Rx   d 8 00 09 CF 59 00 87 06 A9  Length = 4044570 BitCount = 139 ID = 271368256x
   0.297482 1  10264040x       Rx   d 8 04 06 00 00 00 00 00 18  Length = 4194562 BitCount = 144 ID = 270942272x
   0.302467 1  102CE040x       Rx   d 8 80 00 55 3F 00 00 26 A8  Length = 4168208 BitCount = 143 ID = 271376448x
   0.307659 1  10210040x       Rx   d 8 00 00 00 00 00 00 00 00  Length = 4288208 BitCount = 147 ID = 270598208x
   0.310510 1  106B0040x       Rx   d 1 00  Length = 2308248 BitCount = 81 ID = 275447872x
   0.317595 1  10220040x       Rx   d 8 10 00 00 00 00 08 00 00  Length = 4318223 BitCount = 148 ID = 270663744x
   0.327531 1  1022E040x       Rx   d 8 20 00 00 00 20 00 00 00  Length = 4288208 BitCount = 147 ID = 270721088x
   0.332604 1  10780040x       Rx   d 8 00 00 01 04 08 00 00 22  Length = 4288223 BitCount = 147 ID = 276299840x
   0.336864 1  C800040x        Rx   d 6 08 CB 00 00 5A A8  Length = 3594590 BitCount = 124 ID = 209715264x
   0.339804 1  13FFE0AFx       Rx   d 0  Length = 2064714 BitCount = 73 ID = 335536303x
   0.344184 1  10230040x       Rx   d 8 30 00 00 00 30 00 00 00  Length = 4254562 BitCount = 146 ID = 270729280x
   0.357480 1  10240040x       Rx   d 8 83 FE 88 01 00 F6 0F FC  Length = 4228208 BitCount = 145 ID = 270794816x
   0.362584 1  106B8040x       Rx   d 8 00 00 00 00 00 00 00 00  Length = 4318223 BitCount = 148 ID = 275480640x
   0.377527 1  102CA040x       Rx   d 8 00 40 0B 76 15 00 F1 00  Length = 4108212 BitCount = 141 ID = 271360064x
   0.397512 1  10264040x       Rx   d 8 04 06 00 00 00 00 00 24  Length = 4224562 BitCount = 145 ID = 270942272x
   0.399736 1  13FFE060x       Rx   d 0  Length = 2098256 BitCount = 74 ID = 335536224x
   0.404146 1  1043A040x       Rx   d 8 00 00 28 00 00 00 00 00  Length = 4284562 BitCount = 147 ID = 272867392x
   0.406339 1  13FFE080x       Rx   d 0  Length = 2068260 BitCount = 73 ID = 335536256x
   0.412584 1  10210040x       Rx   d 8 00 00 00 00 00 00 00 00  Length = 4288208 BitCount = 147 ID = 270598208x
   0.417627 1  10220040x       Rx   d 8 10 00 00 00 00 04 00 00  Length = 4318208 BitCount = 148 ID = 270663744x
   0.422280 1  1080A040x       Rx   d 7 00 00 00 00 00 00 00  Length = 4018227 BitCount = 138 ID = 276865088x
   0.424474 1  13FFE099x       Rx   d 0  Length = 2068260 BitCount = 73 ID = 335536281x
   0.428918 1  1022E040x       Rx   d 8 00 00 00 00 00 00 00 00  Length = 4318208 BitCount = 148 ID = 270721088x
   0.433301 1  10734099x       Rx   d 6 10 00 00 7D 00 00  Length = 3628216 BitCount = 125 ID = 275988633x
   0.437684 1  10230040x       Rx   d 8 10 00 00 00 10 00 00 00  Length = 4258208 BitCount = 146 ID = 270729280x
   0.440569 1  106B0040x       Rx   d 1 00  Length = 2308248 BitCount = 81 ID = 275447872x
   0.457555 1  10240040x       Rx   d 8 83 FE 88 01 00 F6 0F FC  Length = 4228208 BitCount = 145 ID = 270794816x
   0.466589 1  102C0040x       Rx   d 5 AE EF 44 59 03  Length = 3298239 BitCount = 114 ID = 271319104x
   0.477485 1  102CA040x       Rx   d 8 00 40 0B 40 15 00 F1 00  Length = 4138223 BitCount = 142 ID = 271360064x
   0.488462 1  10304058x       Rx   d 3 44 59 01  Length = 2724642 BitCount = 95 ID = 271597656x
   0.492397 1  10306099x       Rx   d 3 44 59 01  Length = 2758251 BitCount = 96 ID = 271605913x
   0.497500 1  10264040x       Rx   d 8 04 06 00 00 00 00 00 18  Length = 4198208 BitCount = 144 ID = 270942272x
   0.500220 CAN 1 Status:chip status error active  - TxErr: 0 RxErr: 1
   0.500228 1  ErrorFrame	Flags = 0xfffe	CodeExt = 0x2072	Code = 0x81	ID = 0x90308060	DLC = 3	Position = 80	Length = 2604375	Data = 0x44  0x59  0x1
   0.503312 CAN 1 Status:chip status error active
   0.503530 1  10308060x       Rx   d 3 44 59 01  Length = 2788236 BitCount = 97 ID = 271614048x
   0.507939 1  10210040x       Rx   d 8 00 00 00 00 00 00 00 00  Length = 4284562 BitCount = 147 ID = 270598208x
   0.512474 1  1022A040x       Rx   d 8 00 B0 00 12 42 00 00 22  Length = 4138208 BitCount = 142 ID = 270704704x
   0.517605 1  10220040x       Rx   d 8 10 00 00 00 00 02 00 00  Length = 4314558 BitCount = 148 ID = 270663744x
   0.521957 1  1022C040x       Rx   d 6 00 10 00 20 00 00  Length = 3684586 BitCount = 127 ID = 270712896x
   0.525171 1  10814099x       Rx   d 4 00 00 00 00  Length = 3088228 BitCount = 107 ID = 276906137x
   0.529584 1  1022E040x       Rx   d 8 20 00 00 00 20 00 00 00  Length = 4288208 BitCount = 147 ID = 270721088x
   0.537540 1  10230040x       Rx   d 8 30 00 00 00 30 00 00 00  Length = 4258208 BitCount = 146 ID = 270729280x
   0.540991 1  10250040x       Rx   d 2 00 03  Length = 2604654 BitCount = 91 ID = 270860352x
   0.547506 1  102CC040x       Rx   d 8 00 09 CF 59 00 87 06 AB  Length = 4078212 BitCount = 140 ID = 271368256x
   0.552519 1  102CE040x       Rx   d 8 80 00 54 3F 00 00 26 A8  Length = 4168208 BitCount = 143 ID = 271376448x
   0.557561 1  10240040x       Rx   d 8 83 FE 88 01 00 F6 0F FC  Length = 4228223 BitCount = 145 ID = 270794816x
   0.562424 1  102D0040x       Rx   d 8 01 69 01 ED 7C 90 00 FF  Length = 4108212 BitCount = 141 ID = 271384640x
   0.567523 1  102E0040x       Rx   d 8 00 32 CA 70 8A 00 63 81  Length = 4134581 BitCount = 142 ID = 271450176x
   0.571728 1  10466040x       Rx   d 5 00 00 00 00 00  Length = 3448220 BitCount = 119 ID = 273047616x
   0.577610 1  102CA040x       Rx   d 8 00 40 0B 44 15 00 F1 00  Length = 4138208 BitCount = 142 ID = 271360064x
   0.580703 1  106B0040x       Rx   d 1 00  Length = 2308248 BitCount = 81 ID = 275447872x
   0.587006 1  C800040x        Rx   d 6 08 CB 00 00 5A AA  Length = 3658216 BitCount = 126 ID = 209715264x
   0.592651 1  106B8040x       Rx   d 8 00 00 00 00 00 00 00 00  Length = 4318223 BitCount = 148 ID = 275480640x
   0.597574 1  10264040x       Rx   d 8 04 06 00 00 00 00 00 24  Length = 4228208 BitCount = 145 ID = 270942272x
   0.601715 1  106C0040x       Rx   d 5 00 06 0F 07 00  Length = 3448220 BitCount = 119 ID = 275513408x
   0.607659 1  10210040x       Rx   d 8 00 00 00 00 00 00 00 00  Length = 4288223 BitCount = 147 ID = 270598208x
   0.611440 1  1077C040x       Rx   d 4 30 30 01 F4  Length = 3148224 BitCount = 109 ID = 276283456x
   0.617625 1  10220040x       Rx   d 8 10 00 00 00 00 06 00 00  Length = 4288208 BitCount = 147 ID = 270663744x
   0.622670 1  10780040x       Rx   d 8 00 00 01 04 08 00 00 22  Length = 4288208 BitCount = 147 ID = 276299840x
   0.627621 1  1022E040x       Rx   d 8 00 00 00 00 00 00 00 00  Length = 4318208 BitCount = 148 ID = 270721088x
   0.632215 1  10788040x       Rx   d 6 08 00 00 00 00 00  Length = 3778216 BitCount = 130 ID = 276332608x
   0.637560 1  10230040x       Rx   d 8 10 00 00 00 10 00 00 00  Length = 4258208 BitCount = 146 ID = 270729280x
   0.641761 1  10806040x       Rx   d 5 00 00 00 00 19  Length = 3414598 BitCount = 118 ID = 276848704x
   0.647793 1  1043A040x       Rx   d 8 00 00 29 00 00 00 00 00  Length = 4314558 BitCount = 148 ID = 272867392x
   0.650344 1  13FFE040x       Rx   d 0  Length = 2064714 BitCount = 73 ID = 335536192x
   0.657549 1  10240040x       Rx   d 8 83 FD 88 01 00 F6 0F FC  Length = 4168223 BitCount = 143 ID = 270794816x
   0.677537 1  102CA040x       Rx   d 8 00 40 0B 43 15 00 F1 00  Length = 4078212 BitCount = 140 ID = 271360064x
   0.683418 1  13FFE0BBx       Rx   d 0  Length = 2038260 BitCount = 72 ID = 335536315x
   0.697552 1  10264040x       Rx   d 8 04 06 00 00 00 00 00 18  Length = 4198208 BitCount = 144 ID = 270942272x
   0.700616 1  106B0040x       Rx   d 1 00  Length = 2308248 BitCount = 81 ID = 275447872x
   0.707701 1  10210040x       Rx   d 8 00 00 00 00 00 00 00 00  Length = 4288208 BitCount = 147 ID = 270598208x
   0.717637 1  10220040x       Rx   d 8 10 00 00 00 00 06 00 00  Length = 4288208 BitCount = 147 ID = 270663744x
   0.727602 1  1022E040x       Rx   d 8 20 00 00 00 20 00 00 00  Length = 4288208 BitCount = 147 ID = 270721088x
   0.737566 1  10230040x       Rx   d 8 30 00 00 00 30 00 00 00  Length = 4258208 BitCount = 146 ID = 270729280x
   0.746900 1  621             Rx   d 8 00 52 00 00 00 00 00 00  Length = 3598216 BitCount = 124 ID = 1569
   0.757585 1  1022A040x       Rx   d 8 00 B0 00 12 42 00 00 22  Length = 4138223 BitCount = 142 ID = 270704704x
   0.762024 1  1022C040x       Rx   d 6 00 10 00 20 00 00  Length = 3684586 BitCount = 127 ID = 270712896x
   0.765775 1  108E0080x       Rx   d 6 0E 01 17 02 08 DC  Length = 3624586 BitCount = 125 ID = 277741696x
   0.770124 1  10240040x       Rx   d 8 83 FE 88 01 00 F6 0F FC  Length = 4224577 BitCount = 145 ID = 270794816x
   0.777240 1  10248040x       Rx   d 7 00 00 6D D5 CC 06 00  Length = 3868212 BitCount = 133 ID = 270827584x
   0.779434 1  13FFE068x       Rx   d 0  Length = 2068275 BitCount = 73 ID = 335536232x
   0.782853 1  102C0040x       Rx   d 5 AE EF 44 59 03  Length = 3294606 BitCount = 114 ID = 271319104x
   0.785555 1  106D0080x       Rx   d 2 00 00  Length = 2574669 BitCount = 90 ID = 275579008x
   0.789785 1  102CA040x       Rx   d 8 00 40 0B 18 15 00 F1 00  Length = 4104566 BitCount = 141 ID = 271360064x
   0.797617 1  10264040x       Rx   d 8 04 06 00 00 00 00 00 24  Length = 4224562 BitCount = 145 ID = 270942272x
   0.802481 1  102CC040x       Rx   d 8 00 09 CF 59 00 87 06 AB  Length = 4078227 BitCount = 140 ID = 271368256x
   0.807701 1  10210040x       Rx   d 8 00 00 00 00 00 00 00 00  Length = 4284573 BitCount = 147 ID = 270598208x
   0.810551 1  10304058x       Rx   d 3 44 59 01  Length = 2724642 BitCount = 95 ID = 271597656x
   0.814781 1  102CE040x       Rx   d 8 80 00 53 3F 00 00 26 A8  Length = 4104566 BitCount = 141 ID = 271376448x
   0.819856 1  10308060x       Rx   d 3 44 59 01  Length = 2788236 BitCount = 97 ID = 271614048x
   0.824267 1  10220040x       Rx   d 8 10 00 00 00 00 06 00 00  Length = 4288208 BitCount = 147 ID = 270663744x
   0.832669 1  1022E040x       Rx   d 8 00 00 00 00 00 00 00 00  Length = 4318208 BitCount = 148 ID = 270721088x
   0.836988 1  C800040x        Rx   d 6 08 CB 00 00 5A AC  Length = 3594590 BitCount = 124 ID = 209715264x
   0.842693 1  10230040x       Rx   d 8 10 00 00 00 10 00 00 00  Length = 4258208 BitCount = 146 ID = 270729280x
   0.845576 1  10306099x       Rx   d 3 44 59 01  Length = 2758236 BitCount = 96 ID = 271605913x
   0.848009 1  106B0040x       Rx   d 1 00  Length = 2308248 BitCount = 81 ID = 275447872x
   0.852722 1  106B8040x       Rx   d 8 00 00 00 00 00 00 00 00  Length = 4318208 BitCount = 148 ID = 275480640x
   0.857705 1  10240040x       Rx   d 8 83 FE 88 01 00 F6 0F FC  Length = 4228208 BitCount = 145 ID = 270794816x
   0.862718 1  10780040x       Rx   d 8 00 00 01 04 08 00 00 22  Length = 4288223 BitCount = 147 ID = 276299840x
   0.877628 1  102CA040x       Rx   d 8 00 40 0B 2B 15 00 F1 00  Length = 4074566 BitCount = 140 ID = 271360064x
   0.897646 1  10264040x       Rx   d 8 04 06 00 00 00 00 00 24  Length = 4228223 BitCount = 145 ID = 270942272x
   0.902692 1  1043A040x       Rx   d 8 00 00 2B 00 00 00 00 00  Length = 4288223 BitCount = 147 ID = 272867392x
   0.907703 1  10210040x       Rx   d 8 00 00 00 00 00 00 00 00  Length = 4288208 BitCount = 147 ID = 270598208x
   0.917667 1  10220040x       Rx   d 8 10 00 00 00 00 05 00 00  Length = 4288208 BitCount = 147 ID = 270663744x
   0.927662 1  1022E040x       Rx   d 8 20 00 00 00 20 00 00 00  Length = 4288208 BitCount = 147 ID = 270721088x
   0.933270 1  10734099x       Rx   d 6 10 00 00 7D 00 00  Length = 3624586 BitCount = 125 ID = 275988633x
   0.937650 1  10230040x       Rx   d 8 30 00 00 00 30 00 00 00  Length = 4254562 BitCount = 146 ID = 270729280x
   0.957693 1  10240040x       Rx   d 8 83 FF 88 01 00 F6 0F FC  Length = 4194562 BitCount = 144 ID = 270794816x
   0.960668 1  106B0040x       Rx   d 1 00  Length = 2308248 BitCount = 81 ID = 275447872x
   0.967777 1  106B8040x       Rx   d 8 00 00 00 00 00 00 00 00  Length = 4314558 BitCount = 148 ID = 275480640x
   0.973841 1  10B02099x       Rx   d 8 00 06 07 02 00 00 00 01  Length = 4168223 BitCount = 143 ID = 279978137x
   0.978040 1  102CA040x       Rx   d 8 00 40 0B 0F 15 00 F1 00  Length = 4074581 BitCount = 140 ID = 271360064x
   0.993793 1  10B02099x       Rx   d 8 00 06 07 0C 00 00 00 03  Length = 4138223 BitCount = 142 ID = 279978137x
   0.998117 1  10264040x       Rx   d 8 04 06 00 00 00 00 00 18  Length = 4198208 BitCount = 144 ID = 270942272x
   1.007745 1  10210040x       Rx   d 8 00 00 00 00 00 00 00 00  Length = 4284562 BitCount = 147 ID = 270598208x
   1.012580 1  1022A040x       Rx   d 8 00 B0 00 12 42 00 00 22  Length = 4138223 BitCount = 142 ID = 270704704x
   1.016872 1  10B02099x       Rx   d 8 00 06 07 0D 00 00 00 02  Length = 4168223 BitCount = 143 ID = 279978137x
   1.021311 1  10220040x       Rx   d 8 10 00 00 00 00 08 00 00  Length = 4314558 BitCount = 148 ID = 270663744x
   1.027106 1  1022C040x       Rx   d 6 00 10 00 20 00 00  Length = 3688216 BitCount = 127 ID = 270712896x
   1.032717 1  1022E040x       Rx   d 8 00 00 00 00 00 00 00 00  Length = 4318223 BitCount = 148 ID = 270721088x
   1.035900 1  10AC0099x       Rx   d 4 00 02 07 03  Length = 3058228 BitCount = 106 ID = 279707801x
   1.040283 1  10230040x       Rx   d 8 10 00 00 00 10 00 00 00  Length = 4258208 BitCount = 146 ID = 270729280x
   1.047634 1  102CC040x       Rx   d 8 00 09 CF 54 00 87 06 AC  Length = 4078212 BitCount = 140 ID = 271368256x
   1.048368 1  Statistic: D 1 R 0 XD 162 XR 0 E 1 O 0 B 61.35%
   1.048368 2  Statistic: D 0 R 0 XD 0 XR 0 E 0 O 0 B 0.00%
   1.048368 3  Statistic: D 0 R 0 XD 0 XR 0 E 0 O 0 B 0.00%
   1.052618 1  102CE040x       Rx   d 8 80 00 52 3F 00 00 26 A8  Length = 4138208 BitCount = 142 ID = 271376448x
   1.056341 1  10734099x       Rx   d 6 14 00 00 7D 00 00  Length = 3598216 BitCount = 124 ID = 275988633x
   1.060694 1  10240040x       Rx   d 8 83 FE 88 01 00 F6 0F FC  Length = 4228208 BitCount = 145 ID = 270794816x
   1.063817 1  10814099x       Rx   d 4 20 00 49 00  Length = 2998228 BitCount = 104 ID = 276906137x
   1.067236 1  102C0040x       Rx   d 5 AE EF 44 59 03  Length = 3294606 BitCount = 114 ID = 271319104x
   1.072517 1  102D0040x       Rx   d 8 01 69 01 ED 7C 93 00 FF  Length = 4074566 BitCount = 140 ID = 271384640x
   1.077590 1  102CA040x       Rx   d 8 00 40 0B 25 15 00 F1 00  Length = 4108212 BitCount = 141 ID = 271360064x
   1.080713 1  106B0040x       Rx   d 1 00  Length = 2308248 BitCount = 81 ID = 275447872x
   1.087076 1  C800040x        Rx   d 6 08 CB 00 00 5A AE  Length = 3598231 BitCount = 124 ID = 209715264x
   1.089926 1  10304058x       Rx   d 3 44 59 01  Length = 2724642 BitCount = 95 ID = 271597656x
   1.092805 1  10306099x       Rx   d 3 44 59 01  Length = 2754642 BitCount = 96 ID = 271605913x
   1.097215 1  10780040x       Rx   d 8 00 00 01 04 08 00 00 22  Length = 4284562 BitCount = 147 ID = 276299840x
   1.100124 1  10308060x       Rx   d 3 44 59 01  Length = 2784638 BitCount = 97 ID = 271614048x
   1.104478 1  10264040x       Rx   d 8 04 06 00 00 00 00 00 25  Length = 4228208 BitCount = 145 ID = 270942272x
   1.112734 1  10210040x       Rx   d 8 00 00 00 00 00 00 00 00  Length = 4288208 BitCount = 147 ID = 270598208x
   1.117747 1  10220040x       Rx   d 8 10 00 00 00 00 06 00 00  Length = 4288208 BitCount = 147 ID = 270663744x
   1.122221 1  10788040x       Rx   d 6 08 00 00 00 00 00  Length = 3778216 BitCount = 130 ID = 276332608x
   1.127716 1  1022E040x       Rx   d 8 20 00 00 00 20 00 00 00  Length = 4288208 BitCount = 147 ID = 270721088x
   1.131979 1  10806040x       Rx   d 5 00 00 00 00 19  Length = 3418220 BitCount = 118 ID = 276848704x
   1.137680 1  10230040x       Rx   d 8 30 00 00 00 30 00 00 00  Length = 4258223 BitCount = 146 ID = 270729280x
   1.147885 1  1043A040x       Rx   d 8 00 00 2B 00 00 00 00 00  Length = 4288208 BitCount = 147 ID = 272867392x
   1.157699 1  10240040x       Rx   d 8 83 FE 88 01 00 F6 0F FC  Length = 4228208 BitCount = 145 ID = 270794816x
   1.162772 1  106B8040x       Rx   d 8 00 00 00 00 00 00 00 00  Length = 4318208 BitCount = 148 ID = 275480640x
   1.166525 1  624             Rx   d 8 00 20 00 00 00 00 00 00  Length = 3628216 BitCount = 125 ID = 1572
   1.172765 1  10814099x       Rx   d 4 20 00 30 00  Length = 3114629 BitCount = 108 ID = 276906137x
   1.177570 1  102CA040x       Rx   d 8 00 40 0B 22 15 00 F1 00  Length = 4078212 BitCount = 140 ID = 271360064x
   1.180753 1  10448060x       Rx   d 4 00 00 45 00  Length = 3058243 BitCount = 106 ID = 272924768x
   1.197679 1  10264040x       Rx   d 8 04 06 00 00 00 00 00 18  Length = 4198208 BitCount = 144 ID = 270942272x
   1.200742 1  106B0040x       Rx   d 1 00  Length = 2308248 BitCount = 81 ID = 275447872x
   1.207795 1  10210040x       Rx   d 8 00 00 00 00 00 00 00 00  Length = 4288208 BitCount = 147 ID = 270598208x
   1.217791 1  10220040x       Rx   d 8 10 00 00 00 00 04 00 00  Length = 4318208 BitCount = 148 ID = 270663744x
   1.227726 1  1022E040x       Rx   d 8 00 00 00 00 00 00 00 00  Length = 4318208 BitCount = 148 ID = 270721088x
   1.237690 1  10230040x       Rx   d 8 10 00 00 00 10 00 00 00  Length = 4258223 BitCount = 146 ID = 270729280x
   1.257733 1  1022A040x       Rx   d 8 00 B0 00 12 42 00 00 22  Length = 4134581 BitCount = 142 ID = 270704704x
   1.262148 1  1022C040x       Rx   d 6 00 10 00 20 00 00  Length = 3688216 BitCount = 127 ID = 270712896x
   1.267733 1  10240040x       Rx   d 8 83 FE 88 01 00 F6 0F FC  Length = 4228223 BitCount = 145 ID = 270794816x
   1.277454 1  10248040x       Rx   d 7 00 00 6D D5 CC 04 00  Length = 3894574 BitCount = 134 ID = 270827584x
   1.282739 1  102CA040x       Rx   d 8 00 40 0A F0 15 00 F1 00  Length = 4138208 BitCount = 142 ID = 271360064x
   1.287604 1  102CC040x       Rx   d 8 00 09 CF 54 00 87 06 A9  Length = 4078227 BitCount = 140 ID = 271368256x
   1.297689 1  10264040x       Rx   d 8 04 06 00 00 00 00 00 19  Length = 4198223 BitCount = 144 ID = 270942272x
   1.302668 1  102CE040x       Rx   d 8 80 00 52 3F 00 00 26 A8  Length = 4134566 BitCount = 142 ID = 271376448x
   1.307889 1  10210040x       Rx   d 8 00 00 00 00 00 00 00 00  Length = 4284562 BitCount = 147 ID = 270598208x
   1.317826 1  10220040x       Rx   d 8 10 00 00 00 00 04 00 00  Length = 4318208 BitCount = 148 ID = 270663744x
   1.320769 1  106B0040x       Rx   d 1 00  Length = 2308248 BitCount = 81 ID = 275447872x
   1.327764 1  1022E040x       Rx   d 8 20 00 00 00 20 00 00 00  Length = 4288208 BitCount = 147 ID = 270721088x
   1.332839 1  10780040x       Rx   d 8 00 00 01 04 08 00 00 22  Length = 4288223 BitCount = 147 ID = 276299840x
   1.337100 1  C800040x        Rx   d 6 08 CB 00 00 5A AF  Length = 3598231 BitCount = 124 ID = 209715264x
   1.342741 1  10230040x       Rx   d 8 30 00 00 00 30 00 00 00  Length = 4258208 BitCount = 146 ID = 270729280x
   1.357749 1  10240040x       Rx   d 8 83 FE 88 01 00 F6 0F FC  Length = 4228208 BitCount = 145 ID = 270794816x
   1.362822 1  106B8040x       Rx   d 8 00 00 00 00 00 00 00 00  Length = 4318208 BitCount = 148 ID = 275480640x
   1.366783 1  102C0040x       Rx   d 5 AE EF 44 59 03  Length = 3298224 BitCount = 114 ID = 271319104x
   1.377710 1  102CA040x       Rx   d 8 00 40 0B 11 15 00 F1 00  Length = 4078212 BitCount = 140 ID = 271360064x
   1.380622 1  10308060x       Rx   d 3 44 59 01  Length = 2788236 BitCount = 97 ID = 271614048x
   1.388241 1  10304058x       Rx   d 3 44 59 01  Length = 2724642 BitCount = 95 ID = 271597656x
   1.392383 1  10306099x       Rx   d 3 44 59 01  Length = 2758236 BitCount = 96 ID = 271605913x
   1.397721 1  10264040x       Rx   d 8 04 06 00 00 00 00 00 25  Length = 4224562 BitCount = 145 ID = 270942272x
   1.401476 1  62C             Rx   d 8 00 40 00 00 00 00 00 00  Length = 3628216 BitCount = 125 ID = 1580
   1.405889 1  1043A040x       Rx   d 8 00 00 2A 00 00 00 00 00  Length = 4288223 BitCount = 147 ID = 272867392x
   1.412820 1  10210040x       Rx   d 8 00 00 00 00 00 00 00 00  Length = 4288208 BitCount = 147 ID = 270598208x
   1.416508 1  631             Rx   d 8 00 40 00 00 00 00 00 00  Length = 3564605 BitCount = 123 ID = 1585
   1.420922 1  10220040x       Rx   d 8 10 00 00 00 00 06 00 00  Length = 4288208 BitCount = 147 ID = 270663744x
   1.427794 1  1022E040x       Rx   d 8 00 00 00 00 00 00 00 00  Length = 4314558 BitCount = 148 ID = 270721088x
   1.432539 1  1080A040x       Rx   d 7 00 00 00 00 00 00 00  Length = 4018227 BitCount = 138 ID = 276865088x
   1.436258 1  10734099x       Rx   d 6 14 00 00 7D 00 00  Length = 3594590 BitCount = 124 ID = 275988633x
   1.440641 1  10230040x       Rx   d 8 10 00 00 00 10 00 00 00  Length = 4258208 BitCount = 146 ID = 270729280x
   1.445799 1  106B0040x       Rx   d 1 00  Length = 2304686 BitCount = 81 ID = 275447872x
   1.452703 1  10814099x       Rx   d 4 20 1F 30 00  Length = 3058228 BitCount = 106 ID = 276906137x
   1.457835 1  10240040x       Rx   d 8 83 FF 88 01 00 F6 0F FC  Length = 4198208 BitCount = 144 ID = 270794816x
   1.477760 1  102CA040x       Rx   d 8 00 40 0B 00 15 00 F1 00  Length = 4198208 BitCount = 144 ID = 271360064x
   1.481568 1  10324058x       Rx   d 6 00 00 03 FF 00 00  Length = 3684586 BitCount = 127 ID = 271728728x
   1.484570 1  13FFE058x       Rx   d 0  Length = 2098256 BitCount = 74 ID = 335536216x
   1.497741 1  10264040x       Rx   d 8 04 06 00 00 00 00 00 19  Length = 4194577 BitCount = 144 ID = 270942272x
   1.507827 1  10210040x       Rx   d 8 00 00 00 00 00 00 00 00  Length = 4288208 BitCount = 147 ID = 270598208x
   1.512690 1  1022A040x       Rx   d 8 00 B0 00 12 42 00 00 22  Length = 4138208 BitCount = 142 ID = 270704704x
   1.517820 1  10220040x       Rx   d 8 10 00 00 00 00 05 00 00  Length = 4284562 BitCount = 147 ID = 270663744x
   1.522205 1  1022C040x       Rx   d 6 00 10 00 20 00 00  Length = 3688216 BitCount = 127 ID = 270712896x
   1.527790 1  1022E040x       Rx   d 8 20 00 00 00 20 00 00 00  Length = 4288223 BitCount = 147 ID = 270721088x
   1.531123 1  10250040x       Rx   d 2 00 03  Length = 2608255 BitCount = 91 ID = 270860352x
   1.537786 1  10230040x       Rx   d 8 30 00 00 00 30 00 00 00  Length = 4258208 BitCount = 146 ID = 270729280x
   1.539978 1  13FFE0AFx       Rx   d 0  Length = 2068260 BitCount = 73 ID = 335536303x
   1.544178 1  102CC040x       Rx   d 8 00 09 CF 54 00 87 06 AC  Length = 4074566 BitCount = 140 ID = 271368256x
   1.552704 1  102CE040x       Rx   d 8 80 00 51 3F 00 00 26 A9  Length = 4108212 BitCount = 141 ID = 271376448x
   1.557805 1  10240040x       Rx   d 8 83 FF 88 01 00 F6 0F FC  Length = 4198208 BitCount = 144 ID = 270794816x
   1.562636 1  102D0040x       Rx   d 8 01 69 01 ED 7C 95 00 FF  Length = 4078227 BitCount = 140 ID = 271384640x
   1.567798 1  102E0040x       Rx   d 8 00 31 CA 70 8A 00 63 81  Length = 4134566 BitCount = 142 ID = 271450176x
   1.570833 1  106B0040x       Rx   d 1 00  Length = 2308263 BitCount = 81 ID = 275447872x
   1.577762 1  102CA040x       Rx   d 8 00 40 0B 0B 16 00 F1 00  Length = 4074566 BitCount = 140 ID = 271360064x
   1.583013 1  106B8040x       Rx   d 8 00 00 00 00 00 00 00 00  Length = 4314558 BitCount = 148 ID = 275480640x
   1.587185 1  C800040x        Rx   d 6 08 CB 00 00 5A B1  Length = 3594590 BitCount = 124 ID = 209715264x
   1.591960 1  106C0040x       Rx   d 5 00 06 0F 07 00  Length = 3448220 BitCount = 119 ID = 275513408x
   1.597753 1  10264040x       Rx   d 8 04 06 00 00 00 00 00 19  Length = 4198208 BitCount = 144 ID = 270942272x
   1.599976 1  13FFE060x       Rx   d 0  Length = 2098256 BitCount = 74 ID = 335536224x
   1.603248 1  1077C040x       Rx   d 4 30 30 01 F4  Length = 3148224 BitCount = 109 ID = 276283456x
   1.605439 1  13FFE080x       Rx   d 0  Length = 2068260 BitCount = 73 ID = 335536256x
   1.609852 1  10210040x       Rx   d 8 00 00 00 00 00 00 00 00  Length = 4288223 BitCount = 147 ID = 270598208x
   1.617860 1  10220040x       Rx   d 8 10 00 00 00 00 05 00 00  Length = 4284562 BitCount = 147 ID = 270663744x
   1.622901 1  10780040x       Rx   d 8 00 00 01 04 08 00 00 22  Length = 4284573 BitCount = 147 ID = 276299840x
   1.625097 1  13FFE099x       Rx   d 0  Length = 2068275 BitCount = 73 ID = 335536281x
   1.629535 1  1022E040x       Rx   d 8 00 00 00 00 00 00 00 00  Length = 4314558 BitCount = 148 ID = 270721088x
   1.637791 1  10230040x       Rx   d 8 10 00 00 00 10 00 00 00  Length = 4258208 BitCount = 146 ID = 270729280x
   1.642354 1  10788040x       Rx   d 6 08 00 00 00 00 00  Length = 3778231 BitCount = 130 ID = 276332608x
   1.648029 1  1043A040x       Rx   d 8 00 00 2B 00 00 00 00 00  Length = 4288208 BitCount = 147 ID = 272867392x
   1.651992 1  10806040x       Rx   d 5 00 00 00 00 19  Length = 3418220 BitCount = 118 ID = 276848704x
   1.657845 1  10240040x       Rx   d 8 83 FE 88 01 00 F6 0F FC  Length = 4228208 BitCount = 145 ID = 270794816x
   1.666818 1  102C0040x       Rx   d 5 AE EF 44 59 03  Length = 3298224 BitCount = 114 ID = 271319104x
   1.677744 1  102CA040x       Rx   d 8 00 40 0B 01 15 00 F1 00  Length = 4108223 BitCount = 141 ID = 271360064x
   1.685848 1  106B0040x       Rx   d 1 00  Length = 2308248 BitCount = 81 ID = 275447872x
   1.688698 1  10304058x       Rx   d 3 44 59 01  Length = 2724642 BitCount = 95 ID = 271597656x
   1.692386 1  10306099x       Rx   d 3 44 59 01  Length = 2754657 BitCount = 96 ID = 271605913x
   1.697791 1  10264040x       Rx   d 8 04 06 00 00 00 00 00 25  Length = 4228208 BitCount = 145 ID = 270942272x
   1.700701 1  10308060x       Rx   d 3 44 59 01  Length = 2784638 BitCount = 97 ID = 271614048x
   1.707995 1  10210040x       Rx   d 8 00 00 00 00 00 00 00 00  Length = 4288208 BitCount = 147 ID = 270598208x
   1.717870 1  10220040x       Rx   d 8 10 00 00 00 00 06 00 00  Length = 4288208 BitCount = 147 ID = 270663744x
   1.727866 1  1022E040x       Rx   d 8 20 00 00 00 20 00 00 00  Length = 4288208 BitCount = 147 ID = 270721088x
   1.737800 1  10230040x       Rx   d 8 30 00 00 00 30 00 00 00  Length = 4258208 BitCount = 146 ID = 270729280x
   1.747135 1  621             Rx   d 8 00 52 00 00 00 00 00 00  Length = 3598231 BitCount = 124 ID = 1569
   1.757817 1  1022A040x       Rx   d 8 00 B0 00 12 42 00 00 22  Length = 4138208 BitCount = 142 ID = 270704704x
   1.762262 1  1022C040x       Rx   d 6 00 10 00 20 00 00  Length = 3688216 BitCount = 127 ID = 270712896x
   1.765984 1  108E0080x       Rx   d 6 0E 01 17 02 08 DD  Length = 3594590 BitCount = 124 ID = 277741696x
   1.770336 1  10240040x       Rx   d 8 83 FE 88 01 00 F6 0F FC  Length = 4228208 BitCount = 145 ID = 270794816x
   1.777478 1  10248040x       Rx   d 7 00 00 6D D5 CC 06 00  Length = 3868212 BitCount = 133 ID = 270827584x
   1.782883 1  102CA040x       Rx   d 8 00 40 0A FA 15 00 F1 00  Length = 4138208 BitCount = 142 ID = 271360064x
   1.787719 1  102CC040x       Rx   d 8 00 09 CF 54 00 87 06 A9  Length = 4078227 BitCount = 140 ID = 271368256x
   1.792938 1  106B8040x       Rx   d 8 00 00 00 00 00 00 00 00  Length = 4314573 BitCount = 148 ID = 275480640x
   1.797833 1  10264040x       Rx   d 8 04 06 00 00 00 00 00 19  Length = 4198223 BitCount = 144 ID = 270942272x
   1.802786 1  102CE040x       Rx   d 8 80 00 50 3F 00 00 26 A9  Length = 4138208 BitCount = 142 ID = 271376448x
   1.808034 1  10210040x       Rx   d 8 00 00 00 00 00 00 00 00  Length = 4284562 BitCount = 147 ID = 270598208x
   1.810889 1  106B0040x       Rx   d 1 00  Length = 2308248 BitCount = 81 ID = 275447872x
   1.817944 1  10220040x       Rx   d 8 10 00 00 00 00 08 00 00  Length = 4318208 BitCount = 148 ID = 270663744x
   1.820619 1  13FFE040x       Rx   d 0  Length = 2068260 BitCount = 73 ID = 335536192x
   1.828064 1  1022E040x       Rx   d 8 00 00 00 00 00 00 00 00  Length = 4318208 BitCount = 148 ID = 270721088x
   1.833017 1  10780040x       Rx   d 8 00 00 01 04 08 00 00 22  Length = 4288223 BitCount = 147 ID = 276299840x
   1.837247 1  C800040x        Rx   d 6 08 CB 00 00 5A B2  Length = 3594590 BitCount = 124 ID = 209715264x
   1.842892 1  10230040x       Rx   d 8 10 00 00 00 10 00 00 00  Length = 4258208 BitCount = 146 ID = 270729280x
   1.857867 1  10240040x       Rx   d 8 83 FF 88 01 00 F6 0F FC  Length = 4198208 BitCount = 144 ID = 270794816x
   1.877886 1  102CA040x       Rx   d 8 00 40 0B 24 15 00 F1 00  Length = 4138208 BitCount = 142 ID = 271360064x
   1.886401 1  13FFE0BBx       Rx   d 0  Length = 2034733 BitCount = 72 ID = 335536315x
   1.897674 CAN 1 Status:chip status error active  - TxErr: 0 RxErr: 1
   1.897681 1  ErrorFrame	Flags = 0xfffe	CodeExt = 0x2072	Code = 0x81	ID = 0x90264040	DLC = 8	Position = 120	Length = 4044375	Data = 0x4  0x6  0  0  0  0  0  0x27
   1.902209 CAN 1 Status:chip status error active
   1.902426 1  10264040x       Rx   d 8 04 06 00 00 00 00 00 27  Length = 4228208 BitCount = 145 ID = 270942272x
   1.908069 1  10210040x       Rx   d 8 00 00 00 00 00 00 00 00  Length = 4288208 BitCount = 147 ID = 270598208x
   1.912933 1  1043A040x       Rx   d 8 00 00 2B 00 00 00 00 00  Length = 4288208 BitCount = 147 ID = 272867392x
   1.917946 1  10220040x       Rx   d 8 10 00 00 00 00 06 00 00  Length = 4288223 BitCount = 147 ID = 270663744x
   1.927880 1  1022E040x       Rx   d 8 20 00 00 00 20 00 00 00  Length = 4288208 BitCount = 147 ID = 270721088x
   1.930913 1  106B0040x       Rx   d 1 00  Length = 2308263 BitCount = 81 ID = 275447872x
   1.934633 1  10734099x       Rx   d 6 14 00 00 7D 00 00  Length = 3594601 BitCount = 124 ID = 275988633x
   1.939017 1  10230040x       Rx   d 8 30 00 00 00 30 00 00 00  Length = 4258208 BitCount = 146 ID = 270729280x
   1.952639 1  10814099x       Rx   d 4 20 23 30 00  Length = 2998228 BitCount = 104 ID = 276906137x
   1.957888 1  10240040x       Rx   d 8 83 FE 88 01 00 F6 0F FC  Length = 4224562 BitCount = 145 ID = 270794816x
   1.962959 1  106B8040x       Rx   d 8 00 00 00 00 00 00 00 00  Length = 4314558 BitCount = 148 ID = 275480640x
   1.966924 1  102C0040x       Rx   d 5 AE EF 44 59 03  Length = 3298239 BitCount = 114 ID = 271319104x
   1.977788 1  102CA040x       Rx   d 8 00 40 0A F3 15 00 F1 00  Length = 4078212 BitCount = 140 ID = 271360064x
   1.980697 1  10308060x       Rx   d 3 44 59 01  Length = 2784638 BitCount = 97 ID = 271614048x
   1.983397 1  106D0080x       Rx   d 2 00 00  Length = 2574658 BitCount = 90 ID = 275579008x
   1.985591 1  13FFE068x       Rx   d 0  Length = 2068260 BitCount = 73 ID = 335536232x
   1.988440 1  10304058x       Rx   d 3 44 59 01  Length = 2724642 BitCount = 95 ID = 271597656x
   1.992373 1  10306099x       Rx   d 3 44 59 01  Length = 2758236 BitCount = 96 ID = 271605913x
   1.997674 CAN 1 Status:chip status error active  - TxErr: 0 RxErr: 1
   1.997681 1  ErrorFrame	Flags = 0xfffe	CodeExt = 0x2072	Code = 0x81	ID = 0x90264040	DLC = 8	Position = 120	Length = 4044375	Data = 0x4  0x6  0  0  0  0  0  0x1a
   2.002203 CAN 1 Status:chip status error active
   2.002420 1  10264040x       Rx   d 8 04 06 00 00 00 00 00 1A  Length = 4224562 BitCount = 145 ID = 270942272x
   2.007976 1  10210040x       Rx   d 8 00 00 00 00 00 00 00 00  Length = 4288208 BitCount = 147 ID = 270598208x
   2.012839 1  1022A040x       Rx   d 8 00 B0 00 12 42 00 00 22  Length = 4138223 BitCount = 142 ID = 270704704x
   2.018002 1  10220040x       Rx   d 8 10 00 00 00 00 04 00 00  Length = 4318208 BitCount = 148 ID = 270663744x
   2.022319 1  1022C040x       Rx   d 6 00 10 00 20 00 00  Length = 3684586 BitCount = 127 ID = 270712896x
   2.027934 1  1022E040x       Rx   d 8 00 00 00 00 00 00 00 00  Length = 4318208 BitCount = 148 ID = 270721088x
   2.037869 1  10230040x       Rx   d 8 10 00 00 00 10 00 00 00  Length = 4258223 BitCount = 146 ID = 270729280x
   2.042764 1  102CC040x       Rx   d 8 00 09 CF 4F 00 87 06 A9  Length = 4048227 BitCount = 139 ID = 271368256x
   2.047833 1  102CE040x       Rx   d 8 80 00 50 3F 00 00 26 A8  Length = 4134581 BitCount = 142 ID = 271376448x
   2.048368 1  Statistic: D 4 R 0 XD 160 XR 0 E 2 O 0 B 64.34%
   2.048368 2  Statistic: D 0 R 0 XD 0 XR 0 E 0 O 0 B 0.00%
   2.048368 3  Statistic: D 0 R 0 XD 0 XR 0 E 0 O 0 B 0.00%
   2.052818 1  102D0040x       Rx   d 8 01 69 01 ED 7C 97 00 FF  Length = 4138208 BitCount = 142 ID = 271384640x
   2.057919 1  10240040x       Rx   d 8 83 FE 88 01 00 F6 0F FC  Length = 4228223 BitCount = 145 ID = 270794816x
   2.060953 1  106B0040x       Rx   d 1 00  Length = 2308248 BitCount = 81 ID = 275447872x
   2.064075 1  10814099x       Rx   d 4 20 26 30 00  Length = 2998228 BitCount = 104 ID = 276906137x
   2.067614 1  10806040x       Rx   d 5 00 00 00 00 19  Length = 3414613 BitCount = 118 ID = 276848704x
   2.077877 1  102CA040x       Rx   d 8 00 40 0B 04 15 00 F1 00  Length = 4164566 BitCount = 143 ID = 271360064x
   2.083038 1  10780040x       Rx   d 8 00 00 01 04 08 00 00 22  Length = 4284562 BitCount = 147 ID = 276299840x
   2.087299 1  C800040x        Rx   d 6 08 CB 00 00 5A B4  Length = 3594590 BitCount = 124 ID = 209715264x
   2.092460 1  10788040x       Rx   d 6 08 00 00 00 00 00  Length = 3774582 BitCount = 130 ID = 276332608x
   2.097734 CAN 1 Status:chip status error active  - TxErr: 0 RxErr: 1
   2.097741 1  ErrorFrame	Flags = 0xfffe	CodeExt = 0x2072	Code = 0x81	ID = 0x90264040	DLC = 8	Position = 120	Length = 4044390	Data = 0x4  0x6  0  0  0  0  0  0x1a
   2.102263 CAN 1 Status:chip status error active
   2.102481 1  10264040x       Rx   d 8 04 06 00 00 00 00 00 1A  Length = 4224562 BitCount = 145 ID = 270942272x
   2.107975 1  10210040x       Rx   d 8 00 00 00 00 00 00 00 00  Length = 4288223 BitCount = 147 ID = 270598208x
   2.118000 1  10220040x       Rx   d 8 10 00 00 00 00 04 00 00  Length = 4318208 BitCount = 148 ID = 270663744x
   2.127934 1  1022E040x       Rx   d 8 20 00 00 00 20 00 00 00  Length = 4288223 BitCount = 147 ID = 270721088x
   2.138019 1  10230040x       Rx   d 8 30 00 00 00 30 00 00 00  Length = 4258223 BitCount = 146 ID = 270729280x
   2.147953 1  1043A040x       Rx   d 8 00 00 28 00 00 00 00 00  Length = 4288208 BitCount = 147 ID = 272867392x
   2.157948 1  10240040x       Rx   d 8 83 FE 88 01 00 F6 0F FC  Length = 4228208 BitCount = 145 ID = 270794816x
   2.163019 1  106B8040x       Rx   d 8 00 00 00 00 00 00 00 00  Length = 4314558 BitCount = 148 ID = 275480640x
   2.172682 1  10814099x       Rx   d 4 20 2B 30 00  Length = 3028228 BitCount = 105 ID = 276906137x
   2.177874 1  102CA040x       Rx   d 8 00 40 0A DE 15 00 F1 00  Length = 4138208 BitCount = 142 ID = 271360064x
   2.181056 1  10448060x       Rx   d 4 00 00 45 00  Length = 3058228 BitCount = 106 ID = 272924768x
   2.183488 1  106B0040x       Rx   d 1 00  Length = 2308248 BitCount = 81 ID = 275447872x
   2.197923 1  10264040x       Rx   d 8 04 06 00 00 00 00 00 27  Length = 4228208 BitCount = 145 ID = 270942272x
   2.208005 1  10210040x       Rx   d 8 00 00 00 00 00 00 00 00  Length = 4288208 BitCount = 147 ID = 270598208x
   2.218000 1  10220040x       Rx   d 8 10 00 00 00 00 06 00 00  Length = 4288223 BitCount = 147 ID = 270663744x
   2.227994 1  1022E040x       Rx   d 8 00 00 00 00 00 00 00 00  Length = 4318208 BitCount = 148 ID = 270721088x
   2.237929 1  10230040x       Rx   d 8 10 00 00 00 10 00 00 00  Length = 4258208 BitCount = 146 ID = 270729280x
   2.257886 1  1022A040x       Rx   d 8 00 B0 00 12 42 00 00 22  Length = 4138223 BitCount = 142 ID = 270704704x
   2.262417 1  1022C040x       Rx   d 6 00 10 00 20 00 00  Length = 3688216 BitCount = 127 ID = 270712896x
   2.267942 1  10240040x       Rx   d 8 83 FF 88 01 00 F6 0F FC  Length = 4198208 BitCount = 144 ID = 270794816x
   2.271997 1  102C0040x       Rx   d 5 AE EF 44 59 03  Length = 3298224 BitCount = 114 ID = 271319104x
   2.277578 1  10248040x       Rx   d 7 00 00 6D D5 CC 06 00  Length = 3868227 BitCount = 133 ID = 270827584x
   2.282954 1  102CA040x       Rx   d 8 00 40 0A DA 15 00 F1 00  Length = 4078227 BitCount = 140 ID = 271360064x
   2.286138 1  10814099x       Rx   d 4 20 30 30 00  Length = 3058228 BitCount = 106 ID = 276906137x
   2.290339 1  102CC040x       Rx   d 8 00 09 CF 4F 00 87 06 A8  Length = 4078212 BitCount = 140 ID = 271368256x
   2.293218 1  10306099x       Rx   d 3 44 59 01  Length = 2754657 BitCount = 96 ID = 271605913x
   2.297931 1  10264040x       Rx   d 8 04 06 00 00 00 00 00 19  Length = 4198208 BitCount = 144 ID = 270942272x
   2.300781 1  10304058x       Rx   d 3 44 59 01  Length = 2724657 BitCount = 95 ID = 271597656x
   2.305011 1  102CE040x       Rx   d 8 80 00 4F 3F 00 00 26 A9  Length = 4104566 BitCount = 141 ID = 271376448x
   2.307926 1  10308060x       Rx   d 3 44 59 01  Length = 2788247 BitCount = 97 ID = 271614048x
   2.313029 1  10210040x       Rx   d 8 00 00 00 00 00 00 00 00  Length = 4288223 BitCount = 147 ID = 270598208x
   2.318068 1  10220040x       Rx   d 8 10 00 00 00 00 04 00 00  Length = 4314558 BitCount = 148 ID = 270663744x
   2.321013 1  106B0040x       Rx   d 1 00  Length = 2308263 BitCount = 81 ID = 275447872x
   2.327976 1  1022E040x       Rx   d 8 20 00 00 00 20 00 00 00  Length = 4288208 BitCount = 147 ID = 270721088x
   2.333138 1  10780040x       Rx   d 8 00 00 01 04 08 00 00 22  Length = 4288208 BitCount = 147 ID = 276299840x
   2.337399 1  C800040x        Rx   d 6 08 CB 00 00 5A B6  Length = 3628216 BitCount = 125 ID = 209715264x
   2.343042 1  10230040x       Rx   d 8 30 00 00 00 30 00 00 00  Length = 4258208 BitCount = 146 ID = 270729280x
   2.357958 1  10240040x       Rx   d 8 83 FF 88 01 00 F6 0F FC  Length = 4198208 BitCount = 144 ID = 270794816x
   2.363091 1  106B8040x       Rx   d 8 00 00 00 00 00 00 00 00  Length = 4318208 BitCount = 148 ID = 275480640x
   2.377977 1  102CA040x       Rx   d 8 00 40 0A F8 15 00 F1 00  Length = 4168208 BitCount = 143 ID = 271360064x
   2.387073 1  1038C040x       Rx   d 5 00 00 69 05 7F  Length = 3358220 BitCount = 116 ID = 272154688x
   2.392650 1  10814099x       Rx   d 4 20 33 30 00  Length = 2994622 BitCount = 104 ID = 276906137x
   2.397774 CAN 1 Status:chip status error active  - TxErr: 0 RxErr: 1
   2.397781 1  ErrorFrame	Flags = 0xfffe	CodeExt = 0x2072	Code = 0x81	ID = 0x90264040	DLC = 8	Position = 120	Length = 4044390	Data = 0x4  0x6  0  0  0  0  0  0x1a
   2.402303 CAN 1 Status:chip status error active
   2.402521 1  10264040x       Rx   d 8 04 06 00 00 00 00 00 1A  Length = 4224562 BitCount = 145 ID = 270942272x
   2.407882 CAN 1 Status:chip status error active  - TxErr: 0 RxErr: 1
   2.407890 1  ErrorFrame	Flags = 0xfffe	CodeExt = 0x2072	Code = 0x81	ID = 0x90210040	DLC = 8	Position = 120	Length = 4104390	Data = 0  0  0  0  0  0  0  0
   2.412472 CAN 1 Status:chip status error active
   2.412689 1  10210040x       Rx   d 8 00 00 00 00 00 00 00 00  Length = 4284573 BitCount = 147 ID = 270598208x
   2.418064 1  10220040x       Rx   d 8 10 00 00 00 00 06 00 00  Length = 4288208 BitCount = 147 ID = 270663744x
   2.423047 1  1043A040x       Rx   d 8 00 00 28 00 00 00 00 00  Length = 4288223 BitCount = 147 ID = 272867392x
   2.428030 1  1022E040x       Rx   d 8 00 00 00 00 00 00 00 00  Length = 4318223 BitCount = 148 ID = 270721088x
   2.432774 1  1080A040x       Rx   d 7 00 00 00 00 00 00 00  Length = 4018227 BitCount = 138 ID = 276865088x
   2.436497 1  10734099x       Rx   d 6 14 00 00 7D 00 00  Length = 3598216 BitCount = 124 ID = 275988633x
   2.440879 1  10230040x       Rx   d 8 10 00 00 00 10 00 00 00  Length = 4258208 BitCount = 146 ID = 270729280x
   2.446041 1  106B0040x       Rx   d 1 00  Length = 2308248 BitCount = 81 ID = 275447872x
   2.457984 1  10240040x       Rx   d 8 83 FF 88 01 00 F6 00 00  Length = 4228208 BitCount = 145 ID = 270794816x
   2.477937 1  102CA040x       Rx   d 8 00 40 0A C2 15 00 F1 00  Length = 4134566 BitCount = 142 ID = 271360064x
   2.497985 1  10264040x       Rx   d 8 04 06 00 00 00 00 00 27  Length = 4228223 BitCount = 145 ID = 270942272x
   2.508072 1  10210040x       Rx   d 8 00 00 00 00 00 00 00 00  Length = 4288208 BitCount = 147 ID = 270598208x
   2.512933 1  1022A040x       Rx   d 8 00 B0 00 12 42 00 00 22  Length = 4138208 BitCount = 142 ID = 270704704x
   2.518096 1  10220040x       Rx   d 8 10 00 00 00 00 08 00 00  Length = 4318208 BitCount = 148 ID = 270663744x
   2.522447 1  1022C040x       Rx   d 6 00 10 00 20 00 00  Length = 3688231 BitCount = 127 ID = 270712896x
   2.528028 1  1022E040x       Rx   d 8 20 00 00 00 20 00 00 00  Length = 4288208 BitCount = 147 ID = 270721088x
   2.531390 1  10250040x       Rx   d 2 00 03  Length = 2604654 BitCount = 91 ID = 270860352x
   2.538025 1  10230040x       Rx   d 8 30 00 00 00 30 00 00 00  Length = 4258223 BitCount = 146 ID = 270729280x
   2.542888 1  102CC040x       Rx   d 8 00 09 CF 4F 00 87 06 AB  Length = 4048212 BitCount = 139 ID = 271368256x
   2.547928 1  102CE040x       Rx   d 8 80 00 4F 3F 00 00 26 A9  Length = 4104566 BitCount = 141 ID = 271376448x
   2.553003 1  102D0040x       Rx   d 8 01 6A 01 ED 7C 98 00 FF  Length = 4108223 BitCount = 141 ID = 271384640x
   2.558044 1  10240040x       Rx   d 8 83 FE 88 01 00 F6 0F FC  Length = 4228208 BitCount = 145 ID = 270794816x
   2.563057 1  102E0040x       Rx   d 8 00 31 CA 70 8A 00 63 81  Length = 4138208 BitCount = 142 ID = 271450176x
   2.567048 1  102C0040x       Rx   d 5 AE EF 44 59 03  Length = 3298224 BitCount = 114 ID = 271319104x
   2.572181 1  1038C040x       Rx   d 5 00 00 00 00 7F  Length = 3418220 BitCount = 118 ID = 272154688x
   2.578002 1  102CA040x       Rx   d 8 00 40 0A E3 15 00 F1 00  Length = 4138208 BitCount = 142 ID = 271360064x
   2.580916 1  10308060x       Rx   d 3 44 59 01  Length = 2788247 BitCount = 97 ID = 271614048x
   2.584488 1  10466040x       Rx   d 5 00 00 00 00 00  Length = 3448220 BitCount = 119 ID = 273047616x
   2.587935 1  10304058x       Rx   d 3 44 59 01  Length = 2724642 BitCount = 95 ID = 271597656x
   2.592470 1  C800040x        Rx   d 6 08 CB 00 00 5A B8  Length = 3628231 BitCount = 125 ID = 209715264x
   2.595350 1  10306099x       Rx   d 3 44 59 01  Length = 2754642 BitCount = 96 ID = 271605913x
   2.599700 1  10264040x       Rx   d 8 04 06 00 00 00 00 00 1A  Length = 4224562 BitCount = 145 ID = 270942272x
   2.608106 1  10210040x       Rx   d 8 00 00 00 00 00 00 00 00  Length = 4288208 BitCount = 147 ID = 270598208x
   2.611079 1  106B0040x       Rx   d 1 00  Length = 2308248 BitCount = 81 ID = 275447872x
   2.618128 1  10220040x       Rx   d 8 10 00 00 00 00 08 00 00  Length = 4314558 BitCount = 148 ID = 270663744x
   2.623143 1  106B8040x       Rx   d 8 00 00 00 00 00 00 00 00  Length = 4318208 BitCount = 148 ID = 275480640x
   2.628095 1  1022E040x       Rx   d 8 00 00 00 00 00 00 00 00  Length = 4318208 BitCount = 148 ID = 270721088x
   2.632328 1  106C0040x       Rx   d 5 00 06 0F 07 00  Length = 3448235 BitCount = 119 ID = 275513408x
   2.638029 1  10230040x       Rx   d 8 10 00 00 00 10 00 00 00  Length = 4258223 BitCount = 146 ID = 270729280x
   2.641932 1  1077C040x       Rx   d 4 30 30 01 F4  Length = 3148224 BitCount = 109 ID = 276283456x
   2.648112 1  1043A040x       Rx   d 8 00 00 2A 00 00 00 00 00  Length = 4284562 BitCount = 147 ID = 272867392x
   2.653157 1  10780040x       Rx   d 8 00 00 01 04 08 00 00 22  Length = 4288208 BitCount = 147 ID = 276299840x
   2.658078 1  10240040x       Rx   d 8 83 FE 88 01 00 F6 0F FC  Length = 4228208 BitCount = 145 ID = 270794816x
   2.662577 1  10788040x       Rx   d 6 08 00 00 00 00 00  Length = 3774582 BitCount = 130 ID = 276332608x
   2.667232 1  10806040x       Rx   d 5 00 00 00 00 19  Length = 3418220 BitCount = 118 ID = 276848704x
   2.678007 1  102CA040x       Rx   d 8 00 40 0A E3 15 00 F1 00  Length = 4138208 BitCount = 142 ID = 271360064x
   2.680231 1  13FFE058x       Rx   d 0  Length = 2098271 BitCount = 74 ID = 335536216x
   2.698056 1  10264040x       Rx   d 8 04 06 00 00 00 00 00 1A  Length = 4228208 BitCount = 145 ID = 270942272x
   2.708140 1  10210040x       Rx   d 8 00 00 00 00 00 00 00 00  Length = 4288208 BitCount = 147 ID = 270598208x
   2.718134 1  10220040x       Rx   d 8 10 00 00 00 00 04 00 00  Length = 4318208 BitCount = 148 ID = 270663744x
   2.728069 1  1022E040x       Rx   d 8 20 00 00 00 20 00 00 00  Length = 4288223 BitCount = 147 ID = 270721088x
   2.731102 1  106B0040x       Rx   d 1 00  Length = 2308248 BitCount = 81 ID = 275447872x
   2.738127 1  10230040x       Rx   d 8 30 00 00 00 30 00 00 00  Length = 4258208 BitCount = 146 ID = 270729280x
   2.740317 1  13FFE0AFx       Rx   d 0  Length = 2064714 BitCount = 73 ID = 335536303x
   2.747372 1  621             Rx   d 8 00 52 00 00 00 00 00 00  Length = 3598216 BitCount = 124 ID = 1569
   2.757998 1  1022A040x       Rx   d 8 00 B0 00 12 42 00 00 22  Length = 4138208 BitCount = 142 ID = 270704704x
   2.762621 1  1022C040x       Rx   d 6 00 10 00 20 00 00  Length = 3688216 BitCount = 127 ID = 270712896x
   2.766342 1  108E0080x       Rx   d 6 0E 01 17 02 08 DE  Length = 3594590 BitCount = 124 ID = 277741696x
   2.770695 1  10240040x       Rx   d 8 83 FE 88 01 00 F6 0F FC  Length = 4228208 BitCount = 145 ID = 270794816x
   2.777683 1  10248040x       Rx   d 7 00 00 6D D5 CC 05 00  Length = 3834578 BitCount = 132 ID = 270827584x
   2.783028 1  102CA040x       Rx   d 8 00 40 0A E2 15 00 F1 00  Length = 4108223 BitCount = 141 ID = 271360064x
   2.787983 1  102CC040x       Rx   d 8 00 09 CF 4F 00 87 06 A6  Length = 4048212 BitCount = 139 ID = 271368256x
   2.793236 1  106B8040x       Rx   d 8 00 00 00 00 00 00 00 00  Length = 4318208 BitCount = 148 ID = 275480640x
   2.798101 1  10264040x       Rx   d 8 04 06 00 00 00 00 00 1A  Length = 4228208 BitCount = 145 ID = 270942272x
   2.800325 1  13FFE060x       Rx   d 0  Length = 2098256 BitCount = 74 ID = 335536224x
   2.804553 1  102CE040x       Rx   d 8 80 00 4E 3F 00 00 26 A6  Length = 4104566 BitCount = 141 ID = 271376448x
   2.806748 1  13FFE080x       Rx   d 0  Length = 2068275 BitCount = 73 ID = 335536256x
   2.813141 1  10210040x       Rx   d 8 00 00 00 00 00 00 00 00  Length = 4288208 BitCount = 147 ID = 270598208x
   2.818186 1  10220040x       Rx   d 8 10 00 00 00 00 03 00 00  Length = 4318223 BitCount = 148 ID = 270663744x
   2.821724 1  13FFE099x       Rx   d 0  Length = 2064729 BitCount = 73 ID = 335536281x
   2.828119 1  1022E040x       Rx   d 8 00 00 00 00 00 00 00 00  Length = 4318208 BitCount = 148 ID = 270721088x
   2.833312 1  10780040x       Rx   d 8 00 00 01 04 08 00 00 22  Length = 4288223 BitCount = 147 ID = 276299840x
   2.837483 1  C800040x        Rx   d 6 08 CB 00 00 5A B9  Length = 3598216 BitCount = 124 ID = 209715264x
   2.843126 1  10230040x       Rx   d 8 10 00 00 00 10 00 00 00  Length = 4258208 BitCount = 146 ID = 270729280x
   2.846219 1  106B0040x       Rx   d 1 00  Length = 2308248 BitCount = 81 ID = 275447872x
   2.858134 1  10240040x       Rx   d 8 83 FE 88 01 00 F6 0F FC  Length = 4228223 BitCount = 145 ID = 270794816x
   2.862781 1  10EC4040x       Rx   d 8 4C 41 5A 41 36 39 53 44  Length = 3954574 BitCount = 136 ID = 283918400x
   2.867134 1  102C0040x       Rx   d 5 AE EF 44 59 03  Length = 3298224 BitCount = 114 ID = 271319104x
   2.872715 1  10EC8040x       Rx   d 8 48 42 37 30 31 34 39 36  Length = 3898227 BitCount = 134 ID = 283934784x
   2.878121 1  102CA040x       Rx   d 8 00 40 0A D3 15 00 F1 00  Length = 4078212 BitCount = 140 ID = 271360064x
   2.887843 1  10304058x       Rx   d 3 44 59 01  Length = 2728236 BitCount = 95 ID = 271597656x
   2.892375 1  10306099x       Rx   d 3 44 59 01  Length = 2758236 BitCount = 96 ID = 271605913x
   2.898106 1  10264040x       Rx   d 8 04 06 00 00 00 00 00 27  Length = 4228208 BitCount = 145 ID = 270942272x
   2.901020 1  10308060x       Rx   d 3 44 59 01  Length = 2788236 BitCount = 97 ID = 271614048x
   2.905430 1  1043A040x       Rx   d 8 00 00 2B 00 00 00 00 00  Length = 4284573 BitCount = 147 ID = 272867392x
   2.913171 1  10210040x       Rx   d 8 00 00 00 00 00 00 00 00  Length = 4284562 BitCount = 147 ID = 270598208x
   2.918156 1  10220040x       Rx   d 8 10 00 00 00 00 06 00 00  Length = 4288223 BitCount = 147 ID = 270663744x
   2.928119 1  1022E040x       Rx   d 8 20 00 00 00 20 00 00 00  Length = 4288208 BitCount = 147 ID = 270721088x
   2.933222 1  10734099x       Rx   d 6 14 00 00 7D 00 00  Length = 3598216 BitCount = 124 ID = 275988633x
   2.938115 1  10230040x       Rx   d 8 30 00 00 00 30 00 00 00  Length = 4258208 BitCount = 146 ID = 270729280x
   2.958096 1  10240040x       Rx   d 8 83 FF 88 01 00 F6 0F FC  Length = 4194577 BitCount = 144 ID = 270794816x
   2.961161 1  106B0040x       Rx   d 1 00  Length = 2308248 BitCount = 81 ID = 275447872x
   2.968211 1  106B8040x       Rx   d 8 00 00 00 00 00 00 00 00  Length = 4314573 BitCount = 148 ID = 275480640x
   2.970915 1  13FFE040x       Rx   d 0  Length = 2068260 BitCount = 73 ID = 335536192x
   2.978151 1  102CA040x       Rx   d 8 00 40 0A CE 15 00 F1 00  Length = 4078212 BitCount = 140 ID = 271360064x
   2.998134 1  10264040x       Rx   d 8 04 06 00 00 00 00 00 1A  Length = 4224562 BitCount = 145 ID = 270942272x
   3.000569 1  10244060x       Rx   d 1 02  Length = 2308263 BitCount = 81 ID = 270811232x
   3.008338 1  10210040x       Rx   d 8 00 00 00 00 00 00 00 00  Length = 4284562 BitCount = 147 ID = 270598208x
   3.013053 1  1022A040x       Rx   d 8 00 B0 00 12 42 00 00 22  Length = 4138208 BitCount = 142 ID = 270704704x
   3.018213 1  10220040x       Rx   d 8 10 00 00 00 00 06 00 00  Length = 4284562 BitCount = 147 ID = 270663744x
   3.022564 1  1022C040x       Rx   d 6 00 10 00 20 00 00  Length = 3684586 BitCount = 127 ID = 270712896x
   3.025687 1  10814099x       Rx   d 4 20 33 30 00  Length = 2998228 BitCount = 104 ID = 276906137x
   3.030129 1  1022E040x       Rx   d 8 00 00 00 00 00 00 00 00  Length = 4318208 BitCount = 148 ID = 270721088x
   3.034421 1  10B02099x       Rx   d 8 00 06 07 02 00 00 00 02  Length = 4168208 BitCount = 143 ID = 279978137x
   3.038803 1  10230040x       Rx   d 8 10 00 00 00 10 00 00 00  Length = 4258208 BitCount = 146 ID = 270729280x
   3.048080 1  102CC040x       Rx   d 8 00 09 CF 4A 00 87 06 AA  Length = 4048212 BitCount = 139 ID = 271368256x
   3.048368 1  Statistic: D 1 R 0 XD 157 XR 0 E 3 O 0 B 63.04%
   3.048368 2  Statistic: D 0 R 0 XD 0 XR 0 E 0 O 0 B 0.00%
   3.048368 3  Statistic: D 0 R 0 XD 0 XR 0 E 0 O 0 B 0.00%
   3.053063 1  102CE040x       Rx   d 8 80 00 4E 3F 00 00 26 A9  Length = 4108212 BitCount = 141 ID = 271376448x
   3.056243 1  10AC0099x       Rx   d 4 00 02 07 03  Length = 3058228 BitCount = 106 ID = 279707801x
   3.060563 1  10240040x       Rx   d 8 83 FF 88 01 00 F6 0F FC  Length = 4194562 BitCount = 144 ID = 270794816x
   3.068008 1  102D0040x       Rx   d 8 01 6A 01 ED 7C 9B 00 FF  Length = 4078227 BitCount = 140 ID = 271384640x
   3.072328 1  10806040x       Rx   d 5 00 00 00 00 19  Length = 3414598 BitCount = 118 ID = 276848704x
   3.078093 1  102CA040x       Rx   d 8 00 40 0A DC 15 00 F1 00  Length = 4108212 BitCount = 141 ID = 271360064x
   3.081186 1  106B0040x       Rx   d 1 00  Length = 2308263 BitCount = 81 ID = 275447872x
   3.087549 1  C800040x        Rx   d 6 08 CB 00 00 5A BB  Length = 3598216 BitCount = 124 ID = 209715264x
   3.089522 CAN 1 Status:chip status error active  - TxErr: 0 RxErr: 1
   3.089529 1  ErrorFrame	Flags = 0xfffe	CodeExt = 0x2072	Code = 0x81	ID = 0x93ffe0bb	DLC = 0	Position = 56	Length = 1854375
   3.094113 CAN 1 Status:chip status error active
   3.094331 1  10780040x       Rx   d 8 00 00 01 04 08 00 00 22  Length = 4288208 BitCount = 147 ID = 276299840x
   3.096491 1  13FFE0BBx       Rx   d 0  Length = 2034718 BitCount = 72 ID = 335536315x
   3.103153 1  10264040x       Rx   d 8 04 06 00 00 00 00 00 1A  Length = 4228208 BitCount = 145 ID = 270942272x
   3.108316 1  10210040x       Rx   d 8 00 00 00 00 00 00 00 00  Length = 4288208 BitCount = 147 ID = 270598208x
   3.112694 1  10788040x       Rx   d 6 08 00 00 00 00 00  Length = 3774582 BitCount = 130 ID = 276332608x
   3.118218 1  10220040x       Rx   d 8 10 00 00 00 00 05 00 00  Length = 4288208 BitCount = 147 ID = 270663744x
   3.128153 1  1022E040x       Rx   d 8 20 00 00 00 20 00 00 00  Length = 4288208 BitCount = 147 ID = 270721088x
   3.132624 1  10814099x       Rx   d 4 20 34 30 00  Length = 2994637 BitCount = 104 ID = 276906137x
   3.138147 1  10230040x       Rx   d 8 30 00 00 00 30 00 00 00  Length = 4258208 BitCount = 146 ID = 270729280x
   3.148204 1  1043A040x       Rx   d 8 00 00 2A 00 00 00 00 00  Length = 4288208 BitCount = 147 ID = 272867392x
   3.158138 1  10240040x       Rx   d 8 83 FF 88 01 00 F6 0F FC  Length = 4198208 BitCount = 144 ID = 270794816x
   3.163267 1  106B8040x       Rx   d 8 00 00 00 00 00 00 00 00  Length = 4314558 BitCount = 148 ID = 275480640x
   3.167232 1  102C0040x       Rx   d 5 AE EF 44 59 03  Length = 3298224 BitCount = 114 ID = 271319104x
   3.176022 1  13FFE068x       Rx   d 0  Length = 2064714 BitCount = 73 ID = 335536232x
   3.180284 1  102CA040x       Rx   d 8 00 40 0A BF 15 00 F1 00  Length = 4134566 BitCount = 142 ID = 271360064x
   3.183198 1  10308060x       Rx   d 3 44 59 01  Length = 2788236 BitCount = 97 ID = 271614048x
   3.186381 1  10448060x       Rx   d 4 00 00 45 00  Length = 3058243 BitCount = 106 ID = 272924768x
   3.189231 1  10304058x       Rx   d 3 44 59 01  Length = 2724642 BitCount = 95 ID = 271597656x
   3.191929 1  106D0080x       Rx   d 2 00 00  Length = 2574658 BitCount = 90 ID = 275579008x
   3.194809 1  10306099x       Rx   d 3 44 59 01  Length = 2754642 BitCount = 96 ID = 271605913x
   3.199162 1  10264040x       Rx   d 8 04 06 00 00 00 00 00 26  Length = 4228208 BitCount = 145 ID = 270942272x
   3.208254 1  10210040x       Rx   d 8 00 00 00 00 00 00 00 00  Length = 4288208 BitCount = 147 ID = 270598208x
   3.211227 1  106B0040x       Rx   d 1 00  Length = 2308263 BitCount = 81 ID = 275447872x
   3.218252 1  10220040x       Rx   d 8 10 00 00 00 00 05 00 00  Length = 4288208 BitCount = 147 ID = 270663744x
   3.228219 1  1022E040x       Rx   d 8 00 00 00 00 00 00 00 00  Length = 4318208 BitCount = 148 ID = 270721088x
   3.238183 1  10230040x       Rx   d 8 10 00 00 00 10 00 00 00  Length = 4258208 BitCount = 146 ID = 270729280x
   3.242622 1  10814099x       Rx   d 4 20 37 30 00  Length = 2994622 BitCount = 104 ID = 276906137x
   3.258166 1  1022A040x       Rx   d 8 00 B0 00 12 42 00 00 22  Length = 4134566 BitCount = 142 ID = 270704704x
   3.262641 1  1022C040x       Rx   d 6 00 10 00 20 00 00  Length = 3688216 BitCount = 127 ID = 270712896x
   3.268196 1  10240040x       Rx   d 8 83 FE 88 01 00 F6 00 00  Length = 4228208 BitCount = 145 ID = 270794816x
   3.276331 1  10242040x       Rx   d 1 02  Length = 2308248 BitCount = 81 ID = 270803008x
   3.282846 1  10248040x       Rx   d 7 00 00 6D D5 CC 04 00  Length = 3898227 BitCount = 134 ID = 270827584x
   3.287998 CAN 1 Status:chip status error active  - TxErr: 0 RxErr: 1
   3.288005 1  ErrorFrame	Flags = 0xfffe	CodeExt = 0x2072	Code = 0x81	ID = 0x902ca040	DLC = 8	Position = 120	Length = 3954375	Data = 0  0x40  0xa  0xc4  0x15  0  0xf1  0
   3.292437 CAN 1 Status:chip status error active
   3.292655 1  102CA040x       Rx   d 8 00 40 0A C4 15 00 F1 00  Length = 4134566 BitCount = 142 ID = 271360064x
   3.298210 1  10264040x       Rx   d 8 04 06 00 00 00 00 00 19  Length = 4198208 BitCount = 144 ID = 270942272x
   3.303043 1  102CC040x       Rx   d 8 00 09 CF 4A 00 87 06 A9  Length = 4048212 BitCount = 139 ID = 271368256x
   3.308412 1  10210040x       Rx   d 8 00 00 00 00 00 00 00 00  Length = 4284562 BitCount = 147 ID = 270598208x
   3.313127 1  102CE040x       Rx   d 8 80 00 4D 3F 00 00 26 A9  Length = 4108223 BitCount = 141 ID = 271376448x
   3.318291 1  10220040x       Rx   d 8 10 00 00 00 00 08 00 00  Length = 4318208 BitCount = 148 ID = 270663744x
   3.328253 1  1022E040x       Rx   d 8 20 00 00 00 20 00 00 00  Length = 4288208 BitCount = 147 ID = 270721088x
   3.331346 1  106B0040x       Rx   d 1 00  Length = 2308248 BitCount = 81 ID = 275447872x
   3.337646 1  C800040x        Rx   d 6 08 CB 00 00 5A BD  Length = 3624586 BitCount = 125 ID = 209715264x
   3.343201 1  10230040x       Rx   d 8 30 00 00 00 30 00 00 00  Length = 4258208 BitCount = 146 ID = 270729280x
   3.348420 1  10780040x       Rx   d 8 00 00 01 04 08 00 00 22  Length = 4284562 BitCount = 147 ID = 276299840x
   3.352624 1  10814099x       Rx   d 4 20 3A 30 00  Length = 2998228 BitCount = 104 ID = 276906137x
   3.358206 1  10240040x       Rx   d 8 83 FF 88 01 00 F6 00 00  Length = 4228223 BitCount = 145 ID = 270794816x
   3.363308 1  106B8040x       Rx   d 8 00 00 00 00 00 00 00 00  Length = 4314558 BitCount = 148 ID = 275480640x
   3.378004 CAN 1 Status:chip status error active  - TxErr: 0 RxErr: 1
   3.378011 1  ErrorFrame	Flags = 0xfffe	CodeExt = 0x2072	Code = 0x81	ID = 0x902ca040	DLC = 8	Position = 120	Length = 3924375	Data = 0  0x40  0xa  0xaf  0x15  0  0xf1  0
   3.382413 CAN 1 Status:chip status error active
   3.382630 1  102CA040x       Rx   d 8 00 40 0A AF 15 00 F1 00  Length = 4104566 BitCount = 141 ID = 271360064x
   3.398174 1  10264040x       Rx   d 8 04 06 00 00 00 00 00 19  Length = 4194562 BitCount = 144 ID = 270942272x
   3.403305 1  1043A040x       Rx   d 8 00 00 29 00 00 00 00 00  Length = 4314558 BitCount = 148 ID = 272867392x
   3.408410 1  10210040x       Rx   d 8 00 00 00 00 00 00 00 00  Length = 4288208 BitCount = 147 ID = 270598208x
   3.413001 1  1080A040x       Rx   d 7 00 00 00 00 00 00 00  Length = 4018212 BitCount = 138 ID = 276865088x
   3.418313 1  10220040x       Rx   d 8 10 00 00 00 00 07 00 00  Length = 4314558 BitCount = 148 ID = 270663744x
   3.428279 1  1022E040x       Rx   d 8 00 00 00 00 00 00 00 00  Length = 4318208 BitCount = 148 ID = 270721088x
   3.433232 1  10734099x       Rx   d 6 14 00 00 7D 00 00  Length = 3598216 BitCount = 124 ID = 275988633x
   3.438213 1  10230040x       Rx   d 8 10 00 00 00 10 00 00 00  Length = 4258208 BitCount = 146 ID = 270729280x
   3.446288 1  106B0040x       Rx   d 1 00  Length = 2308248 BitCount = 81 ID = 275447872x
   3.458290 1  10240040x       Rx   d 8 83 FE 88 01 00 F6 0F FC  Length = 4224577 BitCount = 145 ID = 270794816x
   3.467357 1  102C0040x       Rx   d 5 AE EF 44 59 03  Length = 3298224 BitCount = 114 ID = 271319104x
   3.478131 1  102CA040x       Rx   d 8 00 40 0A AB 15 00 F1 00  Length = 4078212 BitCount = 140 ID = 271360064x
   3.481941 1  10324058x       Rx   d 6 00 00 03 FF 00 00  Length = 3684586 BitCount = 127 ID = 271728728x
   3.487793 1  10304058x       Rx   d 3 44 59 01  Length = 2728236 BitCount = 95 ID = 271597656x
   3.492382 1  10306099x       Rx   d 3 44 59 01  Length = 2754642 BitCount = 96 ID = 271605913x
   3.498266 1  10264040x       Rx   d 8 04 06 00 00 00 00 00 26  Length = 4228208 BitCount = 145 ID = 270942272x
   3.501179 1  10308060x       Rx   d 3 44 59 01  Length = 2788236 BitCount = 97 ID = 271614048x
   3.508319 1  10210040x       Rx   d 8 00 00 00 00 00 00 00 00  Length = 4284562 BitCount = 147 ID = 270598208x
   3.513183 1  1022A040x       Rx   d 8 00 B0 00 12 42 00 00 22  Length = 4138208 BitCount = 142 ID = 270704704x
   3.518347 1  10220040x       Rx   d 8 10 00 00 00 00 05 00 00  Length = 4288208 BitCount = 147 ID = 270663744x
   3.522698 1  1022C040x       Rx   d 6 00 10 00 20 00 00  Length = 3684586 BitCount = 127 ID = 270712896x
   3.528283 1  1022E040x       Rx   d 8 20 00 00 00 20 00 00 00  Length = 4288223 BitCount = 147 ID = 270721088x
   3.531616 1  10250040x       Rx   d 2 00 03  Length = 2608255 BitCount = 91 ID = 270860352x
   3.538249 1  10230040x       Rx   d 8 30 00 00 00 30 00 00 00  Length = 4258208 BitCount = 146 ID = 270729280x
   3.543201 1  102CC040x       Rx   d 8 00 09 CF 4A 00 87 06 AB  Length = 4078212 BitCount = 140 ID = 271368256x
   3.548304 1  102CE040x       Rx   d 8 80 00 4D 3F 00 00 26 A9  Length = 4108212 BitCount = 141 ID = 271376448x
   3.553195 1  102D0040x       Rx   d 8 01 69 01 ED 7C 9C 00 FF  Length = 4138208 BitCount = 142 ID = 271384640x
   3.558208 1  10240040x       Rx   d 8 83 FD 88 01 00 F6 0F FC  Length = 4168208 BitCount = 143 ID = 270794816x
   3.563248 1  102E0040x       Rx   d 8 00 31 CA 70 8A 00 63 81  Length = 4134566 BitCount = 142 ID = 271450176x
   3.566343 1  106B0040x       Rx   d 1 00  Length = 2308263 BitCount = 81 ID = 275447872x
   3.573362 1  106B8040x       Rx   d 8 00 00 00 00 00 00 00 00  Length = 4314558 BitCount = 148 ID = 275480640x
   3.578317 1  102CA040x       Rx   d 8 00 40 0A B0 16 00 F1 00  Length = 4138208 BitCount = 142 ID = 271360064x
   3.582518 1  106C0040x       Rx   d 5 00 06 0F 07 00  Length = 3448220 BitCount = 119 ID = 275513408x
   3.587738 1  C800040x        Rx   d 6 08 CB 00 00 5A BF  Length = 3684586 BitCount = 127 ID = 209715264x
   3.592153 1  1077C040x       Rx   d 4 30 30 01 F4  Length = 3148224 BitCount = 109 ID = 276283456x
   3.598244 1  10264040x       Rx   d 8 04 06 00 00 00 00 00 19  Length = 4194562 BitCount = 144 ID = 270942272x
   3.603375 1  10780040x       Rx   d 8 00 00 01 04 08 00 00 22  Length = 4284562 BitCount = 147 ID = 276299840x
   3.608480 1  10210040x       Rx   d 8 00 00 00 00 00 00 00 00  Length = 4288208 BitCount = 147 ID = 270598208x
   3.612798 1  10788040x       Rx   d 6 08 00 00 00 00 00  Length = 3774582 BitCount = 130 ID = 276332608x
   3.618383 1  10220040x       Rx   d 8 10 00 00 00 00 04 00 00  Length = 4318208 BitCount = 148 ID = 270663744x
   3.622466 1  10806040x       Rx   d 5 00 00 00 00 19  Length = 3418220 BitCount = 118 ID = 276848704x
   3.628349 1  1022E040x       Rx   d 8 00 00 00 00 00 00 00 00  Length = 4318208 BitCount = 148 ID = 270721088x
   3.638253 1  10230040x       Rx   d 8 10 00 00 00 10 00 00 00  Length = 4258208 BitCount = 146 ID = 270729280x
   3.648458 1  1043A040x       Rx   d 8 00 00 2B 00 00 00 00 00  Length = 4288208 BitCount = 147 ID = 272867392x
   3.658266 1  10240040x       Rx   d 8 83 FE 88 01 00 F6 0F FC  Length = 4224562 BitCount = 145 ID = 270794816x
   3.678339 1  102CA040x       Rx   d 8 00 40 0A C8 16 00 F1 00  Length = 4134566 BitCount = 142 ID = 271360064x
   3.681344 1  106B0040x       Rx   d 1 00  Length = 2308248 BitCount = 81 ID = 275447872x
   3.698270 1  10264040x       Rx   d 8 04 06 00 00 00 00 00 1A  Length = 4228208 BitCount = 145 ID = 270942272x
   3.708414 1  10210040x       Rx   d 8 00 00 00 00 00 00 00 00  Length = 4288208 BitCount = 147 ID = 270598208x
   3.718349 1  10220040x       Rx   d 8 10 00 00 00 00 06 00 00  Length = 4288208 BitCount = 147 ID = 270663744x
   3.728343 1  1022E040x       Rx   d 8 20 00 00 00 20 00 00 00  Length = 4288208 BitCount = 147 ID = 270721088x
   3.738278 1  10230040x       Rx   d 8 30 00 00 00 30 00 00 00  Length = 4258208 BitCount = 146 ID = 270729280x
   3.747642 1  621             Rx   d 8 00 52 00 00 00 00 00 00  Length = 3598231 BitCount = 124 ID = 1569
   3.758236 1  1022A040x       Rx   d 8 00 B0 00 12 42 00 00 22  Length = 4138208 BitCount = 142 ID = 270704704x
   3.762742 1  1022C040x       Rx   d 6 00 10 00 20 00 00  Length = 3688231 BitCount = 127 ID = 270712896x
   3.766521 1  108E0080x       Rx   d 6 0E 01 17 02 08 DF  Length = 3654586 BitCount = 126 ID = 277741696x
   3.770872 1  10240040x       Rx   d 8 83 FE 88 01 00 F6 0F FC  Length = 4224562 BitCount = 145 ID = 270794816x
   3.778041 1  10248040x       Rx   d 7 00 00 6D D5 CC 06 00  Length = 3864578 BitCount = 133 ID = 270827584x
   3.782363 1  102C0040x       Rx   d 5 AE EF 44 59 03  Length = 3294606 BitCount = 114 ID = 271319104x
   3.788244 1  102CA040x       Rx   d 8 00 40 0A CF 16 00 F1 00  Length = 4074566 BitCount = 140 ID = 271360064x
   3.793169 1  102CC040x       Rx   d 8 00 09 CF 4A 00 87 06 A9  Length = 4048212 BitCount = 139 ID = 271368256x
   3.798328 1  10264040x       Rx   d 8 04 06 00 00 00 00 00 1A  Length = 4224577 BitCount = 145 ID = 270942272x
   3.803283 1  102CE040x       Rx   d 8 80 00 4C 3F 00 00 26 A8  Length = 4138208 BitCount = 142 ID = 271376448x
   3.808443 1  10210040x       Rx   d 8 00 00 00 00 00 00 00 00  Length = 4284562 BitCount = 147 ID = 270598208x
   3.811292 1  10304058x       Rx   d 3 44 59 01  Length = 2724657 BitCount = 95 ID = 271597656x
   3.813726 1  106B0040x       Rx   d 1 00  Length = 2308263 BitCount = 81 ID = 275447872x
   3.818377 1  10220040x       Rx   d 8 10 00 00 00 00 05 00 00  Length = 4288208 BitCount = 147 ID = 270663744x
   3.821288 1  10308060x       Rx   d 3 44 59 01  Length = 2784638 BitCount = 97 ID = 271614048x
   3.825727 1  106B8040x       Rx   d 8 00 00 00 00 00 00 00 00  Length = 4314558 BitCount = 148 ID = 275480640x
   3.833379 1  1022E040x       Rx   d 8 00 00 00 00 00 00 00 00  Length = 4314558 BitCount = 148 ID = 270721088x
   3.837790 1  C800040x        Rx   d 6 08 CB 00 00 5A C0  Length = 3654586 BitCount = 126 ID = 209715264x
   3.843435 1  10230040x       Rx   d 8 10 00 00 00 10 00 00 00  Length = 4258208 BitCount = 146 ID = 270729280x
   3.846313 1  10306099x       Rx   d 3 44 59 01  Length = 2754642 BitCount = 96 ID = 271605913x
   3.850723 1  10780040x       Rx   d 8 00 00 01 04 08 00 00 22  Length = 4284562 BitCount = 147 ID = 276299840x
   3.858348 1  10240040x       Rx   d 8 83 FE 88 01 00 F6 0F FC  Length = 4228208 BitCount = 145 ID = 270794816x
   3.878360 1  102CA040x       Rx   d 8 00 40 0A 86 15 00 F1 00  Length = 4104566 BitCount = 141 ID = 271360064x
   3.880584 1  13FFE058x       Rx   d 0  Length = 2098256 BitCount = 74 ID = 335536216x
   3.898320 1  10264040x       Rx   d 8 04 06 00 00 00 00 00 27  Length = 4228208 BitCount = 145 ID = 270942272x
   3.903453 1  1043A040x       Rx   d 8 00 00 2C 00 00 00 00 00  Length = 4348208 BitCount = 149 ID = 272867392x
   3.908554 1  10210040x       Rx   d 8 00 00 00 00 00 00 00 00  Length = 4288208 BitCount = 147 ID = 270598208x
   3.918206 CAN 1 Status:chip status error active  - TxErr: 0 RxErr: 1
   3.918213 1  ErrorFrame	Flags = 0xfffe	CodeExt = 0x2072	Code = 0x81	ID = 0x90220040	DLC = 8	Position = 120	Length = 4104375	Data = 0x10  0  0  0  0  0x6  0  0
   3.922795 CAN 1 Status:chip status error active
   3.923012 1  10220040x       Rx   d 8 10 00 00 00 00 06 00 00  Length = 4284562 BitCount = 147 ID = 270663744x
   3.928387 1  1022E040x       Rx   d 8 20 00 00 00 20 00 00 00  Length = 4288208 BitCount = 147 ID = 270721088x
   3.931391 1  106B0040x       Rx   d 1 00  Length = 2308248 BitCount = 81 ID = 275447872x
   3.935111 1  10734099x       Rx   d 6 14 00 00 7D 00 00  Length = 3594590 BitCount = 124 ID = 275988633x
   3.939490 1  10230040x       Rx   d 8 30 00 00 00 30 00 00 00  Length = 4254562 BitCount = 146 ID = 270729280x
   3.941685 1  13FFE0AFx       Rx   d 0  Length = 2068260 BitCount = 73 ID = 335536303x
   3.958490 1  10240040x       Rx   d 8 83 FE 88 01 00 F6 0F FC  Length = 4228208 BitCount = 145 ID = 270794816x
   3.963444 1  106B8040x       Rx   d 8 00 00 00 00 00 00 00 00  Length = 4318208 BitCount = 148 ID = 275480640x
   3.978359 1  102CA040x       Rx   d 8 00 40 0A BC 15 00 F1 00  Length = 4138208 BitCount = 142 ID = 271360064x
   3.998344 1  10264040x       Rx   d 8 04 06 00 00 00 00 00 1A  Length = 4224562 BitCount = 145 ID = 270942272x
   4.000569 1  13FFE060x       Rx   d 0  Length = 2098271 BitCount = 74 ID = 335536224x
   4.002441 Li SleepModeEvent 0 entering sleep mode due to bus idle timeout
   4.002760 1  13FFE080x       Rx   d 0  Length = 2068260 BitCount = 73 ID = 335536256x
   4.008553 1  10210040x       Rx   d 8 00 00 00 00 00 00 00 00  Length = 4288208 BitCount = 147 ID = 270598208x
   4.013296 1  1022A040x       Rx   d 8 00 B0 00 12 42 00 00 22  Length = 4138208 BitCount = 142 ID = 270704704x
   4.018517 1  10220040x       Rx   d 8 10 00 00 00 00 06 00 00  Length = 4284562 BitCount = 147 ID = 270663744x
   4.022808 1  1022C040x       Rx   d 6 00 10 00 20 00 00  Length = 3684586 BitCount = 127 ID = 270712896x
   4.025002 1  13FFE099x       Rx   d 0  Length = 2068260 BitCount = 73 ID = 335536281x
   4.029254 CAN 1 Status:chip status error active  - TxErr: 0 RxErr: 1
   4.029262 1  ErrorFrame	Flags = 0xfffe	CodeExt = 0x2072	Code = 0x81	ID = 0x9022e040	DLC = 8	Position = 120	Length = 4134390	Data = 0  0  0  0  0  0  0  0
   4.033873 CAN 1 Status:chip status error active
   4.034091 1  1022E040x       Rx   d 8 00 00 00 00 00 00 00 00  Length = 4314573 BitCount = 148 ID = 270721088x
   4.043395 1  10230040x       Rx   d 8 10 00 00 00 10 00 00 00  Length = 4258208 BitCount = 146 ID = 270729280x
   4.048368 1  Statistic: D 1 R 0 XD 153 XR 0 E 5 O 0 B 62.39%
   4.048368 2  Statistic: D 0 R 0 XD 0 XR 0 E 0 O 0 B 0.00%
   4.048368 3  Statistic: D 0 R 0 XD 0 XR 0 E 0 O 0 B 0.00%
   4.048378 1  102CC040x       Rx   d 8 00 09 CF 45 00 87 06 A9  Length = 4078227 BitCount = 140 ID = 271368256x
   4.053331 1  102CE040x       Rx   d 8 80 00 4C 3F 00 00 26 A9  Length = 4138223 BitCount = 142 ID = 271376448x
   4.058403 1  10240040x       Rx   d 8 83 FE 88 01 00 F6 00 00  Length = 4228208 BitCount = 145 ID = 270794816x
   4.063296 1  102D0040x       Rx   d 8 01 6A 01 ED 7C 9E 00 FF  Length = 4138208 BitCount = 142 ID = 271384640x
   4.067467 1  102C0040x       Rx   d 5 AE EF 44 59 03  Length = 3298224 BitCount = 114 ID = 271319104x
   4.071430 1  106B0040x       Rx   d 1 00  Length = 2308263 BitCount = 81 ID = 275447872x
   4.078453 1  102CA040x       Rx   d 8 00 40 0A AA 16 00 F1 00  Length = 4108212 BitCount = 141 ID = 271360064x
   4.083499 1  10780040x       Rx   d 8 00 00 01 04 08 00 00 22  Length = 4288208 BitCount = 147 ID = 276299840x
   4.087790 1  C800040x        Rx   d 6 08 CB 00 00 5A C2  Length = 3598216 BitCount = 124 ID = 209715264x
   4.090637 1  10304058x       Rx   d 3 44 59 01  Length = 2724642 BitCount = 95 ID = 271597656x
   4.093521 1  10306099x       Rx   d 3 44 59 01  Length = 2758236 BitCount = 96 ID = 271605913x
   4.097424 1  10788040x       Rx   d 6 08 00 00 00 00 00  Length = 3778231 BitCount = 130 ID = 276332608x
   4.100338 1  10308060x       Rx   d 3 44 59 01  Length = 2788247 BitCount = 97 ID = 271614048x
   4.104688 1  10264040x       Rx   d 8 04 06 00 00 00 00 00 1A  Length = 4224562 BitCount = 145 ID = 270942272x
   4.113450 1  10210040x       Rx   d 8 00 00 00 00 00 00 00 00  Length = 4284562 BitCount = 147 ID = 270598208x
   4.118491 1  10220040x       Rx   d 8 10 00 00 00 00 07 00 00  Length = 4314558 BitCount = 148 ID = 270663744x
   4.122576 1  10806040x       Rx   d 5 00 00 00 00 19  Length = 3418220 BitCount = 118 ID = 276848704x
   4.128430 1  1022E040x       Rx   d 8 20 00 00 00 20 00 00 00  Length = 4288208 BitCount = 147 ID = 270721088x
   4.138392 1  10230040x       Rx   d 8 30 00 00 00 30 00 00 00  Length = 4258208 BitCount = 146 ID = 270729280x
   4.148536 1  1043A040x       Rx   d 8 00 00 2A 00 00 00 00 00  Length = 4288208 BitCount = 147 ID = 272867392x
   4.158411 1  10240040x       Rx   d 8 83 FE 88 01 00 F6 00 00  Length = 4228208 BitCount = 145 ID = 270794816x
   4.163512 1  106B8040x       Rx   d 8 00 00 00 00 00 00 00 00  Length = 4314558 BitCount = 148 ID = 275480640x
   4.167262 1  624             Rx   d 8 00 20 00 00 00 00 00 00  Length = 3624586 BitCount = 125 ID = 1572
   4.169456 1  13FFE040x       Rx   d 0  Length = 2068260 BitCount = 73 ID = 335536192x
   4.178339 1  102CA040x       Rx   d 8 00 40 0A A1 16 00 F1 00  Length = 4078212 BitCount = 140 ID = 271360064x
   4.181523 1  10448060x       Rx   d 4 00 00 45 00  Length = 3058228 BitCount = 106 ID = 272924768x
   4.186448 1  106B0040x       Rx   d 1 00  Length = 2308248 BitCount = 81 ID = 275447872x
   4.198420 1  10264040x       Rx   d 8 04 06 00 00 00 00 00 27  Length = 4228208 BitCount = 145 ID = 270942272x
   4.208535 1  10210040x       Rx   d 8 00 00 00 00 00 00 00 00  Length = 4288208 BitCount = 147 ID = 270598208x
   4.218467 1  10220040x       Rx   d 8 10 00 00 00 00 06 00 00  Length = 4288208 BitCount = 147 ID = 270663744x
   4.228463 1  1022E040x       Rx   d 8 00 00 00 00 00 00 00 00  Length = 4318223 BitCount = 148 ID = 270721088x
   4.238398 1  10230040x       Rx   d 8 10 00 00 00 10 00 00 00  Length = 4258208 BitCount = 146 ID = 270729280x
   4.258445 1  1022A040x       Rx   d 8 00 B0 00 12 42 00 00 22  Length = 4138208 BitCount = 142 ID = 270704704x
   4.262856 1  1022C040x       Rx   d 6 00 10 00 20 00 00  Length = 3684597 BitCount = 127 ID = 270712896x
   4.268471 1  10240040x       Rx   d 8 83 FE 88 01 00 F6 0F FC  Length = 4228223 BitCount = 145 ID = 270794816x
   4.273811 1  10B02099x       Rx   d 8 00 06 07 02 00 00 00 03  Length = 4164581 BitCount = 143 ID = 279978137x
   4.278073 1  10248040x       Rx   d 7 00 00 6C D5 CC 06 00  Length = 3838212 BitCount = 132 ID = 270827584x
   4.283357 1  102CA040x       Rx   d 8 00 40 0A 96 16 00 F1 00  Length = 4078212 BitCount = 140 ID = 271360064x
   4.288282 1  102CC040x       Rx   d 8 00 09 CF 45 00 87 06 AC  Length = 4048212 BitCount = 139 ID = 271368256x
   4.292693 1  10AC0099x       Rx   d 4 00 02 07 03  Length = 3058228 BitCount = 106 ID = 279707801x
   4.294850 1  13FFE0BBx       Rx   d 0  Length = 2034718 BitCount = 72 ID = 335536315x
   4.299199 1  10264040x       Rx   d 8 04 06 00 00 00 00 00 1A  Length = 4224562 BitCount = 145 ID = 270942272x
   4.308625 1  10210040x       Rx   d 8 00 00 00 00 00 00 00 00  Length = 4288208 BitCount = 147 ID = 270598208x
   4.313366 1  102CE040x       Rx   d 8 80 00 4B 3F 00 00 26 AA  Length = 4108212 BitCount = 141 ID = 271376448x
   4.318529 1  10220040x       Rx   d 8 10 00 00 00 00 04 00 00  Length = 4318208 BitCount = 148 ID = 270663744x
   4.321500 1  106B0040x       Rx   d 1 00  Length = 2308248 BitCount = 81 ID = 275447872x
   4.328492 1  1022E040x       Rx   d 8 20 00 00 00 20 00 00 00  Length = 4284562 BitCount = 147 ID = 270721088x
   4.333683 1  10780040x       Rx   d 8 00 00 01 04 08 00 00 22  Length = 4284573 BitCount = 147 ID = 276299840x
   4.337824 1  C800040x        Rx   d 6 08 CB 00 00 5A C4  Length = 3594590 BitCount = 124 ID = 209715264x
   4.343469 1  10230040x       Rx   d 8 30 00 00 00 30 00 00 00  Length = 4258223 BitCount = 146 ID = 270729280x
   4.352653 1  10814099x       Rx   d 4 20 3D 30 00  Length = 3028228 BitCount = 105 ID = 276906137x
   4.358447 1  10240040x       Rx   d 8 83 FE 88 01 00 F6 0F FC  Length = 4228208 BitCount = 145 ID = 270794816x
   4.363550 1  106B8040x       Rx   d 8 00 00 00 00 00 00 00 00  Length = 4318208 BitCount = 148 ID = 275480640x
   4.367541 1  102C0040x       Rx   d 5 AE EF 44 59 03  Length = 3298239 BitCount = 114 ID = 271319104x
   4.376004 1  13FFE068x       Rx   d 0  Length = 2068260 BitCount = 73 ID = 335536232x
   4.380204 1  102CA040x       Rx   d 8 00 40 0A 8D 16 00 F1 00  Length = 4074566 BitCount = 140 ID = 271360064x
   4.383115 1  10308060x       Rx   d 3 44 59 01  Length = 2784638 BitCount = 97 ID = 271614048x
   4.385813 1  106D0080x       Rx   d 2 00 00  Length = 2574658 BitCount = 90 ID = 275579008x
   4.388663 1  10304058x       Rx   d 3 44 59 01  Length = 2724642 BitCount = 95 ID = 271597656x
   4.392352 1  10306099x       Rx   d 3 44 59 01  Length = 2754642 BitCount = 96 ID = 271605913x
   4.398446 1  10264040x       Rx   d 8 04 06 00 00 00 00 00 1A  Length = 4228208 BitCount = 145 ID = 270942272x
   4.402198 1  62C             Rx   d 8 00 40 00 00 00 00 00 00  Length = 3628216 BitCount = 125 ID = 1580
   4.406612 1  1043A040x       Rx   d 8 00 00 2A 00 00 00 00 00  Length = 4288208 BitCount = 147 ID = 272867392x
   4.413544 1  10210040x       Rx   d 8 00 00 00 00 00 00 00 00  Length = 4284573 BitCount = 147 ID = 270598208x
   4.417234 1  631             Rx   d 8 00 40 00 00 00 00 00 00  Length = 3564605 BitCount = 123 ID = 1585
   4.421674 1  10220040x       Rx   d 8 10 00 00 00 00 04 00 00  Length = 4314558 BitCount = 148 ID = 270663744x
   4.428516 1  1022E040x       Rx   d 8 00 00 00 00 00 00 00 00  Length = 4314558 BitCount = 148 ID = 270721088x
   4.433261 1  1080A040x       Rx   d 7 00 00 00 00 00 00 00  Length = 4018212 BitCount = 138 ID = 276865088x
   4.436985 1  10734099x       Rx   d 6 14 00 00 7D 00 00  Length = 3598216 BitCount = 124 ID = 275988633x
   4.441365 1  10230040x       Rx   d 8 10 00 00 00 10 00 00 00  Length = 4254562 BitCount = 146 ID = 270729280x
   4.446527 1  106B0040x       Rx   d 1 00  Length = 2304686 BitCount = 81 ID = 275447872x
   4.458559 1  10240040x       Rx   d 8 83 FE 88 01 00 F6 00 00  Length = 4224562 BitCount = 145 ID = 270794816x
   4.462703 1  10814099x       Rx   d 4 20 40 30 00  Length = 3088228 BitCount = 107 ID = 276906137x
   4.478430 1  102CA040x       Rx   d 8 00 40 0A A7 16 00 F1 00  Length = 4108212 BitCount = 141 ID = 271360064x
   4.498287 CAN 1 Status:chip status error active  - TxErr: 0 RxErr: 1
   4.498295 1  ErrorFrame	Flags = 0xfffe	CodeExt = 0x2072	Code = 0x81	ID = 0x90264040	DLC = 8	Position = 120	Length = 4044375	Data = 0x4  0x6  0  0  0  0  0  0x1a
   4.502816 CAN 1 Status:chip status error active
   4.502846 CAN 1 Status:chip status error active  - TxErr: 0 RxErr: 1
   4.502854 1  ErrorFrame	Flags = 0xfffe	CodeExt = 0x2072	Code = 0x81	ID = 0x90264040	DLC = 8	Position = 120	Length = 4044390	Data = 0x4  0x6  0  0  0  0  0  0x1a
   4.507375 CAN 1 Status:chip status error active
   4.507593 1  10264040x       Rx   d 8 04 06 00 00 00 00 00 1A  Length = 4224562 BitCount = 145 ID = 270942272x
   4.513564 1  10210040x       Rx   d 8 00 00 00 00 00 00 00 00  Length = 4284562 BitCount = 147 ID = 270598208x
   4.518579 1  10220040x       Rx   d 8 10 00 00 00 00 06 00 00  Length = 4288208 BitCount = 147 ID = 270663744x
   4.523410 1  1022A040x       Rx   d 8 00 B0 00 12 42 00 00 22  Length = 4138208 BitCount = 142 ID = 270704704x
   4.527940 1  1022C040x       Rx   d 6 00 10 00 20 00 00  Length = 3684597 BitCount = 127 ID = 270712896x
   4.533525 1  1022E040x       Rx   d 8 20 00 00 00 20 00 00 00  Length = 4288208 BitCount = 147 ID = 270721088x
   4.538508 1  10230040x       Rx   d 8 30 00 00 00 30 00 00 00  Length = 4258223 BitCount = 146 ID = 270729280x
   4.541838 1  10250040x       Rx   d 2 00 03  Length = 2604669 BitCount = 91 ID = 270860352x
   4.548473 1  102CC040x       Rx   d 8 00 09 CF 45 00 87 06 A9  Length = 4078212 BitCount = 140 ID = 271368256x
   4.553426 1  102CE040x       Rx   d 8 80 00 4B 3F 00 00 26 AA  Length = 4108212 BitCount = 141 ID = 271376448x
   4.558527 1  10240040x       Rx   d 8 83 FE 88 01 00 F6 0F FC  Length = 4228223 BitCount = 145 ID = 270794816x
   4.563420 1  102D0040x       Rx   d 8 01 6A 01 ED 7C 9E 00 FF  Length = 4138208 BitCount = 142 ID = 271384640x
   4.568551 1  102E0040x       Rx   d 8 00 31 CA 70 8A 00 63 81  Length = 4138208 BitCount = 142 ID = 271450176x
   4.572691 1  10466040x       Rx   d 5 00 00 00 00 00  Length = 3444598 BitCount = 119 ID = 273047616x
   4.575815 1  10814099x       Rx   d 4 20 43 30 00  Length = 2998243 BitCount = 104 ID = 276906137x
   4.580018 1  102CA040x       Rx   d 8 00 40 0A B7 16 00 F1 00  Length = 4078212 BitCount = 140 ID = 271360064x
   4.587936 1  C800040x        Rx   d 6 08 CB 00 00 5A C5  Length = 3624586 BitCount = 125 ID = 209715264x
   4.591541 1  106B0040x       Rx   d 1 00  Length = 2308248 BitCount = 81 ID = 275447872x
   4.598503 1  10264040x       Rx   d 8 04 06 00 00 00 00 00 27  Length = 4224562 BitCount = 145 ID = 270942272x
   4.603608 1  106B8040x       Rx   d 8 00 00 00 00 00 00 00 00  Length = 4318208 BitCount = 148 ID = 275480640x
   4.608649 1  10210040x       Rx   d 8 00 00 00 00 00 00 00 00  Length = 4288208 BitCount = 147 ID = 270598208x
   4.612702 1  106C0040x       Rx   d 5 00 06 0F 07 00  Length = 3448220 BitCount = 119 ID = 275513408x
   4.618583 1  10220040x       Rx   d 8 10 00 00 00 00 05 00 00  Length = 4288208 BitCount = 147 ID = 270663744x
   4.622396 1  1077C040x       Rx   d 4 30 30 01 F4  Length = 3148239 BitCount = 109 ID = 276283456x
   4.628576 1  1022E040x       Rx   d 8 00 00 00 00 00 00 00 00  Length = 4314558 BitCount = 148 ID = 270721088x
   4.633707 1  10780040x       Rx   d 8 00 00 01 04 08 00 00 22  Length = 4284573 BitCount = 147 ID = 276299840x
   4.638512 1  10230040x       Rx   d 8 10 00 00 00 10 00 00 00  Length = 4258208 BitCount = 146 ID = 270729280x
   4.643105 1  10788040x       Rx   d 6 08 00 00 00 00 00  Length = 3778216 BitCount = 130 ID = 276332608x
   4.648570 1  1043A040x       Rx   d 8 00 00 2D 00 00 00 00 00  Length = 4288223 BitCount = 147 ID = 272867392x
   4.652714 1  10806040x       Rx   d 5 00 00 00 00 19  Length = 3418220 BitCount = 118 ID = 276848704x
   4.658537 1  10240040x       Rx   d 8 83 FE 88 01 00 F6 0F FC  Length = 4228208 BitCount = 145 ID = 270794816x
   4.667541 1  102C0040x       Rx   d 5 AE EF 44 59 03  Length = 3298224 BitCount = 114 ID = 271319104x
   4.678466 1  102CA040x       Rx   d 8 00 40 0A CA 16 00 F1 00  Length = 4108212 BitCount = 141 ID = 271360064x
   4.682607 1  10814099x       Rx   d 4 20 44 30 00  Length = 2998243 BitCount = 104 ID = 276906137x
   4.687375 1  10304058x       Rx   d 3 44 59 01  Length = 2724642 BitCount = 95 ID = 271597656x
   4.692359 1  10306099x       Rx   d 3 44 59 01  Length = 2758236 BitCount = 96 ID = 271605913x
   4.698321 CAN 1 Status:chip status error active  - TxErr: 0 RxErr: 1
   4.698329 1  ErrorFrame	Flags = 0xfffe	CodeExt = 0x2072	Code = 0x81	ID = 0x90264040	DLC = 8	Position = 120	Length = 4044390	Data = 0x4  0x6  0  0  0  0  0  0x1a
   4.702850 CAN 1 Status:chip status error active
   4.703068 1  10264040x       Rx   d 8 04 06 00 00 00 00 00 1A  Length = 4224577 BitCount = 145 ID = 270942272x
   4.705982 1  10308060x       Rx   d 3 44 59 01  Length = 2788247 BitCount = 97 ID = 271614048x
   4.710392 1  10210040x       Rx   d 8 00 00 00 00 00 00 00 00  Length = 4284562 BitCount = 147 ID = 270598208x
   4.718587 1  10220040x       Rx   d 8 10 00 00 00 00 06 00 00  Length = 4288208 BitCount = 147 ID = 270663744x
   4.721590 1  106B0040x       Rx   d 1 00  Length = 2308248 BitCount = 81 ID = 275447872x
   4.728556 1  1022E040x       Rx   d 8 20 00 00 00 20 00 00 00  Length = 4288208 BitCount = 147 ID = 270721088x
   4.738552 1  10230040x       Rx   d 8 30 00 00 00 30 00 00 00  Length = 4258208 BitCount = 146 ID = 270729280x
   4.747856 1  621             Rx   d 8 00 52 00 00 00 00 00 00  Length = 3598216 BitCount = 124 ID = 1569
   4.758511 1  1022A040x       Rx   d 8 00 B0 00 12 42 00 00 22  Length = 4138208 BitCount = 142 ID = 270704704x
   4.762980 1  1022C040x       Rx   d 6 00 10 00 20 00 00  Length = 3684586 BitCount = 127 ID = 270712896x
   4.766730 1  108E0080x       Rx   d 6 0E 01 17 02 08 E0  Length = 3624586 BitCount = 125 ID = 277741696x
   4.771080 1  10240040x       Rx   d 8 83 FE 88 01 00 F6 0F FC  Length = 4224562 BitCount = 145 ID = 270794816x
   4.778286 1  10248040x       Rx   d 7 00 00 6C D5 CC 05 00  Length = 3868212 BitCount = 133 ID = 270827584x
   4.783479 1  102CA040x       Rx   d 8 00 40 0A A1 16 00 F1 00  Length = 4078212 BitCount = 140 ID = 271360064x
   4.788460 1  102CC040x       Rx   d 8 00 09 CF 45 00 87 06 A8  Length = 4078212 BitCount = 140 ID = 271368256x
   4.793650 1  106B8040x       Rx   d 8 00 00 00 00 00 00 00 00  Length = 4314558 BitCount = 148 ID = 275480640x
   4.798575 1  10264040x       Rx   d 8 04 06 00 00 00 00 00 1A  Length = 4228208 BitCount = 145 ID = 270942272x
   4.803498 1  102CE040x       Rx   d 8 80 00 4B 3F 00 00 26 AA  Length = 4108212 BitCount = 141 ID = 271376448x
   4.808779 1  10210040x       Rx   d 8 00 00 00 00 00 00 00 00  Length = 4288208 BitCount = 147 ID = 270598208x
   4.818621 1  10220040x       Rx   d 8 10 00 00 00 00 06 00 00  Length = 4288208 BitCount = 147 ID = 270663744x
   4.828648 1  1022E040x       Rx   d 8 00 00 00 00 00 00 00 00  Length = 4318208 BitCount = 148 ID = 270721088x
   4.833777 1  10780040x       Rx   d 8 00 00 01 04 08 00 00 22  Length = 4284562 BitCount = 147 ID = 276299840x
   4.838009 1  C800040x        Rx   d 6 08 CB 00 00 5A C7  Length = 3654586 BitCount = 126 ID = 209715264x
   4.843623 1  10230040x       Rx   d 8 10 00 00 00 10 00 00 00  Length = 4258208 BitCount = 146 ID = 270729280x
   4.846717 1  106B0040x       Rx   d 1 00  Length = 2308248 BitCount = 81 ID = 275447872x
   4.858571 1  10240040x       Rx   d 8 83 FF 88 01 00 F6 0F FC  Length = 4198208 BitCount = 144 ID = 270794816x
   4.878618 1  102CA040x       Rx   d 8 00 40 0A B4 16 00 F1 00  Length = 4168223 BitCount = 143 ID = 271360064x
   4.898543 1  10264040x       Rx   d 8 04 06 00 00 00 00 00 28  Length = 4194562 BitCount = 144 ID = 270942272x
   4.903704 1  1043A040x       Rx   d 8 00 00 2C 00 00 00 00 00  Length = 4344558 BitCount = 149 ID = 272867392x
   4.908749 1  10210040x       Rx   d 8 00 00 00 00 00 00 00 00  Length = 4288223 BitCount = 147 ID = 270598208x
   4.918651 1  10220040x       Rx   d 8 10 00 00 00 00 08 00 00  Length = 4318223 BitCount = 148 ID = 270663744x
   4.928588 1  1022E040x       Rx   d 8 20 00 00 00 20 00 00 00  Length = 4288223 BitCount = 147 ID = 270721088x
   4.933206 1  10734099x       Rx   d 6 14 00 00 7D 00 00  Length = 3594590 BitCount = 124 ID = 275988633x
   4.938610 1  10230040x       Rx   d 8 30 00 00 00 30 00 00 00  Length = 4258208 BitCount = 146 ID = 270729280x
   4.958569 1  10240040x       Rx   d 8 83 FF 88 01 00 F6 0F FC  Length = 4198208 BitCount = 144 ID = 270794816x
   4.961634 1  106B0040x       Rx   d 1 00  Length = 2308263 BitCount = 81 ID = 275447872x
   4.967724 1  102C0040x       Rx   d 5 AE EF 44 59 03  Length = 3294617 BitCount = 114 ID = 271319104x
   4.973699 1  106B8040x       Rx   d 8 00 00 00 00 00 00 00 00  Length = 4318208 BitCount = 148 ID = 275480640x
   4.978590 1  102CA040x       Rx   d 8 00 40 0A C1 16 00 F1 00  Length = 4108212 BitCount = 141 ID = 271360064x
   4.981499 1  10308060x       Rx   d 3 44 59 01  Length = 2784638 BitCount = 97 ID = 271614048x
   4.992358 1  10306099x       Rx   d 3 44 59 01  Length = 2754642 BitCount = 96 ID = 271605913x
   4.998603 1  10264040x       Rx   d 8 04 06 00 00 00 00 00 1B  Length = 4228208 BitCount = 145 ID = 270942272x
   5.001453 1  10304058x       Rx   d 3 44 59 01  Length = 2724642 BitCount = 95 ID = 271597656x
   5.008657 1  10210040x       Rx   d 8 00 00 00 00 00 00 00 00  Length = 4288208 BitCount = 147 ID = 270598208x
   5.013550 1  1022A040x       Rx   d 8 00 B0 00 12 42 00 00 22  Length = 4138208 BitCount = 142 ID = 270704704x
   5.018744 1  10220040x       Rx   d 8 10 00 00 00 00 05 00 00  Length = 4288223 BitCount = 147 ID = 270663744x
   5.023065 1  1022C040x       Rx   d 6 00 10 00 20 00 00  Length = 3688216 BitCount = 127 ID = 270712896x
   5.028676 1  1022E040x       Rx   d 8 00 00 00 00 00 00 00 00  Length = 4318208 BitCount = 148 ID = 270721088x
   5.038612 1  10230040x       Rx   d 8 10 00 00 00 10 00 00 00  Length = 4258208 BitCount = 146 ID = 270729280x
   5.043596 1  102CC040x       Rx   d 8 00 09 CF 3F 00 87 06 A8  Length = 4078212 BitCount = 140 ID = 271368256x
   5.048369 1  Statistic: D 4 R 0 XD 156 XR 0 E 3 O 0 B 64.02%
   5.048369 2  Statistic: D 0 R 0 XD 0 XR 0 E 0 O 0 B 0.00%
   5.048369 3  Statistic: D 0 R 0 XD 0 XR 0 E 0 O 0 B 0.00%
   5.048697 1  102CE040x       Rx   d 8 80 00 4A 3F 00 00 26 A7  Length = 4138208 BitCount = 142 ID = 271376448x
   5.053530 1  102D0040x       Rx   d 8 01 6A 01 ED 7C 9E 00 FF  Length = 4138208 BitCount = 142 ID = 271384640x
   5.058659 1  10240040x       Rx   d 8 83 FF 88 01 00 F6 0F FC  Length = 4194577 BitCount = 144 ID = 270794816x
   5.067875 1  10806040x       Rx   d 5 00 00 00 00 19  Length = 3418235 BitCount = 118 ID = 276848704x
   5.078620 1  102CA040x       Rx   d 8 00 40 0A A6 16 00 F1 00  Length = 4108212 BitCount = 141 ID = 271360064x
   5.080843 1  13FFE058x       Rx   d 0  Length = 2098271 BitCount = 74 ID = 335536216x
   5.083275 1  106B0040x       Rx   d 1 00  Length = 2308248 BitCount = 81 ID = 275447872x
   5.088016 1  C800040x        Rx   d 6 08 CB 00 00 5A C9  Length = 3598216 BitCount = 124 ID = 209715264x
   5.092731 1  1038C040x       Rx   d 5 00 00 69 05 7F  Length = 3358220 BitCount = 116 ID = 272154688x
   5.098645 1  10264040x       Rx   d 8 04 06 00 00 00 00 00 1B  Length = 4228208 BitCount = 145 ID = 270942272x
   5.103746 1  10780040x       Rx   d 8 00 00 01 04 08 00 00 22  Length = 4288208 BitCount = 147 ID = 276299840x
   5.108845 1  10210040x       Rx   d 8 00 00 00 00 00 00 00 00  Length = 4284562 BitCount = 147 ID = 270598208x
   5.113167 1  10788040x       Rx   d 6 08 00 00 00 00 00  Length = 3774582 BitCount = 130 ID = 276332608x
   5.118751 1  10220040x       Rx   d 8 10 00 00 00 00 04 00 00  Length = 4318208 BitCount = 148 ID = 270663744x
   5.128776 1  1022E040x       Rx   d 8 20 00 00 00 20 00 00 00  Length = 4288208 BitCount = 147 ID = 270721088x
   5.138620 1  10230040x       Rx   d 8 30 00 00 00 30 00 00 00  Length = 4258223 BitCount = 146 ID = 270729280x
   5.140810 1  13FFE0AFx       Rx   d 0  Length = 2064714 BitCount = 73 ID = 335536303x
   5.148819 1  1043A040x       Rx   d 8 00 00 2A 00 00 00 00 00  Length = 4284562 BitCount = 147 ID = 272867392x
   5.158755 1  10240040x       Rx   d 8 83 FF 88 01 00 F6 00 00  Length = 4228208 BitCount = 145 ID = 270794816x
   5.163738 1  106B8040x       Rx   d 8 00 00 00 00 00 00 00 00  Length = 4318208 BitCount = 148 ID = 275480640x
   5.178654 1  102CA040x       Rx   d 8 00 40 0A B9 15 00 F1 00  Length = 4078227 BitCount = 140 ID = 271360064x
   5.181838 1  10448060x       Rx   d 4 00 00 45 00  Length = 3058228 BitCount = 106 ID = 272924768x
   5.198643 1  10264040x       Rx   d 8 04 06 00 00 00 00 00 1B  Length = 4228208 BitCount = 145 ID = 270942272x
   5.200867 1  13FFE060x       Rx   d 0  Length = 2098256 BitCount = 74 ID = 335536224x
   5.203296 1  106B0040x       Rx   d 1 00  Length = 2304686 BitCount = 81 ID = 275447872x
   5.205490 1  13FFE080x       Rx   d 0  Length = 2068275 BitCount = 73 ID = 335536256x
   5.209900 1  10210040x       Rx   d 8 00 00 00 00 00 00 00 00  Length = 4284562 BitCount = 147 ID = 270598208x
   5.218726 1  10220040x       Rx   d 8 10 00 00 00 00 06 00 00  Length = 4288208 BitCount = 147 ID = 270663744x
   5.221695 1  13FFE099x       Rx   d 0  Length = 2064714 BitCount = 73 ID = 335536281x
   5.228716 1  1022E040x       Rx   d 8 00 00 00 00 00 00 00 00  Length = 4314558 BitCount = 148 ID = 270721088x
   5.238650 1  10230040x       Rx   d 8 10 00 00 00 10 00 00 00  Length = 4258208 BitCount = 146 ID = 270729280x
   5.242822 1  1038C040x       Rx   d 5 00 00 00 00 7F  Length = 3414598 BitCount = 118 ID = 272154688x
   5.258609 1  1022A040x       Rx   d 8 00 B0 00 12 42 00 00 22  Length = 4138208 BitCount = 142 ID = 270704704x
   5.263114 1  1022C040x       Rx   d 6 00 10 00 20 00 00  Length = 3688216 BitCount = 127 ID = 270712896x
   5.268730 1  10240040x       Rx   d 8 83 FE 88 01 00 F6 0F FC  Length = 4228208 BitCount = 145 ID = 270794816x
   5.272693 1  102C0040x       Rx   d 5 AE EF 44 59 03  Length = 3298224 BitCount = 114 ID = 271319104x
   5.278336 1  10248040x       Rx   d 7 00 00 6C D5 CC 06 00  Length = 3838212 BitCount = 132 ID = 270827584x
   5.283645 1  102CA040x       Rx   d 8 00 40 0A A1 15 00 F1 00  Length = 4134581 BitCount = 142 ID = 271360064x
   5.288600 1  102CC040x       Rx   d 8 00 09 CF 3F 00 87 06 A9  Length = 4108223 BitCount = 141 ID = 271368256x
   5.292348 1  10306099x       Rx   d 3 44 59 01  Length = 2754642 BitCount = 96 ID = 271605913x
   5.298653 1  10264040x       Rx   d 8 04 06 00 00 00 00 00 28  Length = 4198208 BitCount = 144 ID = 270942272x
   5.301502 1  10304058x       Rx   d 3 44 59 01  Length = 2724642 BitCount = 95 ID = 271597656x
   5.305733 1  102CE040x       Rx   d 8 80 00 4A 3F 00 00 26 AA  Length = 4104581 BitCount = 141 ID = 271376448x
   5.308648 1  10308060x       Rx   d 3 44 59 01  Length = 2788236 BitCount = 97 ID = 271614048x
   5.313750 1  10210040x       Rx   d 8 00 00 00 00 00 00 00 00  Length = 4288223 BitCount = 147 ID = 270598208x
   5.318850 1  10220040x       Rx   d 8 10 00 00 00 00 05 00 00  Length = 4284562 BitCount = 147 ID = 270663744x
   5.321735 1  106B0040x       Rx   d 1 00  Length = 2308263 BitCount = 81 ID = 275447872x
   5.328700 1  1022E040x       Rx   d 8 20 00 00 00 20 00 00 00  Length = 4288223 BitCount = 147 ID = 270721088x
   5.333922 1  10780040x       Rx   d 8 00 00 01 04 08 00 00 22  Length = 4284562 BitCount = 147 ID = 276299840x
   5.338096 1  C800040x        Rx   d 6 08 CB 00 00 5A CA  Length = 3598216 BitCount = 124 ID = 209715264x
   5.343798 1  10230040x       Rx   d 8 30 00 00 00 30 00 00 00  Length = 4258223 BitCount = 146 ID = 270729280x
   5.358680 1  10240040x       Rx   d 8 83 FE 88 01 00 F6 00 00  Length = 4224562 BitCount = 145 ID = 270794816x
   5.363781 1  106B8040x       Rx   d 8 00 00 00 00 00 00 00 00  Length = 4314558 BitCount = 148 ID = 275480640x
   5.366546 1  13FFE040x       Rx   d 0  Length = 2068260 BitCount = 73 ID = 335536192x
   5.378668 1  102CA040x       Rx   d 8 00 40 0A C5 15 00 F1 00  Length = 4074581 BitCount = 140 ID = 271360064x
   5.398687 1  10264040x       Rx   d 8 04 06 00 00 00 00 00 1B  Length = 4228208 BitCount = 145 ID = 270942272x
   5.403762 1  1043A040x       Rx   d 8 00 00 2A 00 00 00 00 00  Length = 4288208 BitCount = 147 ID = 272867392x
   5.408923 1  10210040x       Rx   d 8 00 00 00 00 00 00 00 00  Length = 4288223 BitCount = 147 ID = 270598208x
   5.413484 1  1080A040x       Rx   d 7 00 00 00 00 00 00 00  Length = 4018212 BitCount = 138 ID = 276865088x
   5.418886 1  10220040x       Rx   d 8 10 00 00 00 00 06 00 00  Length = 4284562 BitCount = 147 ID = 270663744x
   5.428880 1  1022E040x       Rx   d 8 00 00 00 00 00 00 00 00  Length = 4318208 BitCount = 148 ID = 270721088x
   5.433200 1  10734099x       Rx   d 6 14 00 00 7D 00 00  Length = 3594590 BitCount = 124 ID = 275988633x
   5.438725 1  10230040x       Rx   d 8 10 00 00 00 10 00 00 00  Length = 4258208 BitCount = 146 ID = 270729280x
   5.441760 1  106B0040x       Rx   d 1 00  Length = 2308263 BitCount = 81 ID = 275447872x
   5.458715 1  10240040x       Rx   d 8 83 FE 88 01 00 F6 0F FC  Length = 4228208 BitCount = 145 ID = 270794816x
   5.478151 1  10324058x       Rx   d 6 00 00 03 FF 00 00  Length = 3684586 BitCount = 127 ID = 271728728x
   5.482385 1  102CA040x       Rx   d 8 00 40 0A BB 15 00 F1 00  Length = 4108212 BitCount = 141 ID = 271360064x
   5.495216 1  13FFE0BBx       Rx   d 0  Length = 2034718 BitCount = 72 ID = 335536315x
   5.499567 1  10264040x       Rx   d 8 04 06 00 00 00 00 00 1B  Length = 4224577 BitCount = 145 ID = 270942272x
   5.508813 1  10210040x       Rx   d 8 00 00 00 00 00 00 00 00  Length = 4288208 BitCount = 147 ID = 270598208x
   5.513677 1  1022A040x       Rx   d 8 00 B0 00 12 42 00 00 22  Length = 4138208 BitCount = 142 ID = 270704704x
   5.518838 1  10220040x       Rx   d 8 10 00 00 00 00 07 00 00  Length = 4318223 BitCount = 148 ID = 270663744x
   5.523189 1  1022C040x       Rx   d 6 00 10 00 20 00 00  Length = 3688216 BitCount = 127 ID = 270712896x
   5.526311 1  10814099x       Rx   d 4 20 44 30 00  Length = 2998228 BitCount = 104 ID = 276906137x
   5.530719 1  1022E040x       Rx   d 8 20 00 00 00 20 00 00 00  Length = 4284562 BitCount = 147 ID = 270721088x
   5.538731 1  10230040x       Rx   d 8 30 00 00 00 30 00 00 00  Length = 4254562 BitCount = 146 ID = 270729280x
   5.542124 1  10250040x       Rx   d 2 00 03  Length = 2608240 BitCount = 91 ID = 270860352x
